!$
! Info: Touchstone file created by Circ.  Input file=Tx_2in_Rx_100ohms_TxVia_10mils_RxVia_20mils.circ
!$
# Hz S RI R 50
0	0.002207081	2.044539e-26	-1.095103e-05	2.142038e-25	2.235817e-05	2.248374e-24	-1.095629e-05	4.79921e-25
	-1.095103e-05	2.142808e-25	0.002206491	2.852791e-26	-1.095205e-05	7.318247e-26	2.197168e-05	3.06929e-24
	2.046835e-05	2.216797e-24	-1.095205e-05	7.32666e-26	0.002221377	2.128259e-26	-1.095118e-05	4.148122e-25
	-1.095628e-05	4.793165e-25	2.34303e-05	3.159039e-24	-1.095117e-05	4.142703e-25	0.002212151	2.726815e-26
1e+07	0.002910685	0.001680368	-1.694611e-05	-8.706277e-06	3.990748e-05	0.0004792418	-4.859682e-05	2.325186e-05
	-1.694611e-05	-8.706278e-06	0.003122248	0.001644352	-6.147596e-06	-3.106388e-06	0.0001109426	0.0004952876
	3.986874e-05	0.0004792665	-6.147596e-06	-3.106388e-06	0.00304474	0.001632684	-1.689325e-06	-2.852761e-06
	-4.859683e-05	2.325186e-05	0.0001109747	0.0004952762	-1.689326e-06	-2.85276e-06	0.003106687	0.00164742
2e+07	0.00374407	0.002766697	-7.82468e-06	-1.719742e-05	7.131061e-05	0.000964655	-5.76699e-05	1.668709e-05
	-7.824679e-06	-1.719743e-05	0.003875214	0.002627685	-4.668938e-06	-3.577825e-06	0.0001097471	0.001019491
	7.131743e-05	0.0009646729	-4.668937e-06	-3.577825e-06	0.003809789	0.002642075	-1.835868e-06	1.384076e-08
	-5.76699e-05	1.668709e-05	0.0001097441	0.00101947	-1.835868e-06	1.384165e-08	0.003866422	0.002644803
3e+07	0.004424901	0.00350842	-1.997935e-06	-1.972854e-05	0.0001246798	0.001440721	-6.481604e-05	1.315686e-05
	-1.997935e-06	-1.972854e-05	0.004492086	0.003337294	-3.568203e-06	-3.864381e-06	0.0001369254	0.001507924
	0.0001246772	0.001440722	-3.568203e-06	-3.864381e-06	0.004438231	0.003360221	-2.072268e-06	-4.694763e-07
	-6.481604e-05	1.315686e-05	0.0001369203	0.001507922	-2.072268e-06	-4.694761e-07	0.004490024	0.003362441
4e+07	0.005037487	0.004118527	-8.848813e-06	-1.951443e-05	0.0001994754	0.001911467	-7.114968e-05	9.421902e-06
	-8.848813e-06	-1.951443e-05	0.00504886	0.003934477	-2.654569e-06	-3.995898e-06	0.0001940878	0.001984246
	0.0001994706	0.001911469	-2.654569e-06	-3.995898e-06	0.005007136	0.003961892	-2.366927e-06	-1.238434e-06
	-7.114968e-05	9.421902e-06	0.0001940873	0.001984248	-2.366928e-06	-1.238434e-06	0.005054155	0.003964191
5e+07	0.005612404	0.004643979	-1.483424e-05	-1.800353e-05	0.0002951333	0.002376727	-7.709634e-05	5.323814e-06
	-1.483424e-05	-1.800352e-05	0.005573205	0.004458079	-1.853468e-06	-4.025195e-06	0.0003100927	0.002447518
	0.0002951321	0.002376728	-1.853468e-06	-4.025195e-06	0.005544457	0.004487653	-2.702439e-06	-1.911836e-06
	-7.709634e-05	5.323814e-06	0.0003100922	0.002447518	-2.702439e-06	-1.911836e-06	0.005585042	0.004490585
6e+07	0.006164187	0.005105935	-2.013889e-05	-1.550717e-05	0.0004111845	0.002835977	-8.288731e-05	8.359827e-07
	-2.013889e-05	-1.550717e-05	0.006078319	0.004926388	-1.124523e-06	-3.973722e-06	0.0004425934	0.002901588
	0.0004111854	0.002835975	-1.124523e-06	-3.973722e-06	0.006063411	0.004956229	-3.082091e-06	-2.532166e-06
	-8.288731e-05	8.359827e-07	0.0004425904	0.002901588	-3.082091e-06	-2.532166e-06	0.006096464	0.004960968
7e+07	0.006700884	0.00551614	-2.485206e-05	-1.215158e-05	0.0005506373	0.003288047	-8.867939e-05	-4.095937e-06
	-2.485206e-05	-1.215158e-05	0.006571584	0.005349939	-8.466085e-07	-3.78426e-06	0.0005916592	0.003346431
	0.0005506382	0.003288042	-8.466085e-07	-3.78426e-06	0.006571353	0.005378369	-3.507069e-06	-3.115405e-06
	-8.867939e-05	-4.095937e-06	0.0005916545	0.003346434	-3.507069e-06	-3.115405e-06	0.006596299	0.00538571
8e+07	0.007227307	0.005881777	-2.900646e-05	-7.944244e-06	0.0007102649	0.003732592	-9.460904e-05	-9.612332e-06
	-2.900646e-05	-7.944244e-06	0.007057556	0.005735686	-1.553368e-06	-3.323615e-06	0.0007571348	0.003781571
	0.0007102647	0.003732587	-1.553368e-06	-3.323615e-06	0.007072806	0.005761111	-3.979196e-06	-3.670586e-06
	-9.460904e-05	-9.612332e-06	0.0007571301	0.003781575	-3.979195e-06	-3.670587e-06	0.007088983	0.00577136
9e+07	0.007746356	0.006207282	-3.257618e-05	-2.730158e-06	0.0008888571	0.004169253	-0.0001008484	-1.607717e-05
	-3.257618e-05	-2.730158e-06	0.007539299	0.006089062	-2.168406e-06	-2.716037e-06	0.0009386584	0.004206116
	0.0008888562	0.004169249	-2.168406e-06	-2.716037e-06	0.007570782	0.006109846	-4.503281e-06	-4.211199e-06
	-0.0001008484	-1.607717e-05	0.0009386556	0.00420612	-4.503281e-06	-4.211199e-06	0.007577153	0.006123141
1e+08	0.008259201	0.006493436	-3.526352e-05	4.614049e-06	0.001086397	0.004598736	-0.0001079133	-2.545903e-05
	-3.526352e-05	4.614049e-06	0.008020048	0.006418599	-2.644984e-06	-1.800188e-06	0.001135283	0.004617252
	0.001086396	0.004598736	-2.644984e-06	-1.800188e-06	0.008068342	0.006432566	-5.097546e-06	-4.787086e-06
	-0.0001079133	-2.545903e-05	0.001135284	0.004617251	-5.097546e-06	-4.787086e-06	0.00806351	0.006449201
1.1e+08	0.008758793	0.006742472	-3.347632e-05	9.825876e-06	0.001307355	0.005016408	-0.0001079908	-3.603081e-05
	-3.347632e-05	9.825876e-06	0.008519062	0.00670492	-2.436103e-06	-1.053704e-06	0.001338637	0.005020335
	0.001307355	0.005016408	-2.436103e-06	-1.053704e-06	0.008583952	0.006711227	-5.553573e-06	-5.363882e-06
	-0.0001079908	-3.603081e-05	0.001338637	0.005020335	-5.553573e-06	-5.363882e-06	0.008566363	0.006733225
1.2e+08	0.009254427	0.006969652	-3.364479e-05	7.173146e-06	0.001544835	0.005420252	-0.000107827	-4.313385e-05
	-3.364479e-05	7.173146e-06	0.009011405	0.006956153	-2.294534e-06	-5.874007e-07	0.001558769	0.005417191
	0.001544835	0.005420252	-2.294534e-06	-5.874007e-07	0.009093356	0.006954167	-6.029224e-06	-5.810438e-06
	-0.000107827	-4.313385e-05	0.001558769	0.005417191	-6.029224e-06	-5.810438e-06	0.009062611	0.006982497
1.3e+08	0.009747552	0.007172893	-3.379184e-05	5.238425e-06	0.001798605	0.0058112	-0.0001078136	-4.89131e-05
	-3.379184e-05	5.238425e-06	0.00949996	0.007179099	-2.164865e-06	-2.248475e-07	0.001794799	0.005804513
	0.001798605	0.005811201	-2.164865e-06	-2.248475e-07	0.009599334	0.007167828	-6.537435e-06	-6.180385e-06
	-0.0001078136	-4.89131e-05	0.001794799	0.005804513	-6.537435e-06	-6.180385e-06	0.009554979	0.007203341
1.4e+08	0.01023916	0.007352122	-3.395316e-05	3.744758e-06	0.002068176	0.006188925	-0.000107994	-5.384205e-05
	-3.395316e-05	3.744758e-06	0.009985955	0.007375653	-2.041284e-06	7.466233e-08	0.002046124	0.006181027
	0.002068176	0.006188925	-2.041284e-06	7.466233e-08	0.01010314	0.007354113	-7.077186e-06	-6.484494e-06
	-0.000107994	-5.384205e-05	0.002046124	0.006181027	-7.077186e-06	-6.484494e-06	0.01004466	0.007397616
1.5e+08	0.01072971	0.007507463	-3.41397e-05	2.564477e-06	0.00235299	0.006552922	-0.0001083729	-5.8145e-05
	-3.41397e-05	2.564477e-06	0.01046995	0.00754691	-1.921361e-06	3.30288e-07	0.002312152	0.006545801
	0.00235299	0.006552922	-1.921361e-06	3.30288e-07	0.01060536	0.007514121	-7.645812e-06	-6.727081e-06
	-0.0001083729	-5.8145e-05	0.002312152	0.006545801	-7.645812e-06	-6.727081e-06	0.0105322	0.007566424
1.6e+08	0.01121932	0.007639112	-3.435422e-05	1.625071e-06	0.002652449	0.006902633	-0.000108943	-6.195166e-05
	-3.435422e-05	1.625071e-06	0.01095211	0.007693659	-1.80381e-06	5.53087e-07	0.00259228	0.006898054
	0.002652449	0.006902633	-1.80381e-06	5.53087e-07	0.01110621	0.00764861	-8.24006e-06	-6.910085e-06
	-0.000108943	-6.195166e-05	0.00259228	0.006898054	-8.24006e-06	-6.910085e-06	0.01101778	0.007710564
1.7e+08	0.01170784	0.007747305	-3.459618e-05	8.805535e-07	0.002965916	0.007237486	-0.0001096934	-6.534554e-05
	-3.459618e-05	8.805535e-07	0.01143235	0.007816547	-1.687863e-06	7.501376e-07	0.002885885	0.007237091
	0.002965916	0.007237486	-1.687863e-06	7.501376e-07	0.01160562	0.00775818	-8.856398e-06	-7.034369e-06
	-0.0001096934	-6.534554e-05	0.002885885	0.007237091	-8.856398e-06	-7.034369e-06	0.01150132	0.007830688
1.8e+08	0.01219499	0.007832319	-3.486338e-05	2.998658e-07	0.003292719	0.007556916	-0.0001106115	-6.838399e-05
	-3.486338e-05	2.998658e-07	0.01191044	0.00791615	-1.573011e-06	9.263271e-07	0.003192328	0.007562276
	0.003292719	0.007556916	-1.573011e-06	9.263271e-07	0.01210334	0.00784335	-9.491121e-06	-7.100273e-06
	-0.0001106115	-6.838399e-05	0.003192328	0.007562276	-9.491121e-06	-7.100273e-06	0.0119826	0.007927377
1.9e+08	0.01268035	0.007894458	-3.515331e-05	-1.385996e-07	0.003632156	0.007860369	-0.0001116844	-7.110845e-05
	-3.515331e-05	-1.385996e-07	0.01238602	0.007993008	-1.520124e-06	9.476405e-07	0.003510947	0.007873022
	0.003632156	0.007860369	-1.520124e-06	9.476405e-07	0.01259899	0.007904592	-1.014098e-05	-7.107418e-06
	-0.0001116844	-7.110845e-05	0.003510947	0.007873022	-1.014098e-05	-7.107418e-06	0.01246129	0.008001169
2e+08	0.01316346	0.00793405	-3.546224e-05	-4.512194e-07	0.003983492	0.008147317	-0.0001128991	-7.354997e-05
	-3.546224e-05	-4.512194e-07	0.01285871	0.008047631	-1.513903e-06	8.713939e-07	0.003841062	0.008168783
	0.003983492	0.008147318	-1.513903e-06	8.713939e-07	0.01309215	0.007942353	-1.080191e-05	-7.055911e-06
	-0.0001128991	-7.354997e-05	0.003841062	0.008168783	-1.080191e-05	-7.055911e-06	0.01293697	0.008052575
2.1e+08	0.0136438	0.007951433	-3.578592e-05	-6.508582e-07	0.004345969	0.008417257	-0.0001142433	-7.573259e-05
	-3.578592e-05	-6.508582e-07	0.01332807	0.008080507	-1.508194e-06	8.055924e-07	0.004181969	0.008449047
	0.00434597	0.008417257	-1.508194e-06	8.055924e-07	0.01358229	0.007957064	-1.146951e-05	-6.946173e-06
	-0.0001142433	-7.573259e-05	0.004181969	0.008449047	-1.146951e-05	-6.946173e-06	0.01340922	0.008082078
2.2e+08	0.01412085	0.007946959	-3.612039e-05	-7.473176e-07	0.004718802	0.008669714	-0.0001157049	-7.767545e-05
	-3.612039e-05	-7.473176e-07	0.01379362	0.00809211	-1.502934e-06	7.487467e-07	0.004532948	0.008713341
	0.004718802	0.008669714	-1.502934e-06	7.487467e-07	0.0140689	0.007949147	-1.213983e-05	-6.77837e-06
	-0.0001157049	-7.767545e-05	0.004532948	0.008713341	-1.213983e-05	-6.77837e-06	0.01387756	0.00809015
2.3e+08	0.01459404	0.007920992	-3.646158e-05	-7.484682e-07	0.00510118	0.008904247	-0.0001172721	-7.939414e-05
	-3.646158e-05	-7.484682e-07	0.01425489	0.008082905	-1.498031e-06	6.99689e-07	0.004893258	0.008961226
	0.00510118	0.008904247	-1.498031e-06	6.99689e-07	0.01455141	0.007919024	-1.280885e-05	-6.552811e-06
	-0.0001172721	-7.939414e-05	0.004893258	0.008961226	-1.280885e-05	-6.552811e-06	0.01434151	0.008077256
2.4e+08	0.0150628	0.007873895	-3.680549e-05	-6.609427e-07	0.005492274	0.00912045	-0.000118934	-8.090173e-05
	-3.680549e-05	-6.609427e-07	0.01471138	0.008053334	-1.493407e-06	6.574317e-07	0.005262138	0.009192297
	0.005492274	0.00912045	-1.493407e-06	6.574317e-07	0.01502924	0.007867104	-1.34726e-05	-6.269966e-06
	-0.000118934	-8.090173e-05	0.005262138	0.009192297	-1.34726e-05	-6.269966e-06	0.01480058	0.008043839
2.5e+08	0.01552657	0.007806043	-3.714807e-05	-4.903301e-07	0.005891235	0.009317951	-0.00012068	-8.220937e-05
	-3.714807e-05	-4.903301e-07	0.01516261	0.00800384	-1.488961e-06	6.211887e-07	0.005638814	0.009406187
	0.005891235	0.009317951	-1.488961e-06	6.211887e-07	0.01550182	0.007793806	-1.412711e-05	-5.9305e-06
	-0.00012068	-8.220937e-05	0.005638814	0.009406187	-1.412711e-05	-5.9305e-06	0.01525425	0.007990344
2.6e+08	0.01598477	0.007717807	-3.748532e-05	-2.415575e-07	0.006297194	0.009496418	-0.0001224999	-8.332679e-05
	-3.748532e-05	-2.415575e-07	0.01560808	0.007934855	-1.484595e-06	5.9029e-07	0.006022492	0.009602563
	0.006297194	0.009496418	-1.484595e-06	5.9029e-07	0.01596857	0.007699539	-1.476845e-05	-5.535278e-06
	-0.0001224999	-8.332679e-05	0.006022492	0.009602563	-1.476845e-05	-5.535278e-06	0.01570204	0.007917202
2.7e+08	0.01643682	0.007609573	-3.781326e-05	8.098309e-08	0.006709269	0.009655555	-0.0001243839	-8.426278e-05
	-3.781326e-05	8.098309e-08	0.01604729	0.007846802	-1.480204e-06	5.64178e-07	0.006412366	0.009781129
	0.006709269	0.009655555	-1.480204e-06	5.64178e-07	0.01642888	0.007584722	-1.539274e-05	-5.085385e-06
	-0.0001243839	-8.426278e-05	0.006412366	0.00978113	-1.539274e-05	-5.085385e-06	0.01614342	0.007824841
2.8e+08	0.01688216	0.007481724	-3.812806e-05	4.732264e-07	0.007126564	0.009795106	-0.0001263229	-8.502521e-05
	-3.812806e-05	4.732264e-07	0.01647975	0.007740104	-1.475693e-06	5.423629e-07	0.006807619	0.009941626
	0.007126564	0.009795106	-1.475693e-06	5.423629e-07	0.01688218	0.007449776	-1.599617e-05	-4.582114e-06
	-0.0001263229	-8.502521e-05	0.006807619	0.009941626	-1.599617e-05	-4.582114e-06	0.01657791	0.007713696
2.9e+08	0.0173202	0.007334656	-3.842594e-05	9.313563e-07	0.007548171	0.009914857	-0.0001283083	-8.562133e-05
	-3.842594e-05	9.313563e-07	0.01690494	0.007615185	-1.470967e-06	5.244201e-07	0.00720742	0.01008383
	0.007548171	0.009914857	-1.470967e-06	5.244201e-07	0.01732787	0.007295125	-1.657501e-05	-4.026974e-06
	-0.0001283083	-8.562133e-05	0.00720742	0.01008383	-1.657501e-05	-4.026974e-06	0.01700498	0.007584187
3e+08	0.01775037	0.007168766	-3.87032e-05	1.451732e-06	0.007973171	0.01001463	-0.0001303314	-8.605814e-05
	-3.87032e-05	1.451732e-06	0.01732239	0.007472465	-1.465929e-06	5.099804e-07	0.00761093	0.01020756
	0.007973171	0.01001463	-1.465929e-06	5.099804e-07	0.01776538	0.007121198	-1.712563e-05	-3.421711e-06
	-0.0001303314	-8.605814e-05	0.00761093	0.01020756	-1.712563e-05	-3.421711e-06	0.01742413	0.007436747
3.1e+08	0.0181721	0.00698447	-3.895633e-05	2.030807e-06	0.00840064	0.0100943	-0.0001323848	-8.634204e-05
	-3.895633e-05	2.030807e-06	0.0177316	0.007312371	-1.460496e-06	4.987098e-07	0.008017303	0.01031268
	0.00840064	0.0100943	-1.460496e-06	4.987098e-07	0.01819411	0.00692844	-1.764452e-05	-2.768264e-06
	-0.0001323848	-8.634204e-05	0.008017303	0.01031268	-1.764452e-05	-2.768264e-06	0.01783488	0.007271809
3.2e+08	0.01858484	0.006782185	-3.918189e-05	2.665083e-06	0.008829646	0.01015377	-0.0001344608	-8.647926e-05
	-3.918189e-05	2.665083e-06	0.01813207	0.007135329	-1.454582e-06	4.903092e-07	0.008425687	0.01039906
	0.008829646	0.01015377	-1.454582e-06	4.903092e-07	0.01861349	0.006717296	-1.81283e-05	-2.068789e-06
	-0.0001344608	-8.647926e-05	0.008425687	0.01039906	-1.81283e-05	-2.068789e-06	0.01823671	0.00708981
3.3e+08	0.01898801	0.006562346	-3.937656e-05	3.351085e-06	0.009259255	0.01019299	-0.0001365523	-8.647609e-05
	-3.937656e-05	3.351085e-06	0.01852332	0.006941777	-1.448103e-06	4.845091e-07	0.008835223	0.01046665
	0.009259255	0.01019299	-1.448103e-06	4.845091e-07	0.01902297	0.00648823	-1.85737e-05	-1.325678e-06
	-0.0001365523	-8.647609e-05	0.008835223	0.01046665	-1.85737e-05	-1.325678e-06	0.01862914	0.00689119
3.4e+08	0.01938107	0.006325395	-3.953725e-05	4.085328e-06	0.009688529	0.01021196	-0.0001386528	-8.633836e-05
	-3.953725e-05	4.085328e-06	0.01890488	0.006732157	-1.440989e-06	4.810597e-07	0.009245055	0.01051541
	0.009688529	0.01021196	-1.440989e-06	4.810597e-07	0.01942196	0.006241711	-1.897764e-05	-5.414874e-07
	-0.0001386528	-8.633836e-05	0.009245055	0.01051541	-1.897764e-05	-5.414874e-07	0.01901169	0.006676406
3.5e+08	0.01976347	0.006071792	-3.966097e-05	4.864291e-06	0.01011653	0.01021071	-0.0001407561	-8.607202e-05
	-3.966097e-05	4.864291e-06	0.01927628	0.00650692	-1.433171e-06	4.797294e-07	0.009654321	0.01054536
	0.01011653	0.01021071	-1.433171e-06	4.797294e-07	0.01980992	0.005978227	-1.933691e-05	2.807336e-07
	-0.0001407561	-8.607202e-05	0.009654321	0.01054536	-1.933691e-05	2.807336e-07	0.01938387	0.006445915
3.6e+08	0.02013468	0.005802009	-3.974496e-05	5.684409e-06	0.01054233	0.01018932	-0.0001428553	-8.568242e-05
	-3.974496e-05	5.684409e-06	0.01963704	0.006266525	-1.423533e-06	4.80621e-07	0.01006216	0.01055653
	0.01054233	0.01018932	-1.423533e-06	4.80621e-07	0.02018631	0.005698272	-1.973791e-05	1.226821e-06
	-0.0001428553	-8.568242e-05	0.01006216	0.01055653	-1.973791e-05	1.226821e-06	0.01974522	0.006200188
3.7e+08	0.02049417	0.00551653	-3.978659e-05	6.542075e-06	0.01096499	0.01014791	-0.0001449461	-8.517559e-05
	-3.978659e-05	6.542075e-06	0.01998671	0.006011442	-1.412802e-06	4.832112e-07	0.01046773	0.01054903
	0.01096499	0.01014791	-1.412802e-06	4.832112e-07	0.02055059	0.00540236	-2.010133e-05	2.225395e-06
	-0.0001449461	-8.517559e-05	0.01046773	0.01054903	-2.010133e-05	2.225395e-06	0.02009528	0.005939704
3.8e+08	0.02084141	0.005215857	-3.978344e-05	7.433624e-06	0.01138359	0.01008664	-0.0001470235	-8.455734e-05
	-3.978344e-05	7.433624e-06	0.02032484	0.005742153	-1.401136e-06	4.872362e-07	0.01087016	0.01052297
	0.01138359	0.01008664	-1.401136e-06	4.872362e-07	0.02090224	0.005091019	-2.040675e-05	3.25572e-06
	-0.0001470235	-8.455734e-05	0.01087016	0.01052297	-2.040675e-05	3.25572e-06	0.02043359	0.005664954
3.9e+08	0.02117591	0.004900509	-3.973331e-05	8.355328e-06	0.01179722	0.01000572	-0.0001490831	-8.383322e-05
	-3.973331e-05	8.355328e-06	0.02065101	0.005459149	-1.388494e-06	4.925102e-07	0.01126862	0.01047852
	0.01179722	0.01000572	-1.388494e-06	4.925102e-07	0.02124075	0.004764785	-2.065208e-05	4.314232e-06
	-0.0001490831	-8.383322e-05	0.01126862	0.01047852	-2.065208e-05	4.314232e-06	0.02075972	0.005376441
4e+08	0.02149717	0.004571019	-3.963418e-05	9.303396e-06	0.01220496	0.009905396	-0.0001511206	-8.300904e-05
	-3.963418e-05	9.303396e-06	0.02096477	0.005162936	-1.374841e-06	4.988562e-07	0.01166227	0.01041588
	0.01220496	0.009905396	-1.374841e-06	4.988562e-07	0.02156563	0.00442422	-2.083543e-05	5.397197e-06
	-0.0001511206	-8.300904e-05	0.01166227	0.01041588	-2.083543e-05	5.397197e-06	0.02107324	0.005074678
4.1e+08	0.02180473	0.004227936	-3.948425e-05	1.027399e-05	0.01260592	0.009785951	-0.0001531323	-8.209044e-05
	-3.948425e-05	1.027399e-05	0.02126573	0.004854029	-1.360151e-06	5.061057e-07	0.01205028	0.01033529
	0.01260592	0.009785951	-1.360151e-06	5.061057e-07	0.02187639	0.004069896	-2.095516e-05	6.500774e-06
	-0.0001531323	-8.209044e-05	0.01205028	0.01033529	-2.095516e-05	6.500774e-06	0.02137374	0.004760195
4.2e+08	0.02209811	0.003871823	-3.928196e-05	1.126322e-05	0.01299923	0.009647714	-0.0001551149	-8.108279e-05
	-3.928196e-05	1.126322e-05	0.02155348	0.004532957	-1.344404e-06	5.140967e-07	0.01243183	0.01023702
	0.01299923	0.009647714	-1.344404e-06	5.140967e-07	0.02217257	0.003702396	-2.100986e-05	7.621028e-06
	-0.0001551149	-8.108279e-05	0.01243183	0.01023702	-2.100986e-05	7.621028e-06	0.02166081	0.004433525
4.3e+08	0.02237686	0.003503262	-3.902598e-05	1.226716e-05	0.013384	0.009491054	-0.0001570656	-7.999155e-05
	-3.902598e-05	1.226716e-05	0.02182764	0.004200257	-1.327586e-06	5.226745e-07	0.01280613	0.0101214
	0.013384	0.009491054	-1.327586e-06	5.226745e-07	0.02245374	0.003322328	-2.099836e-05	8.753921e-06
	-0.0001570656	-7.999155e-05	0.01280613	0.0101214	-2.099836e-05	8.753921e-06	0.02193407	0.004095221
4.4e+08	0.02264057	0.003122847	-3.87152e-05	1.328183e-05	0.0137594	0.009316376	-0.0001589817	-7.882215e-05
	-3.87152e-05	1.328183e-05	0.02208784	0.003856483	-1.309691e-06	5.316896e-07	0.01317239	0.009988761
	0.0137594	0.009316376	-1.309691e-06	5.316896e-07	0.02271945	0.002930306	-2.091973e-05	9.895346e-06
	-0.0001589817	-7.882215e-05	0.01317239	0.009988761	-2.091973e-05	9.895346e-06	0.02219316	0.003745844
4.5e+08	0.02288883	0.00273119	-3.834873e-05	1.430325e-05	0.0141246	0.009124126	-0.0001608604	-7.75809e-05
	-3.834873e-05	1.430325e-05	0.02233373	0.003502196	-1.290716e-06	5.409982e-07	0.01352984	0.009839497
	0.0141246	0.009124126	-1.290716e-06	5.409982e-07	0.0229693	0.002526964	-2.077335e-05	1.104114e-05
	-0.0001608604	-7.75809e-05	0.01352984	0.009839497	-2.077335e-05	1.104114e-05	0.02243771	0.003385968
4.6e+08	0.02312124	0.002328916	-3.792626e-05	1.532742e-05	0.01447878	0.008914787	-0.0001626856	-7.629522e-05
	-3.792626e-05	1.532742e-05	0.02256497	0.003137971	-1.270668e-06	5.504657e-07	0.01387771	0.009674025
	0.01447878	0.008914787	-1.270668e-06	5.504657e-07	0.0232029	0.002112947	-2.055909e-05	1.218712e-05
	-0.0001626856	-7.629522e-05	0.01387771	0.009674025	-2.055909e-05	1.218712e-05	0.0226674	0.003016178
4.7e+08	0.02333742	0.001916662	-3.740991e-05	1.634768e-05	0.01482116	0.008688878	-0.0001662983	-7.201333e-05
	-3.740991e-05	1.634768e-05	0.02278125	0.002764394	-1.249777e-06	5.59622e-07	0.01421529	0.009492798
	0.01482116	0.008688878	-1.249777e-06	5.59622e-07	0.02341989	0.001688916	-2.023845e-05	1.332463e-05
