!$
! Info: Touchstone file created by Circ.  Input file=Tx_2in_Rx_100ohms_TxVia_10mils_RxVia_20mils.circ
!$
# Hz S RI R 50
0	0.002207081	2.044539e-26	-1.740976e-11	4.133617e-27	2.235817e-05	2.248374e-24	-2.178563e-08	2.667964e-24
	-1.739547e-11	4.1326e-27	0.002206491	2.852791e-26	1.805651e-11	5.65966e-29	2.197168e-05	3.06929e-24
	2.046835e-05	2.216797e-24	1.802101e-11	5.693668e-29	0.002221377	2.128259e-26	1.759763e-08	7.543299e-27
	-2.178637e-08	2.668055e-24	2.34303e-05	3.159039e-24	1.759816e-08	7.542115e-27	0.002212151	2.726815e-26
1e+07	0.002910685	0.001680368	4.262452e-11	-3.540384e-11	3.990748e-05	0.0004792418	-8.965806e-09	1.857112e-08
	4.262457e-11	-3.540415e-11	0.003122248	0.001644352	1.055413e-12	-6.972513e-11	0.0001109426	0.0004952876
	3.986874e-05	0.0004792665	1.055329e-12	-6.972483e-11	0.00304474	0.001632684	-1.090814e-08	1.794619e-08
	-8.965806e-09	1.857111e-08	0.0001109747	0.0004952762	-1.090814e-08	1.794619e-08	0.003106687	0.00164742
2e+07	0.00374407	0.002766697	4.630287e-11	-3.322596e-11	7.131061e-05	0.000964655	-1.138161e-08	2.169312e-08
	4.630262e-11	-3.322623e-11	0.003875214	0.002627685	3.127293e-11	-1.665219e-10	0.0001097471	0.001019491
	7.131743e-05	0.0009646729	3.127308e-11	-1.665217e-10	0.003809789	0.002642075	-1.543811e-08	1.645818e-08
	-1.138161e-08	2.169312e-08	0.0001097441	0.00101947	-1.543811e-08	1.645818e-08	0.003866422	0.002644803
3e+07	0.004424901	0.00350842	5.445058e-11	-8.505169e-11	0.0001246798	0.001440721	-7.264939e-09	1.700777e-08
	5.445052e-11	-8.505167e-11	0.004492086	0.003337294	-1.953515e-11	-2.035192e-10	0.0001369254	0.001507924
	0.0001246772	0.001440722	-1.953502e-11	-2.035192e-10	0.004438231	0.003360221	-1.443475e-08	1.869926e-08
	-7.264939e-09	1.700777e-08	0.0001369203	0.001507922	-1.443475e-08	1.869926e-08	0.004490024	0.003362441
4e+07	0.005037487	0.004118527	5.687748e-11	-1.248248e-10	0.0001994754	0.001911467	-5.964106e-09	1.451527e-08
	5.687753e-11	-1.248248e-10	0.00504886	0.003934477	1.201545e-11	-2.47059e-10	0.0001940878	0.001984246
	0.0001994706	0.001911469	1.201552e-11	-2.470592e-10	0.005007136	0.003961892	-1.03193e-08	1.697764e-08
	-5.964106e-09	1.451527e-08	0.0001940873	0.001984248	-1.03193e-08	1.697764e-08	0.005054155	0.003964191
5e+07	0.005612404	0.004643979	6.770014e-11	-1.573837e-10	0.0002951333	0.002376727	-5.530518e-09	1.457829e-08
	6.770017e-11	-1.573837e-10	0.005573205	0.004458079	-1.56469e-11	-3.125718e-10	0.0003100927	0.002447518
	0.0002951321	0.002376728	-1.56469e-11	-3.125718e-10	0.005544457	0.004487653	-6.783314e-09	1.332104e-08
	-5.530518e-09	1.457829e-08	0.0003100922	0.002447518	-6.783314e-09	1.332104e-08	0.005585042	0.004490585
6e+07	0.006164187	0.005105935	9.123814e-11	-1.863158e-10	0.0004111845	0.002835977	-2.515172e-09	1.74169e-08
	9.123811e-11	-1.863157e-10	0.006078319	0.004926388	-5.482942e-11	-3.590674e-10	0.0004425934	0.002901588
	0.0004111854	0.002835975	-5.482942e-11	-3.590674e-10	0.006063411	0.004956229	-4.204981e-09	9.47629e-09
	-2.515172e-09	1.74169e-08	0.0004425904	0.002901588	-4.204981e-09	9.47629e-09	0.006096464	0.004960968
7e+07	0.006700884	0.00551614	1.219433e-10	-2.082107e-10	0.0005506373	0.003288047	5.031394e-09	1.55717e-08
	1.219433e-10	-2.082105e-10	0.006571584	0.005349939	-9.229345e-11	-4.075152e-10	0.0005916592	0.003346431
	0.0005506382	0.003288042	-9.229345e-11	-4.075153e-10	0.006571353	0.005378369	-2.33267e-09	6.0297e-09
	5.031394e-09	1.55717e-08	0.0005916545	0.003346434	-2.33267e-09	6.0297e-09	0.006596299	0.00538571
8e+07	0.007227307	0.005881777	1.351884e-10	-2.096124e-10	0.0007102649	0.003732592	6.948234e-09	1.005853e-08
	1.351884e-10	-2.096122e-10	0.007057556	0.005735686	-1.240223e-10	-4.693834e-10	0.0007571348	0.003781571
	0.0007102647	0.003732587	-1.240223e-10	-4.693835e-10	0.007072806	0.005761111	-9.889786e-10	3.117624e-09
	6.948234e-09	1.005853e-08	0.0007571301	0.003781575	-9.889786e-10	3.117624e-09	0.007088983	0.00577136
9e+07	0.007746356	0.006207282	1.013557e-10	-2.414938e-10	0.0008888571	0.004169253	6.04661e-09	7.221574e-09
	1.013557e-10	-2.414937e-10	0.007539299	0.006089062	-1.340829e-10	-5.396353e-10	0.0009386584	0.004206116
	0.0008888562	0.004169249	-1.340829e-10	-5.396354e-10	0.007570782	0.006109846	-1.191165e-10	6.709681e-10
	6.04661e-09	7.221574e-09	0.0009386556	0.00420612	-1.191165e-10	6.709681e-10	0.007577153	0.006123141
1e+08	0.008259201	0.006493436	1.328846e-10	-3.558396e-10	0.001086397	0.004598736	4.916458e-09	5.614784e-09
	1.328846e-10	-3.558396e-10	0.008020048	0.006418599	-1.201702e-10	-5.904426e-10	0.001135283	0.004617252
	0.001086396	0.004598736	-1.201702e-10	-5.904426e-10	0.008068342	0.006432566	3.919284e-10	-1.495682e-09
	4.916458e-09	5.614784e-09	0.001135284	0.004617251	3.919284e-10	-1.495682e-09	0.00806351	0.006449201
1.1e+08	0.008758792	0.006742472	1.493296e-10	-3.986891e-10	0.001307355	0.005016408	5.606629e-09	5.90469e-09
	1.493296e-10	-3.986891e-10	0.008519062	0.00670492	-1.422746e-10	-6.418875e-10	0.001338637	0.005020335
	0.001307355	0.005016408	-1.422746e-10	-6.418875e-10	0.008583952	0.006711227	4.72074e-10	-1.671096e-09
	5.606629e-09	5.90469e-09	0.001338637	0.005020335	4.72074e-10	-1.671096e-09	0.008566363	0.006733225
1.2e+08	0.009254427	0.006969652	1.666351e-10	-4.433544e-10	0.001544835	0.005420252	6.334663e-09	6.144345e-09
	1.666351e-10	-4.433544e-10	0.009011405	0.006956153	-1.631761e-10	-6.929669e-10	0.001558769	0.005417191
	0.001544835	0.005420252	-1.631761e-10	-6.929669e-10	0.009093356	0.006954167	5.571916e-10	-1.852935e-09
	6.334663e-09	6.144345e-09	0.001558769	0.005417191	5.571916e-10	-1.852935e-09	0.009062611	0.006982497
1.3e+08	0.009747552	0.007172893	1.841223e-10	-4.894546e-10	0.001798605	0.0058112	7.096841e-09	6.333187e-09
	1.841223e-10	-4.894546e-10	0.00949996	0.007179099	-1.8525e-10	-7.427196e-10	0.001794799	0.005804513
	0.001798605	0.005811201	-1.8525e-10	-7.427196e-10	0.009599334	0.007167828	6.473182e-10	-2.041934e-09
	7.096841e-09	6.333187e-09	0.001794799	0.005804513	6.473182e-10	-2.041934e-09	0.009554979	0.007203341
1.4e+08	0.01023916	0.007352122	2.017903e-10	-5.370773e-10	0.002068176	0.006188925	7.891121e-09	6.469126e-09
	2.017903e-10	-5.370773e-10	0.009985955	0.007375653	-2.083805e-10	-7.911532e-10	0.002046124	0.006181027
	0.002068176	0.006188925	-2.083805e-10	-7.911532e-10	0.01010314	0.007354113	7.42051e-10	-2.238643e-09
	7.891121e-09	6.469126e-09	0.002046124	0.006181027	7.42051e-10	-2.238643e-09	0.01004466	0.007397616
1.5e+08	0.01072971	0.007507463	2.195837e-10	-5.862931e-10	0.00235299	0.006552922	8.715059e-09	6.550057e-09
	2.195837e-10	-5.862931e-10	0.01046995	0.00754691	-2.324837e-10	-8.382598e-10	0.002312152	0.006545801
	0.00235299	0.006552922	-2.324837e-10	-8.382598e-10	0.01060536	0.007514121	8.408991e-10	-2.443549e-09
	8.715059e-09	6.550057e-09	0.002312152	0.006545801	8.408991e-10	-2.443549e-09	0.0105322	0.007566424
1.6e+08	0.01121932	0.007639112	2.374189e-10	-6.371605e-10	0.002652449	0.006902633	9.565896e-09	6.573938e-09
	2.374189e-10	-6.371605e-10	0.01095211	0.007693659	-2.574853e-10	-8.840249e-10	0.00259228	0.006898054
	0.002652449	0.006902633	-2.574853e-10	-8.840249e-10	0.01110621	0.00764861	9.433249e-10	-2.657083e-09
	9.565896e-09	6.573938e-09	0.00259228	0.006898054	9.433249e-10	-2.657083e-09	0.01101778	0.007710564
1.7e+08	0.01170784	0.007747305	2.55197e-10	-6.897287e-10	0.002965916	0.007237486	1.044062e-08	6.538845e-09
	2.55197e-10	-6.897287e-10	0.01143235	0.007816547	-2.833135e-10	-9.284307e-10	0.002885885	0.007237091
	0.002965916	0.007237486	-2.833135e-10	-9.284307e-10	0.01160562	0.00775818	1.048761e-09	-2.879631e-09
	1.044062e-08	6.538845e-09	0.002885885	0.007237091	1.048761e-09	-2.879631e-09	0.01150132	0.007830688
1.8e+08	0.01219499	0.007832319	2.728095e-10	-7.440379e-10	0.003292719	0.007556916	1.133599e-08	6.443012e-09
	2.728095e-10	-7.440379e-10	0.01191044	0.00791615	-3.098961e-10	-9.71458e-10	0.003192328	0.007562276
	0.003292719	0.007556916	-3.098961e-10	-9.71458e-10	0.01210334	0.00784335	1.156617e-09	-3.111534e-09
	1.133599e-08	6.443012e-09	0.003192328	0.007562276	1.156617e-09	-3.111534e-09	0.0119826	0.007927377
1.9e+08	0.01268035	0.007894458	2.901901e-10	-8.001825e-10	0.003632156	0.007860369	1.224862e-08	6.284854e-09
	2.901901e-10	-8.001825e-10	0.01238602	0.007993008	-3.371313e-10	-1.013116e-09	0.003510947	0.007873022
	0.003632156	0.007860369	-3.371313e-10	-1.013116e-09	0.01259899	0.007904592	1.266337e-09	-3.353153e-09
	1.224862e-08	6.284854e-09	0.003510947	0.007873022	1.266337e-09	-3.353153e-09	0.01246129	0.008001169
2e+08	0.01316346	0.00793405	3.072012e-10	-8.581747e-10	0.003983492	0.008147317	1.317497e-08	6.062984e-09
	3.072012e-10	-8.581747e-10	0.01285871	0.008047631	-3.649529e-10	-1.053383e-09	0.003841062	0.008168783
	0.003983492	0.008147318	-3.649529e-10	-1.053383e-09	0.01309215	0.007942353	1.377283e-09	-3.604735e-09
	1.317497e-08	6.062984e-09	0.003841062	0.008168783	1.377283e-09	-3.604735e-09	0.01293697	0.008052575
2.1e+08	0.0136438	0.007951433	3.236824e-10	-9.179822e-10	0.004345969	0.008417257	1.411138e-08	5.776216e-09
	3.236824e-10	-9.179822e-10	0.01332807	0.008080507	-3.933048e-10	-1.092224e-09	0.004181969	0.008449047
	0.00434597	0.008417257	-3.933048e-10	-1.092224e-09	0.01358229	0.007957064	1.488789e-09	-3.866452e-09
	1.411138e-08	5.776216e-09	0.004181969	0.008449047	1.488789e-09	-3.866452e-09	0.01340922	0.008082078
2.2e+08	0.01412085	0.007946959	3.395103e-10	-9.796098e-10	0.004718802	0.008669714	1.505413e-08	5.423574e-09
	3.395103e-10	-9.796098e-10	0.01379362	0.00809211	-4.221071e-10	-1.129628e-09	0.004532948	0.008713341
	0.004718802	0.008669714	-4.221071e-10	-1.129628e-09	0.0140689	0.007949147	1.600217e-09	-4.138487e-09
	1.505413e-08	5.423574e-09	0.004532948	0.008713341	1.600217e-09	-4.138487e-09	0.01387756	0.00809015
2.3e+08	0.01459404	0.007920992	3.545609e-10	-1.043054e-09	0.00510118	0.008904247	1.599941e-08	5.004288e-09
	3.545609e-10	-1.043054e-09	0.01425489	0.008082905	-4.512782e-10	-1.165587e-09	0.004893258	0.008961226
	0.00510118	0.008904247	-4.512782e-10	-1.165587e-09	0.01455141	0.007919024	1.710926e-09	-4.420983e-09
	1.599941e-08	5.004288e-09	0.004893258	0.008961226	1.710926e-09	-4.420983e-09	0.01434151	0.008077256
2.4e+08	0.0150628	0.007873895	3.687104e-10	-1.108304e-09	0.005492274	0.00912045	1.694336e-08	4.517802e-09
	3.687104e-10	-1.108304e-09	0.01471138	0.008053334	-4.807348e-10	-1.200097e-09	0.005262138	0.009192297
	0.005492274	0.00912045	-4.807348e-10	-1.200097e-09	0.01502924	0.007867104	1.820269e-09	-4.714051e-09
	1.694336e-08	4.517802e-09	0.005262138	0.009192297	1.820269e-09	-4.714051e-09	0.01480058	0.008043839
2.5e+08	0.01552657	0.007806043	3.818359e-10	-1.175339e-09	0.005891235	0.009317951	1.788208e-08	3.963768e-09
	3.818359e-10	-1.175339e-09	0.01516261	0.00800384	-5.103928e-10	-1.23316e-09	0.005638814	0.009406187
	0.005891235	0.009317951	-5.103928e-10	-1.23316e-09	0.01550182	0.007793806	1.927594e-09	-5.017764e-09
	1.788208e-08	3.963768e-09	0.005638814	0.009406187	1.927594e-09	-5.017764e-09	0.01525425	0.007990344
2.6e+08	0.01598477	0.007717807	3.938156e-10	-1.244133e-09	0.006297194	0.009496418	1.881165e-08	3.342047e-09
	3.938156e-10	-1.244133e-09	0.01560808	0.007934855	-5.401671e-10	-1.264781e-09	0.006022492	0.009602563
	0.006297194	0.009496418	-5.401671e-10	-1.264781e-09	0.01596857	0.007699539	2.032249e-09	-5.332163e-09
	1.881165e-08	3.342047e-09	0.006022492	0.009602563	2.032249e-09	-5.332163e-09	0.01570204	0.007917202
2.7e+08	0.01643682	0.007609573	4.045299e-10	-1.314652e-09	0.006709269	0.009655555	1.972813e-08	2.652712e-09
	4.045299e-10	-1.314652e-09	0.01604729	0.007846802	-5.699725e-10	-1.294971e-09	0.006412366	0.009781129
	0.006709269	0.009655555	-5.699725e-10	-1.294971e-09	0.01642888	0.007584722	2.133581e-09	-5.657252e-09
	1.972813e-08	2.652712e-09	0.006412366	0.00978113	2.133581e-09	-5.657252e-09	0.01614342	0.007824841
2.8e+08	0.01688216	0.007481724	4.13861e-10	-1.386854e-09	0.007126564	0.009795106	2.062758e-08	1.89604e-09
	4.13861e-10	-1.386854e-09	0.01647975	0.007740104	-5.997237e-10	-1.323746e-09	0.006807619	0.009941626
	0.007126564	0.009795106	-5.997237e-10	-1.323746e-09	0.01688218	0.007449776	2.230937e-09	-5.993003e-09
	2.062758e-08	1.89604e-09	0.006807619	0.009941626	2.230937e-09	-5.993003e-09	0.01657791	0.007713696
2.9e+08	0.0173202	0.007334656	4.216938e-10	-1.460691e-09	0.007548171	0.009914857	2.150606e-08	1.072518e-09
	4.216938e-10	-1.460691e-09	0.01690494	0.007615185	-6.293358e-10	-1.351126e-09	0.00720742	0.01008383
	0.007548171	0.009914857	-6.293358e-10	-1.351126e-09	0.01732787	0.007295125	2.323666e-09	-6.339355e-09
	2.150606e-08	1.072518e-09	0.00720742	0.01008383	2.323666e-09	-6.339355e-09	0.01700498	0.007584187
3e+08	0.01775037	0.007168766	4.279163e-10	-1.536108e-09	0.007973171	0.01001463	2.235966e-08	1.828393e-10
	4.279163e-10	-1.536108e-09	0.01732239	0.007472465	-6.587248e-10	-1.377137e-09	0.00761093	0.01020756
	0.007973171	0.01001463	-6.587248e-10	-1.377137e-09	0.01776538	0.007121198	2.41112e-09	-6.696212e-09
	2.235966e-08	1.828393e-10	0.00761093	0.01020756	2.41112e-09	-6.696212e-09	0.01742413	0.007436747
3.1e+08	0.0181721	0.00698447	4.324195e-10	-1.613045e-09	0.00840064	0.0100943	2.318448e-08	-7.720988e-10
	4.324195e-10	-1.613045e-09	0.0177316	0.007312371	-6.878078e-10	-1.401809e-09	0.008017303	0.01031268
	0.00840064	0.0100943	-6.878078e-10	-1.401809e-09	0.01819411	0.00692844	2.492653e-09	-7.063445e-09
	2.318448e-08	-7.720988e-10	0.008017303	0.01031268	2.492653e-09	-7.063445e-09	0.01783488	0.007271809
3.2e+08	0.01858484	0.006782185	4.350977e-10	-1.691434e-09	0.008829646	0.01015377	2.397667e-08	-1.791194e-09
	4.350977e-10	-1.691434e-09	0.01813207	0.007135329	-7.165034e-10	-1.425179e-09	0.008425687	0.01039906
	0.008829646	0.01015377	-7.165034e-10	-1.425179e-09	0.01861349	0.006717296	2.567629e-09	-7.440893e-09
	2.397667e-08	-1.791194e-09	0.008425687	0.01039906	2.567629e-09	-7.440893e-09	0.01823671	0.00708981
3.3e+08	0.01898801	0.006562346	4.358496e-10	-1.771202e-09	0.009259255	0.01019299	2.473243e-08	-2.873144e-09
	4.358496e-10	-1.771202e-09	0.01852332	0.006941777	-7.44732e-10	-1.447287e-09	0.008835223	0.01046665
	0.009259255	0.01019299	-7.44732e-10	-1.447287e-09	0.01902297	0.00648823	2.635416e-09	-7.82836e-09
	2.473243e-08	-2.873144e-09	0.008835223	0.01046665	2.635416e-09	-7.82836e-09	0.01862914	0.00689119
3.4e+08	0.01938107	0.006325395	4.345772e-10	-1.852271e-09	0.009688529	0.01021196	2.544799e-08	-4.016443e-09
	4.345772e-10	-1.852271e-09	0.01890488	0.006732157	-7.724162e-10	-1.468178e-09	0.009245055	0.01051541
	0.009688529	0.01021196	-7.724162e-10	-1.468178e-09	0.01942196	0.006241711	2.69539e-09	-8.225621e-09
	2.544799e-08	-4.016443e-09	0.009245055	0.01051541	2.69539e-09	-8.225621e-09	0.01901169	0.006676406
3.5e+08	0.01976347	0.006071792	4.311872e-10	-1.934556e-09	0.01011653	0.01021071	2.611967e-08	-5.219392e-09
	4.311872e-10	-1.934556e-09	0.01927628	0.00650692	-7.994806e-10	-1.487903e-09	0.009654321	0.01054536
	0.01011653	0.01021071	-7.994806e-10	-1.487903e-09	0.01980992	0.005978227	2.746939e-09	-8.632415e-09
	2.611967e-08	-5.219392e-09	0.009654321	0.01054536	2.746939e-09	-8.632415e-09	0.01938387	0.006445915
3.6e+08	0.02013468	0.005802009	4.255907e-10	-2.017967e-09	0.01054233	0.01018932	2.674374e-08	-6.480089e-09
	4.255907e-10	-2.017967e-09	0.01963704	0.006266525	-8.2594e-10	-1.506587e-09	0.01006216	0.01055653
	0.01054233	0.01018932	-8.2594e-10	-1.506587e-09	0.02018631	0.005698272	2.789398e-09	-9.048466e-09
	2.674374e-08	-6.480089e-09	0.01006216	0.01055653	2.789398e-09	-9.048466e-09	0.01974522	0.006200188
3.7e+08	0.02049417	0.00551653	4.177034e-10	-2.102411e-09	0.01096499	0.01014791	2.731677e-08	-7.79644e-09
	4.177034e-10	-2.102411e-09	0.01998671	0.006011442	-8.516614e-10	-1.524231e-09	0.01046773	0.01054903
	0.01096499	0.01014791	-8.516614e-10	-1.524231e-09	0.02055059	0.00540236	2.822226e-09	-9.473438e-09
	2.731677e-08	-7.79644e-09	0.01046773	0.01054903	2.822226e-09	-9.473438e-09	0.02009528	0.005939704
3.8e+08	0.02084141	0.005215857	4.074457e-10	-2.187791e-09	0.01138359	0.01008664	2.783534e-08	-9.166166e-09
	4.074457e-10	-2.187791e-09	0.02032484	0.005742153	-8.765621e-10	-1.540883e-09	0.01087016	0.01052297
	0.01138359	0.01008664	-8.765621e-10	-1.540883e-09	0.02090224	0.005091019	2.844858e-09	-9.906972e-09
	2.783534e-08	-9.166166e-09	0.01087016	0.01052297	2.844858e-09	-9.906972e-09	0.02043359	0.005664954
3.9e+08	0.02117591	0.004900509	3.947433e-10	-2.274004e-09	0.01179722	0.01000572	2.829614e-08	-1.058681e-08
	3.947433e-10	-2.274004e-09	0.02065101	0.005459149	-9.005795e-10	-1.55661e-09	0.01126862	0.01047852
	0.01179722	0.01000572	-9.005795e-10	-1.55661e-09	0.02124075	0.004764785	2.856734e-09	-1.034869e-08
	2.829614e-08	-1.058681e-08	0.01126862	0.01047852	2.856734e-09	-1.034869e-08	0.02075972	0.005376441
4e+08	0.02149717	0.004571019	3.795271e-10	-2.360943e-09	0.01220496	0.009905396	2.869593e-08	-1.205572e-08
	3.795271e-10	-2.360943e-09	0.02096477	0.005162936	-9.236547e-10	-1.571485e-09	0.01166227	0.01041588
	0.01220496	0.009905396	-9.236547e-10	-1.571485e-09	0.02156563	0.00442422	2.857312e-09	-1.079817e-08
	2.869593e-08	-1.205572e-08	0.01166227	0.01041588	2.857312e-09	-1.079817e-08	0.02107324	0.005074678
4.1e+08	0.02180473	0.004227936	3.617335e-10	-2.448497e-09	0.01260592	0.009785951	2.903164e-08	-1.35701e-08
	3.617335e-10	-2.448497e-09	0.02126573	0.004854029	-9.457331e-10	-1.585579e-09	0.01205028	0.01033529
	0.01260592	0.009785951	-9.457331e-10	-1.585579e-09	0.02187639	0.004069896	2.846067e-09	-1.125497e-08
	2.903164e-08	-1.35701e-08	0.01205028	0.01033529	2.846067e-09	-1.125497e-08	0.02137374	0.004760195
4.2e+08	0.02209811	0.003871823	3.413038e-10	-2.536553e-09	0.01299923	0.009647714	2.93003e-08	-1.512695e-08
	3.413038e-10	-2.536553e-09	0.02155348	0.004532957	-9.667638e-10	-1.598973e-09	0.01243183	0.01023702
	0.01299923	0.009647714	-9.667638e-10	-1.598973e-09	0.02217257	0.003702396	2.822494e-09	-1.171863e-08
	2.93003e-08	-1.512695e-08	0.01243183	0.01023702	2.822494e-09	-1.171863e-08	0.02166081	0.004433525
4.3e+08	0.02237686	0.003503262	3.181856e-10	-2.624993e-09	0.013384	0.009491054	2.949908e-08	-1.672314e-08
	3.181856e-10	-2.624993e-09	0.02182764	0.004200257	-9.867008e-10	-1.611747e-09	0.01280613	0.0101214
	0.013384	0.009491054	-9.867008e-10	-1.611747e-09	0.02245374	0.003322328	2.786108e-09	-1.218864e-08
	2.949908e-08	-1.672314e-08	0.01280613	0.0101214	2.786108e-09	-1.218864e-08	0.02193407	0.004095221
4.4e+08	0.02264057	0.003122847	2.92332e-10	-2.713697e-09	0.0137594	0.009316376	2.962531e-08	-1.835536e-08
	2.92332e-10	-2.713697e-09	0.02208784	0.003856483	-1.005502e-09	-1.623984e-09	0.01317239	0.009988761
	0.0137594	0.009316376	-1.005502e-09	-1.623984e-09	0.02271945	0.002930306	2.736448e-09	-1.266449e-08
	2.962531e-08	-1.835536e-08	0.01317239	0.009988761	2.736448e-09	-1.266449e-08	0.02219316	0.003745844
4.5e+08	0.02288883	0.00273119	2.637031e-10	-2.802542e-09	0.0141246	0.009124126	2.967648e-08	-2.002015e-08
	2.637031e-10	-2.802542e-09	0.02233373	0.003502196	-1.023132e-09	-1.635772e-09	0.01352984	0.009839497
	0.0141246	0.009124126	-1.023132e-09	-1.635772e-09	0.0229693	0.002526964	2.673076e-09	-1.314562e-08
	2.967648e-08	-2.002015e-08	0.01352984	0.009839497	2.673076e-09	-1.314562e-08	0.02243771	0.003385968
4.6e+08	0.02312124	0.002328916	2.322887e-10	-2.89139e-09	0.01447878	0.008914787	2.965024e-08	-2.171393e-08
	2.322887e-10	-2.89139e-09	0.02256497	0.003137971	-1.039557e-09	-1.6472e-09	0.01387771	0.009674025
	0.01447878	0.008914787	-1.039557e-09	-1.6472e-09	0.0232029	0.002112947	2.595603e-09	-1.363146e-08
	2.965024e-08	-2.171393e-08	0.01387771	0.009674025	2.595603e-09	-1.363146e-08	0.0226674	0.003016178
4.7e+08	0.02333742	0.001916662	1.94705e-10	-2.981779e-09	0.01482116	0.008688878	2.954259e-08	-2.343271e-08
	1.94705e-10	-2.981779e-09	0.02278125	0.002764394	-1.054749e-09	-1.658267e-09	0.01421529	0.009492798
	0.01482116	0.008688878	-1.054749e-09	-1.658267e-09	0.02341989	0.001688916	2.500321e-09	-1.412308e-08
	2.954259e-08	-2.343271e-08	0.01421529	0.009492798	2.500321e-09	-1.412308e-08	0.0228819	0.002637065
