!$
! Info: Touchstone file created by Circ.  Input file=Tx_2in_Rx_93ohms_TxVia_10mils_RxVia_20mils.circ
!$
# Hz S RI R 50
0	0.001964172	2.043228e-26	-1.741789e-11	4.134625e-27	2.234635e-05	1.995002e-24	-2.179624e-08	2.669261e-24
	-1.740359e-11	4.133607e-27	0.001963585	2.850894e-26	1.806654e-11	5.558608e-29	2.196021e-05	2.721936e-24
	2.045651e-05	1.967e-24	1.803103e-11	5.592636e-29	0.001978481	2.126902e-26	1.76062e-08	7.543331e-27
	-2.179698e-08	2.669351e-24	2.341893e-05	2.801528e-24	1.760673e-08	7.542147e-27	0.001969247	2.725003e-26
1e+07	0.002892804	0.0002283696	4.18292e-11	-3.465009e-11	4.579113e-05	0.0004551068	-8.95609e-09	1.857808e-08
	4.182925e-11	-3.465039e-11	0.002859811	0.0001016156	-3.417666e-13	-7.019107e-11	4.574107e-05	0.0004877511
	4.575243e-05	0.0004551315	-3.418511e-13	-7.019076e-11	0.002721262	0.0001125367	-1.090393e-08	1.796163e-08
	-8.95609e-09	1.857808e-08	4.577311e-05	0.0004877397	-1.090393e-08	1.796163e-08	0.002819468	9.766839e-05
2e+07	0.003602144	-0.0002392001	4.321298e-11	-3.302654e-11	9.184845e-05	0.0009238844	-1.136044e-08	2.170641e-08
	4.321273e-11	-3.302682e-11	0.003462781	-0.0004418669	2.828284e-11	-1.700657e-10	6.403988e-05	0.0009812122
	9.185535e-05	0.0009239023	2.828299e-11	-1.700654e-10	0.003372662	-0.0003673225	-1.542659e-08	1.648381e-08
	-1.136044e-08	2.170641e-08	6.403678e-05	0.0009811913	-1.542659e-08	1.648381e-08	0.003432696	-0.0004292536
3e+07	0.00409984	-0.000997884	5.026249e-11	-8.556707e-11	0.0001561976	0.001390809	-7.238278e-09	1.701712e-08
	5.026243e-11	-8.556706e-11	0.003875164	-0.001223326	-2.346668e-11	-2.099723e-10	0.000118242	0.001457679
	0.000156195	0.001390809	-2.346655e-11	-2.099723e-10	0.00382561	-0.001130236	-1.440581e-08	1.87335e-08
	-7.238278e-09	1.701712e-08	0.0001182369	0.001457677	-1.440581e-08	1.87335e-08	0.003853821	-0.001205634
4e+07	0.004468366	-0.001869331	5.145951e-11	-1.254227e-10	0.0002400974	0.001854745	-5.931374e-09	1.452451e-08
	5.145956e-11	-1.254227e-10	0.004168764	-0.00209827	8.216957e-12	-2.550767e-10	0.0002029844	0.001925818
	0.0002400926	0.001854747	8.217021e-12	-2.550769e-10	0.00415667	-0.001998674	-1.027577e-08	1.700913e-08
	-5.931374e-09	1.452451e-08	0.000202984	0.001925819	-1.027577e-08	1.700913e-08	0.004155781	-0.002080145
5e+07	0.004738104	-0.002809219	6.043404e-11	-1.573764e-10	0.0003437169	0.00231453	-5.486112e-09	1.458926e-08
	6.043407e-11	-1.573764e-10	0.004370167	-0.003028976	-1.910303e-11	-3.211867e-10	0.0003056845	0.002387089
	0.0003437157	0.002314532	-1.910303e-11	-3.211867e-10	0.004394004	-0.002930118	-6.731911e-09	1.334444e-08
	-5.486112e-09	1.458926e-08	0.000305684	0.002387089	-6.731911e-09	1.334444e-08	0.004363891	-0.003012741
6e+07	0.00492384	-0.003795855	8.200478e-11	-1.851532e-10	0.0004669769	0.002769256	-2.446355e-09	1.742079e-08
	8.200476e-11	-1.851532e-10	0.004492397	-0.003996341	-5.654193e-11	-3.686044e-10	0.0004263458	0.002841422
	0.0004669779	0.002769254	-5.654192e-11	-3.686044e-10	0.004551279	-0.003903759	-4.150605e-09	9.490176e-09
	-2.446355e-09	1.742079e-08	0.0004263429	0.002841423	-4.150605e-09	9.490176e-09	0.004491851	-0.00398302
7e+07	0.005034101	-0.004816094	1.121442e-10	-2.048505e-10	0.0006097237	0.003218152	5.112295e-09	1.554409e-08
	1.121442e-10	-2.048504e-10	0.004543125	-0.004988191	-9.157472e-11	-4.182058e-10	0.0005648416	0.003288391
	0.0006097245	0.003218147	-9.157472e-11	-4.182059e-10	0.004636442	-0.004906722	-2.276859e-09	6.034755e-09
	5.112295e-09	1.554409e-08	0.0005648369	0.003288394	-2.276859e-09	6.034755e-09	0.004547874	-0.004978856
8e+07	0.005074301	-0.005861153	1.259996e-10	-2.050764e-10	0.0007717687	0.003660613	7.020319e-09	1.001411e-08
	1.259997e-10	-2.050763e-10	0.004527471	-0.005995574	-1.202631e-10	-4.814574e-10	0.0007209362	0.003727399
	0.0007717685	0.003660608	-1.202631e-10	-4.814574e-10	0.00465469	-0.005929928	-9.314664e-10	3.113088e-09
	7.020319e-09	1.001411e-08	0.0007209315	0.003727403	-9.314664e-10	3.113088e-09	0.004536991	-0.005991646
9e+07	0.005047976	-0.006925211	9.220478e-11	-2.360959e-10	0.0009529548	0.004096434	6.117732e-09	7.173325e-09
	9.220483e-11	-2.360958e-10	0.004449283	-0.007010778	-1.266315e-10	-5.536093e-10	0.0008943044	0.004157776
	0.0009529539	0.00409643	-1.266315e-10	-5.536093e-10	0.004609733	-0.00696623	-6.050198e-11	6.565973e-10
	6.117732e-09	7.173325e-09	0.0008943016	0.004157779	-6.050198e-11	6.565973e-10	0.004462631	-0.007013893
1e+08	0.004956395	-0.008008722	1.235811e-10	-3.501204e-10	0.001153645	0.004528239	4.991534e-09	5.564456e-09
	1.235811e-10	-3.501204e-10	0.004312925	-0.008021977	-1.078033e-10	-6.070597e-10	0.001084563	0.004578765
	0.001153645	0.004528239	-1.078033e-10	-6.070597e-10	0.004504817	-0.00800807	4.50969e-10	-1.519429e-09
	4.991534e-09	5.564456e-09	0.001084563	0.004578765	4.50969e-10	-1.519429e-09	0.004328568	-0.008034467
1.1e+08	0.004782409	-0.009098531	1.39771e-10	-3.920472e-10	0.001359762	0.004952209	5.696917e-09	5.841806e-09
	1.39771e-10	-3.920472e-10	0.004142671	-0.00904933	-1.255351e-10	-6.613211e-10	0.001290601	0.004989565
	0.001359761	0.004952209	-1.255351e-10	-6.613211e-10	0.004350624	-0.009063704	5.424133e-10	-1.700622e-09
	5.696917e-09	5.841806e-09	0.001290601	0.004989564	5.424133e-10	-1.700622e-09	0.004156904	-0.009069452
1.2e+08	0.004550594	-0.0101745	1.557266e-10	-4.349453e-10	0.001582701	0.005359362	6.43865e-09	6.068701e-09
	1.557266e-10	-4.349453e-10	0.003909812	-0.01008368	-1.442845e-10	-7.144085e-10	0.001512839	0.005390269
	0.001582701	0.005359362	-1.442845e-10	-7.144085e-10	0.004135706	-0.01012069	6.39756e-10	-1.889178e-09
	6.43865e-09	6.068701e-09	0.001512839	0.005390269	6.39756e-10	-1.889178e-09	0.003922367	-0.01011021
1.3e+08	0.00426304	-0.01124033	1.719249e-10	-4.790717e-10	0.001822585	0.005752704	7.215138e-09	6.243026e-09
	1.719249e-10	-4.790717e-10	0.00361864	-0.01111481	-1.63946e-10	-7.663542e-10	0.001750812	0.00577997
	0.001822584	0.005752704	-1.63946e-10	-7.663542e-10	0.003863543	-0.01117345	7.429366e-10	-2.085881e-09
	7.215138e-09	6.243026e-09	0.001750812	0.00577997	7.429366e-10	-2.085881e-09	0.003629047	-0.01114738
1.4e+08	0.003921922	-0.01229486	1.88518e-10	-5.246218e-10	0.002078903	0.006132335	8.024154e-09	6.36263e-09
	1.88518e-10	-5.246218e-10	0.003271766	-0.01213844	-1.843935e-10	-8.172083e-10	0.002003983	0.006157902
	0.002078903	0.006132335	-1.843935e-10	-8.172083e-10	0.003536607	-0.01221864	8.516193e-10	-2.291448e-09
	8.024154e-09	6.36263e-09	0.002003983	0.006157902	8.516193e-10	-2.291448e-09	0.003279516	-0.01217678
1.5e+08	0.00352905	-0.01333638	2.053392e-10	-5.715689e-10	0.002351056	0.006497935	8.863088e-09	6.425342e-09
	2.053392e-10	-5.715689e-10	0.002871206	-0.01315128	-2.056445e-10	-8.669248e-10	0.002271777	0.006523366
	0.002351056	0.006497935	-2.056445e-10	-8.669248e-10	0.003156873	-0.01325342	9.651171e-10	-2.506325e-09
	8.863088e-09	6.425342e-09	0.002271777	0.006523366	9.651171e-10	-2.506325e-09	0.002875795	-0.01319513
1.6e+08	0.003085981	-0.01436297	2.223313e-10	-6.199795e-10	0.002638395	0.00684904	9.729017e-09	6.429057e-09
	2.223313e-10	-6.199795e-10	0.002418662	-0.01415047	-2.276439e-10	-9.15498e-10	0.002553587	0.006875708
	0.002638395	0.006849041	-2.276439e-10	-9.15498e-10	0.00272602	-0.01427523	1.082832e-09	-2.731007e-09
	9.729017e-09	6.429057e-09	0.002553587	0.006875708	1.082832e-09	-2.731007e-09	0.002419609	-0.01419956
1.7e+08	0.002594128	-0.01537265	2.39423e-10	-6.69916e-10	0.002940234	0.007185131	1.061876e-08	6.371797e-09
	2.39423e-10	-6.69916e-10	0.001915671	-0.01513335	-2.503356e-10	-9.629207e-10	0.002848781	0.007214316
	0.002940234	0.007185131	-2.503356e-10	-9.629207e-10	0.002245555	-0.01528165	1.204134e-09	-2.96594e-09
	1.061876e-08	6.371797e-09	0.002848781	0.007214316	1.204134e-09	-2.96594e-09	0.001912522	-0.01518739
1.8e+08	0.002054823	-0.0163634	2.56532e-10	-7.214347e-10	0.003255855	0.007505669	1.15289e-08	6.251756e-09
	2.56532e-10	-7.214347e-10	0.001363689	-0.01609742	-2.736619e-10	-1.009184e-09	0.003156704	0.007538606
	0.003255855	0.007505669	-2.736619e-10	-1.009184e-09	0.001716885	-0.01627038	1.328366e-09	-3.211526e-09
	1.15289e-08	6.251756e-09	0.003156704	0.007538606	1.328366e-09	-3.211526e-09	0.001356018	-0.01615612
1.9e+08	0.001469377	-0.01733322	2.735676e-10	-7.745866e-10	0.00358451	0.007810119	1.245589e-08	6.067316e-09
	2.735676e-10	-7.745866e-10	0.0007641517	-0.01704029	-2.975634e-10	-1.05428e-09	0.003476675	0.007848032
	0.00358451	0.007810119	-2.975634e-10	-1.05428e-09	0.001141381	-0.01723918	1.454849e-09	-3.46812e-09
	1.245589e-08	6.067316e-09	0.003476676	0.007848032	1.454849e-09	-3.46812e-09	0.0007515603	-0.01710334
2e+08	0.0008391067	-0.01828014	2.904335e-10	-8.294166e-10	0.003925419	0.008097961	1.339599e-08	5.817071e-09
	2.904335e-10	-8.294166e-10	0.0001185048	-0.01795968	-3.219784e-10	-1.098201e-09	0.003807994	0.008142075
	0.003925419	0.008097961	-3.219784e-10	-1.098201e-09	0.0005204061	-0.01818594	1.582889e-09	-3.736036e-09
	1.339599e-08	5.817071e-09	0.003807994	0.008142075	1.582889e-09	-3.736036e-09	0.0001006189	-0.01802677
2.1e+08	0.0001653225	-0.01920227	3.070323e-10	-8.859579e-10	0.00428301	0.008366271	1.434538e-08	5.499849e-09
	3.070323e-10	-8.859579e-10	-0.0005717737	-0.01885341	-3.468432e-10	-1.140938e-09	0.004149935	0.008420249
	0.00428301	0.008366271	-3.468432e-10	-1.140938e-09	-0.000144696	-0.01910862	1.711696e-09	-4.015581e-09
	1.434538e-08	5.499849e-09	0.004149935	0.008420249	1.711696e-09	-4.015581e-09	-0.000595305	-0.0189242
2.2e+08	-0.0005506072	-0.02009775	3.232602e-10	-9.442424e-10	0.004657056	0.008613894	1.530014e-08	5.114689e-09
	3.232602e-10	-9.442424e-10	-0.001305164	-0.01971938	-3.720922e-10	-1.182486e-09	0.004501753	0.008682101
	0.004657056	0.008613894	-3.720922e-10	-1.182486e-09	-0.0008525287	-0.02000527	1.840521e-09	-4.306987e-09
	1.530014e-08	5.114689e-09	0.004501753	0.008682101	1.840521e-09	-4.306987e-09	-0.001334669	-0.01979354
2.3e+08	-0.001307206	-0.02096469	3.390032e-10	-1.004305e-09	0.005040348	0.008843213	1.625629e-08	4.660815e-09
	3.390032e-10	-1.004305e-09	-0.002080094	-0.02055561	-3.976591e-10	-1.222852e-09	0.004862682	0.008927212
	0.005040348	0.008843213	-3.976591e-10	-1.222852e-09	-0.001601594	-0.0208739	1.96872e-09	-4.610395e-09
	1.625629e-08	4.660815e-09	0.004862682	0.008927212	1.96872e-09	-4.610395e-09	-0.002115883	-0.02063279
2.4e+08	-0.002102993	-0.02180134	3.541491e-10	-1.066166e-09	0.005432034	0.009053837	1.720976e-08	4.137702e-09
	3.541491e-10	-1.066166e-09	-0.002894944	-0.02136019	-4.23476e-10	-1.262039e-09	0.00523194	0.009155195
	0.005432034	0.009053837	-4.23476e-10	-1.262039e-09	-0.002390394	-0.0217127	2.095553e-09	-4.925955e-09
	1.720976e-08	4.137702e-09	0.00523194	0.009155195	2.095553e-09	-4.925955e-09	-0.002937309	-0.02144003
2.5e+08	-0.002936434	-0.02260603	3.685833e-10	-1.129841e-09	0.005831234	0.009245418	1.815649e-08	3.545049e-09
	3.685833e-10	-1.129841e-09	-0.003748043	-0.02213134	-4.494747e-10	-1.300056e-09	0.005608725	0.0093657
	0.005831234	0.009245418	-4.494747e-10	-1.300056e-09	-0.003217382	-0.02251992	2.220269e-09	-5.253775e-09
	1.815649e-08	3.545049e-09	0.005608725	0.0093657	2.220269e-09	-5.253775e-09	-0.003797254	-0.02221347
2.6e+08	-0.003805949	-0.02337715	3.821903e-10	-1.195339e-09	0.006237053	0.009417641	1.909236e-08	2.882776e-09
	3.821903e-10	-1.195339e-09	-0.00463767	-0.02286735	-4.755845e-10	-1.336912e-09	0.00599222	0.009558415
	0.006237053	0.009417641	-4.755845e-10	-1.336912e-09	-0.004080964	-0.02329391	2.342115e-09	-5.593926e-09
	1.909236e-08	2.882776e-09	0.00599222	0.009558415	2.342115e-09	-5.593926e-09	-0.004693979	-0.0229514
2.7e+08	-0.004709908	-0.0241132	3.948501e-10	-1.262663e-09	0.006648581	0.009570236	2.001326e-08	2.151028e-09
	3.948501e-10	-1.262663e-09	-0.005562051	-0.02356661	-5.017383e-10	-1.372627e-09	0.006381596	0.009733063
	0.006648581	0.009570236	-5.017383e-10	-1.372627e-09	-0.004979497	-0.02403308	2.460331e-09	-5.946437e-09
	2.001326e-08	2.151028e-09	0.006381596	0.009733063	2.460331e-09	-5.946437e-09	-0.005625692	-0.02365219
2.8e+08	-0.005646635	-0.02481271	4.064417e-10	-1.33181e-09	0.007064893	0.009702969	2.091505e-08	1.35017e-09
	4.064417e-10	-1.33181e-09	-0.006519373	-0.02422763	-5.278686e-10	-1.407219e-09	0.006776009	0.009889405
	0.007064893	0.009702969	-5.278686e-10	-1.407219e-09	-0.005911295	-0.02473595	2.574155e-09	-6.3113e-09
	2.091505e-08	1.35017e-09	0.006776009	0.009889405	2.574155e-09	-6.3113e-09	-0.006590561	-0.02431432
2.9e+08	-0.006614416	-0.02547435	4.16843e-10	-1.402769e-09	0.007485057	0.009815652	2.179364e-08	4.807875e-10
	4.16843e-10	-1.402769e-09	-0.007507778	-0.02484898	-5.539082e-10	-1.440715e-09	0.007174607	0.01002724
	0.007485057	0.009815652	-5.539082e-10	-1.440715e-09	-0.006874632	-0.02540112	2.682823e-09	-6.688465e-09
	2.179364e-08	4.807875e-10	0.007174607	0.01002724	2.682823e-09	-6.688465e-09	-0.007586708	-0.02493639
3e+08	-0.007611494	-0.02609685	4.259307e-10	-1.475525e-09	0.007908127	0.009908137	2.264493e-08	-4.563127e-10
	4.259307e-10	-1.475525e-09	-0.008525367	-0.02542936	-5.797912e-10	-1.473143e-09	0.007576529	0.01014642
	0.007908127	0.009908137	-5.797912e-10	-1.473143e-09	-0.007867736	-0.02602727	2.785569e-09	-7.077844e-09
	2.264493e-08	-4.563127e-10	0.007576529	0.01014642	2.785569e-09	-7.077844e-09	-0.008612215	-0.02551707
3.1e+08	-0.00863608	-0.02667901	4.335804e-10	-1.550053e-09	0.008333155	0.00998032	2.346486e-08	-1.460107e-09
	4.335804e-10	-1.550053e-09	-0.009570211	-0.02596755	-6.054531e-10	-1.504535e-09	0.007980907	0.0102468
	0.008333155	0.00998032	-6.054531e-10	-1.504535e-09	-0.008888804	-0.02661317	2.881633e-09	-7.479308e-09
	2.346486e-08	-1.460107e-09	0.007980907	0.0102468	2.881633e-09	-7.479308e-09	-0.009665131	-0.02605512
3.2e+08	-0.009686345	-0.02721973	4.396674e-10	-1.626322e-09	0.008759186	0.01003214	2.424943e-08	-2.529355e-09
	4.396674e-10	-1.626322e-09	-0.01064034	-0.02646242	-6.308315e-10	-1.534929e-09	0.008386869	0.01032832
	0.008759186	0.01003214	-6.308315e-10	-1.534929e-09	-0.009935994	-0.02715768	2.970253e-09	-7.892687e-09
	2.424943e-08	-2.529355e-09	0.008386869	0.01032832	2.970253e-09	-7.892687e-09	-0.01074347	-0.02654942
3.3e+08	-0.01076043	-0.02771799	4.440665e-10	-1.704296e-09	0.009185264	0.01006358	2.499466e-08	-3.6626e-09
	4.440665e-10	-1.704296e-09	-0.01173377	-0.02691295	-6.558657e-10	-1.564366e-09	0.00879354	0.01039094
	0.009185264	0.01006358	-6.558657e-10	-1.564366e-09	-0.01100743	-0.02765974	3.050675e-09	-8.317772e-09
	2.499466e-08	-3.6626e-09	0.00879354	0.01039094	3.050675e-09	-8.317772e-09	-0.01184521	-0.02699893
3.4e+08	-0.01185646	-0.02817286	4.466527e-10	-1.783927e-09	0.009610433	0.01007467	2.569666e-08	-4.858176e-09
	4.466527e-10	-1.783927e-09	-0.01284846	-0.02731819	-6.804978e-10	-1.59289e-09	0.009200044	0.01043464
	0.009610433	0.01007467	-6.804978e-10	-1.59289e-09	-0.01210122	-0.0281184	3.122153e-09	-8.754313e-09
	2.569666e-08	-4.858176e-09	0.009200044	0.01043464	3.122153e-09	-8.754313e-09	-0.01296832	-0.02740272
3.5e+08	-0.01297253	-0.02858349	4.473014e-10	-1.865164e-09	0.01003374	0.01006548	2.635162e-08	-6.114206e-09
	4.473014e-10	-1.865164e-09	-0.01398239	-0.02767732	-7.046723e-10	-1.620549e-09	0.009605506	0.01045948
	0.01003374	0.01006548	-7.046723e-10	-1.620549e-09	-0.01321544	-0.02853276	3.183946e-09	-9.20202e-09
	2.635162e-08	-6.114206e-09	0.009605506	0.01045948	3.183946e-09	-9.20202e-09	-0.01411072	-0.02775993
3.6e+08	-0.0141067	-0.02894912	4.458886e-10	-1.947947e-09	0.01045423	0.01003612	2.695579e-08	-7.428606e-09
	4.458886e-10	-1.947947e-09	-0.01513348	-0.02798959	-7.283368e-10	-1.647396e-09	0.01000906	0.01046553
	0.01045423	0.01003612	-7.283368e-10	-1.647396e-09	-0.01434813	-0.02890203	3.235326e-09	-9.660562e-09
	2.695579e-08	-7.428606e-09	0.01000906	0.01046553	3.235326e-09	-9.660562e-09	-0.01527033	-0.02806982
3.7e+08	-0.01525703	-0.02926907	4.422918e-10	-2.032206e-09	0.01087096	0.009986754	2.750553e-08	-8.79909e-09
	4.422918e-10	-2.032206e-09	-0.01629966	-0.02825434	-7.514418e-10	-1.673485e-09	0.01040982	0.01045292
	0.01087096	0.009986754	-7.514418e-10	-1.673485e-09	-0.01549733	-0.02922551	3.275579e-09	-1.012957e-08
	2.750553e-08	-8.79909e-09	0.01040982	0.01045292	3.275579e-09	-1.012957e-08	-0.01644504	-0.02833173
3.8e+08	-0.01642156	-0.02954274	4.363903e-10	-2.117865e-09	0.011283	0.009917586	2.799731e-08	-1.022318e-08
	4.363903e-10	-2.117865e-09	-0.01747884	-0.02847101	-7.739412e-10	-1.698875e-09	0.01080695	0.01042179
	0.011283	0.009917586	-7.739412e-10	-1.698875e-09	-0.01666106	-0.02950258	3.304002e-09	-1.060863e-08
	2.799731e-08	-1.022318e-08	0.01080695	0.01042179	3.304002e-09	-1.060863e-08	-0.01763275	-0.02854509
3.9e+08	-0.0175983	-0.02976962	4.280653e-10	-2.204841e-09	0.01168942	0.009828858	2.84277e-08	-1.169818e-08
	4.280653e-10	-2.204841e-09	-0.0186689	-0.02863914	-7.957925e-10	-1.723625e-09	0.01119959	0.01037236
	0.01168942	0.009828858	-7.957925e-10	-1.723625e-09	-0.01783731	-0.02973269	3.31991e-09	-1.109731e-08
	2.84277e-08	-1.169818e-08	0.01119959	0.01037236	3.31991e-09	-1.109731e-08	-0.01883131	-0.02870944
4e+08	-0.01878529	-0.02994929	4.17201e-10	-2.293041e-09	0.01208931	0.009720859	2.879341e-08	-1.322125e-08
	4.17201e-10	-2.293041e-09	-0.01986774	-0.02875834	-8.169568e-10	-1.747801e-09	0.01158689	0.01030485
	0.01208931	0.009720859	-8.169568e-10	-1.747801e-09	-0.01902409	-0.02991542	3.322639e-09	-1.15951e-08
	2.879341e-08	-1.322125e-08	0.01158689	0.01030485	3.322639e-09	-1.15951e-08	-0.0200386	-0.0288244
4.1e+08	-0.01998051	-0.0300814	4.036849e-10	-2.382364e-09	0.01248176	0.009593919	2.909129e-08	-1.478932e-08
	4.036849e-10	-2.382364e-09	-0.02107324	-0.02882833	-8.373991e-10	-1.771467e-09	0.01196803	0.01021955
	0.01248176	0.009593919	-8.373991e-10	-1.771467e-09	-0.02021938	-0.03005038	3.311544e-09	-1.210148e-08
	2.909129e-08	-1.478932e-08	0.01196803	0.01021955	3.311544e-09	-1.210148e-08	-0.02125249	-0.02888969
4.2e+08	-0.02118199	-0.03016568	3.874077e-10	-2.472702e-09	0.0128659	0.009448409	2.931831e-08	-1.639918e-08
	3.874077e-10	-2.472702e-09	-0.0222833	-0.02884892	-8.570883e-10	-1.794693e-09	0.01234219	0.01011677
	0.0128659	0.009448409	-8.570883e-10	-1.794693e-09	-0.02142115	-0.0301373	3.286e-09	-1.261589e-08
	2.931831e-08	-1.639918e-08	0.01234219	0.01011677	3.286e-09	-1.261589e-08	-0.02247082	-0.0289051
4.3e+08	-0.02238771	-0.03020196	3.682648e-10	-2.563939e-09	0.01324086	0.009284739	2.947162e-08	-1.804743e-08
	3.682648e-10	-2.563939e-09	-0.0234958	-0.02881999	-8.759975e-10	-1.817547e-09	0.01270857	0.009996851
	0.01324086	0.009284739	-8.759975e-10	-1.817547e-09	-0.0226274	-0.03017598	3.245412e-09	-1.313774e-08
	2.947162e-08	-1.804743e-08	0.01270857	0.009996851	3.245412e-09	-1.313774e-08	-0.02369147	-0.02887055
4.4e+08	-0.0235957	-0.03019014	3.461566e-10	-2.65595e-09	0.0136058	0.00910336	2.954852e-08	-1.973052e-08
	3.461566e-10	-2.65595e-09	-0.02470863	-0.02874154	-8.941041e-10	-1.840103e-09	0.0130664	0.00986019
	0.0136058	0.00910336	-8.941041e-10	-1.840103e-09	-0.0238361	-0.03016633	3.189207e-09	-1.366639e-08
	2.954852e-08	-1.973052e-08	0.0130664	0.00986019	3.189207e-09	-1.366639e-08	-0.02491231	-0.02878602
4.5e+08	-0.02480395	-0.03013021	3.210105e-10	-2.748589e-09	0.01395989	0.008904763	2.95465e-08	-2.144472e-08
	3.210105e-10	-2.748589e-09	-0.02591969	-0.02861362	-9.113896e-10	-1.862433e-09	0.0134149	0.009707205
	0.01395989	0.008904763	-9.113896e-10	-1.862433e-09	-0.02504523	-0.0301083	3.116866e-09	-1.420114e-08
	2.95465e-08	-2.144472e-08	0.0134149	0.009707205	3.116866e-09	-1.420114e-08	-0.02613121	-0.02865157
4.6e+08	-0.0260105	-0.03002224	2.896662e-10	-2.84368e-09	0.01430234	0.008689473	2.946148e-08	-2.318612e-08
	2.896662e-10	-2.84368e-09	-0.0271269	-0.0284364	-9.278508e-10	-1.884525e-09	0.01375333	0.009538353
	0.01430234	0.008689473	-9.278508e-10	-1.884525e-09	-0.0262528	-0.03000195	3.024837e-09	-1.47433e-08
	2.946148e-08	-2.318612e-08	0.01375333	0.009538353	3.024837e-09	-1.47433e-08	-0.02734608	-0.02846739
4.7e+08	-0.02721336	-0.02986635	2.546193e-10	-2.939249e-09	0.01463237	0.008458053	2.929282e-08	-2.495066e-08
	2.546193e-10	-2.939249e-09	-0.0283282	-0.02821012	-9.434637e-10	-1.906525e-09	0.01408098	0.009354122
