!$
! Info: Touchstone file created by Circ.  Input file=Tx_2in_Rx_85ohms_TxVia_10mils_RxVia_20mils.circ
!$
# Hz S RI R 50
0	0.001737967	2.192858e-26	1.123715e-10	3.214588e-29	2.391743e-05	1.798545e-24	-5.112741e-09	6.263918e-25
	1.123835e-10	3.234189e-29	0.001738656	2.856536e-26	5.526129e-10	2.231191e-27	2.199965e-05	2.400289e-24
	2.261544e-05	1.752483e-24	5.525507e-10	2.238445e-27	0.00175344	2.300605e-26	-9.276402e-09	1.14999e-24
	-5.111846e-09	6.262822e-25	2.345845e-05	2.470477e-24	-9.276599e-09	1.150014e-24	0.001744322	2.730372e-26
1e+07	0.002384388	-0.001652814	5.240889e-11	-1.419608e-11	4.692444e-05	0.0004843774	-9.510572e-09	1.61476e-08
	5.240895e-11	-1.419638e-11	0.002390161	-0.001653887	6.960542e-10	1.110873e-09	4.616163e-05	0.000484621
	4.688062e-05	0.0004843808	6.960541e-10	1.110873e-09	0.002406843	-0.001645941	-1.087246e-08	1.571435e-08
	-9.510571e-09	1.61476e-08	4.619364e-05	0.0004846095	-1.087246e-08	1.571435e-08	0.00239943	-0.001650853
2e+07	0.002905405	-0.003862867	4.452681e-11	-1.258576e-11	8.977235e-05	0.000955839	-9.646829e-09	1.190541e-08
	4.452664e-11	-1.25859e-11	0.002905334	-0.003867427	8.812949e-10	1.962816e-09	8.695361e-05	0.0009564676
	8.976265e-05	0.0009558669	8.81295e-10	1.962817e-09	0.00292705	-0.003852471	-1.133206e-08	1.196024e-08
	-9.646829e-09	1.190541e-08	8.695043e-05	0.0009564467	-1.133206e-08	1.196024e-08	0.002915249	-0.00385975
3e+07	0.003151831	-0.006349437	6.096057e-11	-3.114657e-11	0.000152304	0.001421768	-7.61186e-09	1.139646e-08
	6.096052e-11	-3.114654e-11	0.003143101	-0.006355563	9.809348e-10	2.758025e-09	0.0001461495	0.001423031
	0.0001523048	0.001421773	9.809349e-10	2.758025e-09	0.003172899	-0.006334103	-9.021516e-09	1.204716e-08
	-7.61186e-09	1.139646e-08	0.0001461444	0.001423028	-9.021516e-09	1.204716e-08	0.003154141	-0.006343092
4e+07	0.003200305	-0.00892899	6.805332e-11	-5.357143e-11	0.0002351975	0.001882445	-5.908076e-09	1.081249e-08
	6.80533e-11	-5.357146e-11	0.00317997	-0.008935731	1.048391e-09	3.551879e-09	0.0002244277	0.001884628
	0.0002351935	0.001882443	1.048391e-09	3.551879e-09	0.003220906	-0.008908573	-7.107617e-09	1.168892e-08
	-5.908076e-09	1.081249e-08	0.0002244273	0.001884629	-7.107617e-09	1.168892e-08	0.003192733	-0.008920337
5e+07	0.003079603	-0.01155591	7.326831e-11	-6.8822e-11	0.0003383344	0.002337245	-4.990081e-09	1.028555e-08
	7.326827e-11	-6.882201e-11	0.003044715	-0.01156226	1.108061e-09	4.334848e-09	0.0003216823	0.002340759
	0.0003383327	0.002337244	1.108061e-09	4.334848e-09	0.003099724	-0.01153049	-6.111615e-09	1.119147e-08
	-4.990081e-09	1.028555e-08	0.0003216818	0.00234076	-6.111615e-09	1.119147e-08	0.003058179	-0.01154474
6e+07	0.00280422	-0.01420648	8.507475e-11	-6.555076e-11	0.0004614373	0.002785475	-5.097155e-09	9.97914e-09
	8.507482e-11	-6.555074e-11	0.002751877	-0.01421129	1.176931e-09	5.099364e-09	0.0004376985	0.002790823
	0.0004614427	0.002785473	1.176931e-09	5.099364e-09	0.002823732	-0.01417619	-6.220077e-09	1.066809e-08
	-5.097155e-09	9.97914e-09	0.0004376956	0.002790824	-6.220077e-09	1.066809e-08	0.002765534	-0.01419161
7e+07	0.002383034	-0.01686504	1.145159e-10	4.680062e-11	0.0006042005	0.003226392	-7.241746e-09	9.467228e-09
	1.145162e-10	4.680052e-11	0.0023104	-0.01686699	1.313002e-09	5.870634e-09	0.0005722191	0.003234133
	0.0006042111	0.003226385	1.313002e-09	5.870634e-09	0.00240173	-0.01682999	-7.937349e-09	9.442494e-09
	-7.241746e-09	9.467228e-09	0.0005722144	0.003234136	-7.937349e-09	9.442494e-09	0.002324206	-0.01684532
8e+07	0.001822252	-0.01951984	1.132414e-09	-1.025006e-09	0.000766278	0.003659233	-1.14101e-08	2.849357e-09
	1.132414e-09	-1.025006e-09	0.001726558	-0.01951746	1.343268e-09	6.907411e-09	0.0007249244	0.003669981
	0.0007662887	0.003659222	1.343268e-09	6.907411e-09	0.001839868	-0.01948011	-1.030099e-08	4.213089e-09
	-1.14101e-08	2.849357e-09	0.0007249197	0.003669985	-1.030099e-08	4.213089e-09	0.00174034	-0.0194944
9e+07	0.001126618	-0.02216145	1.998349e-10	-1.531789e-10	0.0009472824	0.004083301	-3.266099e-09	-2.480358e-09
	1.998353e-10	-1.531794e-10	0.001005171	-0.02215307	1.145213e-09	7.571223e-09	0.0008954442	0.004097741
	0.0009472888	0.004083292	1.145213e-09	7.571224e-09	0.001142856	-0.02211708	-4.39159e-09	-1.339908e-09
	-3.266099e-09	-2.480358e-09	0.0008954415	0.004097745	-4.39159e-09	-1.339908e-09	0.00101835	-0.02212933
1e+08	0.0002998643	-0.02478265	1.096558e-10	-1.560177e-10	0.001146926	0.004498586	-8.735938e-11	-2.685052e-10
	1.096558e-10	-1.560177e-10	0.0001500606	-0.02476637	1.166018e-09	8.174368e-09	0.001083512	0.004517482
	0.001146925	0.004498586	1.166018e-09	8.174368e-09	0.0003144132	-0.02473354	-3.228751e-10	2.982714e-10
	-8.735938e-11	-2.685052e-10	0.001083513	0.004517482	-3.228751e-10	2.982714e-10	0.0001616581	-0.02474256
1.1e+08	-0.0006572004	-0.0273813	1.186986e-10	-1.758112e-10	0.001367536	0.004902293	-1.111013e-10	-2.900024e-10
	1.186986e-10	-1.758112e-10	-0.0008381947	-0.02735429	1.135459e-09	8.945011e-09	0.001291102	0.004926065
	0.001367536	0.004902293	1.135459e-09	8.945011e-09	-0.0006437182	-0.02732681	-4.04564e-10	3.504286e-10
	-1.111013e-10	-2.900024e-10	0.001291102	0.004926065	-4.04564e-10	3.504286e-10	-0.0008285566	-0.02732918
1.2e+08	-0.001740023	-0.02993807	1.278031e-10	-1.959351e-10	0.001604971	0.005292694	-1.367433e-10	-3.100583e-10
	1.278031e-10	-1.959351e-10	-0.001954167	-0.02989853	1.092882e-09	9.721034e-09	0.001514706	0.0053226
	0.001604971	0.005292694	1.092882e-09	9.721034e-09	-0.001728122	-0.02987887	-4.928588e-10	4.092763e-10
	-1.367433e-10	-3.100583e-10	0.001514706	0.0053226	-4.928588e-10	4.092763e-10	-0.001946965	-0.02987215
1.3e+08	-0.00294391	-0.0324485	1.372625e-10	-2.165783e-10	0.001858766	0.00566996	-1.642204e-10	-3.285619e-10
	1.372625e-10	-2.165783e-10	-0.003193209	-0.0323944	1.039662e-09	1.050333e-08	0.001753921	0.005707147
	0.001858766	0.00566996	1.039662e-09	1.050333e-08	-0.002934201	-0.03238485	-5.869769e-10	4.751026e-10
	-1.642204e-10	-3.285619e-10	0.001753921	0.005707147	-5.869769e-10	4.751026e-10	-0.003188983	-0.03236671
1.4e+08	-0.004264692	-0.03490761	1.47339e-10	-2.378827e-10	0.002128314	0.006033559	-1.933634e-10	-3.454697e-10
	1.47339e-10	-2.378827e-10	-0.00455115	-0.03483676	9.7688e-10	1.129269e-08	0.002008177	0.006079133
	0.002128314	0.00603356	9.7688e-10	1.129269e-08	-0.004257794	-0.03483953	-6.861489e-10	5.482052e-10
	-1.933634e-10	-3.454697e-10	0.002008177	0.006079133	-6.861489e-10	5.482052e-10	-0.004550442	-0.03480763
1.5e+08	-0.005698572	-0.03731054	1.577706e-10	-2.597995e-10	0.002412956	0.006382874	-2.24232e-10	-3.605878e-10
	1.577705e-10	-2.597995e-10	-0.006024138	-0.03722055	9.054801e-10	1.208981e-08	0.002276843	0.006437942
	0.002412956	0.006382874	9.054801e-10	1.208981e-08	-0.00569506	-0.0372379	-7.901059e-10	6.290326e-10
	-2.24232e-10	-3.605878e-10	0.002276843	0.006437942	-7.901059e-10	6.290326e-10	-0.006027469	-0.03718976
1.6e+08	-0.007241933	-0.03965256	1.685811e-10	-2.823916e-10	0.00271199	0.006717272	-2.567329e-10	-3.738147e-10
	1.685811e-10	-2.823916e-10	-0.007608463	-0.03954088	8.263227e-10	1.289531e-08	0.002559255	0.006782966
	0.00271199	0.006717272	8.263227e-10	1.289531e-08	-0.00724232	-0.0395751	-8.982808e-10	7.178867e-10
	-2.567329e-10	-3.738147e-10	0.002559255	0.006782967	-8.982808e-10	7.178867e-10	-0.00761632	-0.03950813
1.7e+08	-0.008891227	-0.0419291	1.797822e-10	-3.057258e-10	0.003024678	0.007036134	-2.907675e-10	-3.850525e-10
	1.797822e-10	-3.057258e-10	-0.009300451	-0.04179298	7.402184e-10	1.370977e-08	0.002854718	0.007113626
	0.003024678	0.007036134	7.402184e-10	1.370977e-08	-0.008895955	-0.04184648	-1.010105e-09	8.150311e-10
	-2.907675e-10	-3.850525e-10	0.002854718	0.007113626	-1.010105e-09	8.150311e-10	-0.00931328	-0.04175795
1.8e+08	-0.01064289	-0.04413567	1.913753e-10	-3.298725e-10	0.003350247	0.007338862	-3.262321e-10	-3.942069e-10
	1.913753e-10	-3.298725e-10	-0.01109639	-0.04397223	6.479519e-10	1.453373e-08	0.003162511	0.007429368
	0.003350247	0.007338862	6.479519e-10	1.453373e-08	-0.01065234	-0.04404751	-1.125008e-09	9.206923e-10
	-3.262321e-10	-3.942069e-10	0.003162511	0.007429368	-1.125008e-09	9.206923e-10	-0.0111146	-0.04393453
1.9e+08	-0.01249329	-0.04626797	2.033528e-10	-3.54906e-10	0.003687889	0.007624891	-3.630179e-10	-4.011878e-10
	2.033528e-10	-3.54906e-10	-0.01299249	-0.04607417	5.502974e-10	1.53677e-08	0.003481888	0.00772967
	0.003687889	0.007624891	5.502974e-10	1.53677e-08	-0.01250778	-0.04617385	-1.242417e-09	1.035061e-09
	-3.630179e-10	-4.011878e-10	0.003481888	0.00772967	-1.242417e-09	1.035061e-09	-0.01301643	-0.04603338
2e+08	-0.01443871	-0.04832182	2.156983e-10	-3.809037e-10	0.00403677	0.007893689	-4.010109e-10	-4.059095e-10
	2.156983e-10	-3.809037e-10	-0.01498483	-0.0480945	4.480276e-10	1.621213e-08	0.003812082	0.008014047
	0.00403677	0.007893689	4.480276e-10	1.621213e-08	-0.0144585	-0.04822131	-1.361759e-09	1.158291e-09
	-4.010109e-10	-4.059095e-10	0.003812082	0.008014047	-1.361759e-09	1.158291e-09	-0.01501484	-0.04805019
2.1e+08	-0.01647532	-0.05029323	2.283863e-10	-4.079454e-10	0.004396026	0.008144763	-4.400923e-10	-4.082912e-10
	2.283863e-10	-4.079454e-10	-0.01706939	-0.05002911	3.419203e-10	1.706746e-08	0.004152303	0.008282045
	0.004396026	0.008144763	3.419203e-10	1.706746e-08	-0.01650064	-0.05018589	-1.482459e-09	1.290504e-09
	-4.400923e-10	-4.082912e-10	0.004152303	0.008282045	-1.482459e-09	1.290504e-09	-0.01710577	-0.04998082
2.2e+08	-0.01859914	-0.05217837	2.413825e-10	-4.361132e-10	0.00476477	0.008377661	-4.801385e-10	-4.082573e-10
	2.413825e-10	-4.361132e-10	-0.01924202	-0.05187408	2.32761e-10	1.793406e-08	0.004501743	0.00853325
	0.00476477	0.008377661	2.32761e-10	1.793406e-08	-0.01863018	-0.05206375	-1.603943e-09	1.431787e-09
	-4.801385e-10	-4.082573e-10	0.004501743	0.00853325	-1.603943e-09	1.431787e-09	-0.01928501	-0.05182134
2.3e+08	-0.02080612	-0.05397361	2.546435e-10	-4.654899e-10	0.005142094	0.008591975	-5.210212e-10	-4.057379e-10
	2.546435e-10	-4.654899e-10	-0.02149842	-0.0536257	1.213448e-10	1.881228e-08	0.004859574	0.008767285
	0.005142094	0.008591975	1.213448e-10	1.881228e-08	-0.02084303	-0.05385123	-1.725639e-09	1.582192e-09
	-5.210212e-10	-4.057379e-10	0.004859574	0.008767285	-1.725639e-09	1.582192e-09	-0.02154825	-0.053568
2.4e+08	-0.02309205	-0.05567549	2.681162e-10	-4.961594e-10	0.00552707	0.008787342	-5.626077e-10	-4.006691e-10
	2.681162e-10	-4.961594e-10	-0.0238342	-0.05528045	8.475649e-12	1.970241e-08	0.005224955	0.008983813
	0.00552707	0.008787342	8.475649e-12	1.970241e-08	-0.02313496	-0.0555449	-1.846978e-09	1.741741e-09
	-5.626077e-10	-4.006691e-10	0.005224955	0.008983813	-1.846978e-09	1.741741e-09	-0.02389106	-0.05521728
2.5e+08	-0.02545262	-0.05728077	2.81738e-10	-5.282048e-10	0.005918755	0.008963444	-6.047612e-10	-3.929931e-10
	2.81738e-10	-5.282048e-10	-0.02624483	-0.05683503	-1.050338e-10	2.06047e-08	0.005597027	0.009182538
	0.005918755	0.008963444	-1.050338e-10	2.06047e-08	-0.02550162	-0.0571415	-1.967397e-09	1.910421e-09
	-6.047612e-10	-3.929931e-10	0.005597027	0.009182538	-1.967397e-09	1.910421e-09	-0.02630887	-0.05676587
2.6e+08	-0.02788342	-0.05878642	2.954364e-10	-5.617083e-10	0.006316192	0.009120011	-6.473407e-10	-3.82659e-10
	2.954364e-10	-5.617083e-10	-0.02872568	-0.05828636	-2.183636e-10	2.151936e-08	0.005974923	0.009363206
	0.006316192	0.009120011	-2.183636e-10	2.151936e-08	-0.02793859	-0.05863799	-2.086338e-09	2.08819e-09
	-6.473407e-10	-3.82659e-10	0.005974923	0.009363206	-2.086338e-09	2.08819e-09	-0.02879701	-0.05821068
2.7e+08	-0.03037993	-0.06018959	3.091292e-10	-5.967495e-10	0.006718414	0.009256818	-6.902015e-10	-3.696226e-10
	3.091292e-10	-5.967495e-10	-0.031272	-0.05963159	-3.306878e-10	2.244655e-08	0.006357765	0.009525602
	0.006718414	0.009256818	-3.306878e-10	2.244655e-08	-0.0304413	-0.06003151	-2.203249e-09	2.274974e-09
	-6.902015e-10	-3.696226e-10	0.006357765	0.009525602	-2.203249e-09	2.274974e-09	-0.03135073	-0.05954884
2.8e+08	-0.03293753	-0.06148768	3.22724e-10	-6.33405e-10	0.007124444	0.009373692	-7.331956e-10	-3.538471e-10
	3.22724e-10	-6.33405e-10	-0.03387898	-0.06086808	-4.411764e-10	2.338639e-08	0.006744667	0.009669557
	0.007124444	0.009373692	-4.411764e-10	2.338639e-08	-0.03300513	-0.06131946	-2.317591e-09	2.470668e-09
	-7.331956e-10	-3.538471e-10	0.006744667	0.009669557	-2.317591e-09	2.470668e-09	-0.03396516	-0.06077771
2.9e+08	-0.03555155	-0.06267826	3.361182e-10	-6.717474e-10	0.007533302	0.009470505	-7.761721e-10	-3.35303e-10
	3.361182e-10	-6.717474e-10	-0.03654169	-0.06199343	-5.489973e-10	2.433893e-08	0.007134739	0.009794944
	0.007533302	0.009470505	-5.489973e-10	2.433893e-08	-0.03562536	-0.06249941	-2.428832e-09	2.675138e-09
	-7.761721e-10	-3.35303e-10	0.007134739	0.009794944	-2.428832e-09	2.675138e-09	-0.03663535	-0.06189487
3e+08	-0.0382172	-0.06375916	3.492008e-10	-7.118435e-10	0.007944003	0.009547179	-8.189772e-10	-3.139686e-10
	3.492008e-10	-7.118435e-10	-0.03925517	-0.06300546	-6.53317e-10	2.530421e-08	0.007527089	0.009901679
	0.007944003	0.009547179	-6.53317e-10	2.530421e-08	-0.03829718	-0.06356917	-2.536453e-09	2.888222e-09
	-8.189772e-10	-3.139686e-10	0.007527089	0.009901679	-2.536453e-09	2.888222e-09	-0.03935628	-0.06289814
3.1e+08	-0.04092966	-0.06472839	3.610474e-10	-7.539343e-10	0.008355564	0.009603683	-8.614527e-10	-2.898192e-10
	3.610474e-10	-7.539343e-10	-0.04201435	-0.06390222	-7.536665e-10	2.628199e-08	0.007920822	0.00998972
	0.008355564	0.009603683	-7.536665e-10	2.628199e-08	-0.04101575	-0.06452676	-2.640761e-09	3.109552e-09
	-8.614527e-10	-2.898192e-10	0.007920822	0.00998972	-2.640761e-09	3.109552e-09	-0.04212288	-0.06378557
3.2e+08	-0.04368403	-0.06558422	3.706116e-10	-7.981416e-10	0.008767003	0.009640035	-9.034357e-10	-2.628362e-10
	3.706116e-10	-7.981416e-10	-0.04481414	-0.06468198	-8.496364e-10	2.727202e-08	0.008315047	0.01005907
	0.008767003	0.009640035	-8.496364e-10	2.727202e-08	-0.04377615	-0.06537043	-2.74219e-09	3.338847e-09
	-9.034357e-10	-2.628362e-10	0.008315047	0.01005907	-2.74219e-09	3.338847e-09	-0.04493	-0.06455544
3.3e+08	-0.04647539	-0.06632508	3.793247e-10	-8.440778e-10	0.009177341	0.0096563	-9.447696e-10	-2.330442e-10
	3.793247e-10	-8.440778e-10	-0.04764938	-0.06534327	-9.396976e-10	2.827463e-08	0.008708875	0.01010977
	0.009177341	0.0096563	-9.396976e-10	2.827463e-08	-0.0465734	-0.06609863	-2.838677e-09	3.576298e-09
	-9.447696e-10	-2.330442e-10	0.008708875	0.01010977	-2.838677e-09	3.576298e-09	-0.04777247	-0.06520624
3.4e+08	-0.04929877	-0.06694968	3.870469e-10	-8.917625e-10	0.00958561	0.00965259	-9.852933e-10	-2.00455e-10
	3.870469e-10	-8.917625e-10	-0.0505149	-0.06588481	-1.023032e-09	2.928966e-08	0.009101425	0.01014191
	0.00958561	0.00965259	-1.023032e-09	2.928966e-08	-0.04940251	-0.06671004	-2.929755e-09	3.821657e-09
	-9.852933e-10	-2.00455e-10	0.009101425	0.01014191	-2.929755e-09	3.821657e-09	-0.05064505	-0.06573674
3.5e+08	-0.05214914	-0.0674569	3.936345e-10	-9.412055e-10	0.009990847	0.009629065	-1.024846e-09	-1.650892e-10
	3.936345e-10	-9.412055e-10	-0.05340547	-0.06630558	-1.09883e-09	3.031691e-08	0.009491824	0.01015562
	0.009990847	0.009629065	-1.09883e-09	3.031691e-08	-0.05225843	-0.06720357	-3.014975e-09	4.074652e-09
	-1.024846e-09	-1.650892e-10	0.009491824	0.01015562	-3.014975e-09	4.074652e-09	-0.05354252	-0.06614589
3.6e+08	-0.0550215	-0.06784587	3.989372e-10	-9.924056e-10	0.0103921	0.009585927	-1.063267e-09	-1.26976e-10
	3.989372e-10	-9.924056e-10	-0.05631588	-0.06660478	-1.166292e-09	3.135614e-08	0.009879206	0.01015107
	0.0103921	0.009585927	-1.166292e-09	3.135614e-08	-0.05513612	-0.06757833	-3.093905e-09	4.334991e-09
	-1.063267e-09	-1.26976e-10	0.009879206	0.01015107	-3.093905e-09	4.334991e-09	-0.05645959	-0.06643289
3.7e+08	-0.0579108	-0.06811591	4.028003e-10	-1.04535e-09	0.01078844	0.009523427	-1.100395e-09	-8.615375e-11
	4.028003e-10	-1.04535e-09	-0.05924087	-0.06678181	-1.22463e-09	3.240707e-08	0.01026272	0.01012845
	0.01078844	0.009523427	-1.22463e-09	3.240707e-08	-0.0580305	-0.06783366	-3.166131e-09	4.602362e-09
	-1.100395e-09	-8.615375e-11	0.01026272	0.01012845	-3.166131e-09	4.602362e-09	-0.059391	-0.06659719
3.8e+08	-0.06081201	-0.06826657	4.050647e-10	-1.100015e-09	0.01117895	0.009441856	-1.136072e-09	-4.266948e-11
	4.050647e-10	-1.100015e-09	-0.06217523	-0.06683635	-1.273071e-09	3.346936e-08	0.01064153	0.01008804
	0.01117895	0.009441856	-1.273071e-09	3.346936e-08	-0.0609365	-0.06796912	-3.231259e-09	4.876433e-09
	-1.136072e-09	-4.266948e-11	0.01064153	0.01008804	-3.231259e-09	4.876433e-09	-0.06233148	-0.06663843
3.9e+08	-0.06372008	-0.06829761	4.055681e-10	-1.156362e-09	0.01156272	0.009341551	-1.170139e-09	3.420776e-12
	4.055681e-10	-1.156362e-09	-0.06511372	-0.06676825	-1.31086e-09	3.454264e-08	0.01101481	0.01003009
	0.01156272	0.009341551	-1.31086e-09	3.454264e-08	-0.06384905	-0.06798446	-3.288916e-09	5.156855e-09
	-1.170139e-09	3.420776e-12	0.01101481	0.01003009	-3.288916e-09	5.156855e-09	-0.06527577	-0.0665565
4e+08	-0.06662999	-0.06820901	4.04146e-10	-1.21434e-09	0.01193886	0.009222889	-1.202441e-09	5.205211e-11
	4.04146e-10	-1.21434e-09	-0.06805112	-0.06657762	-1.337257e-09	3.56265e-08	0.01138176	0.009954956
	0.01193886	0.009222889	-1.337257e-09	3.56265e-08	-0.06676309	-0.06787968	-3.338749e-09	5.443263e-09
	-1.202441e-09	5.205211e-11	0.01138176	0.009954956	-3.338749e-09	5.443263e-09	-0.06821862	-0.06635151
4.1e+08	-0.06953674	-0.06800095	4.006329e-10	-1.273884e-09	0.01230653	0.009086287	-1.232823e-09	1.031508e-10
	4.006329e-10	-1.273884e-09	-0.07098227	-0.06626476	-1.351545e-09	3.672049e-08	0.0117416	0.009862978
	0.01230653	0.009086287	-1.351545e-09	3.672049e-08	-0.0696736	-0.06765498	-3.380426e-09	5.735277e-09
	-1.232823e-09	1.031508e-10	0.0117416	0.009862978	-3.380426e-09	5.735277e-09	-0.07115483	-0.06602378
4.2e+08	-0.07243537	-0.0676738	3.94863e-10	-1.334914e-09	0.01266488	0.008932201	-1.261137e-09	1.566344e-10
	3.94863e-10	-1.334914e-09	-0.07390201	-0.06583021	-1.353027e-09	3.782411e-08	0.01209355	0.009754555
	0.01266488	0.008932201	-1.353027e-09	3.782411e-08	-0.07257557	-0.06731074	-3.413638e-09	6.032506e-09
	-1.261137e-09	1.566344e-10	0.01209355	0.009754555	-3.413638e-09	6.032506e-09	-0.07407921	-0.06557387
4.3e+08	-0.07532092	-0.06722818	3.866724e-10	-1.397336e-09	0.0130131	0.008761126	-1.287236e-09	2.124119e-10
	3.866724e-10	-1.397336e-09	-0.07680525	-0.06527471	-1.341032e-09	3.893684e-08	0.01243687	0.009630116
	0.0130131	0.008761126	-1.341032e-09	3.893684e-08	-0.07546404	-0.06684759	-3.438098e-09	6.334545e-09
	-1.287236e-09	2.124119e-10	0.01243687	0.009630116	-3.438098e-09	6.334545e-09	-0.07698662	-0.06500253
4.4e+08	-0.07818852	-0.06666487	3.758994e-10	-1.461041e-09	0.01335041	0.008573591	-1.310978e-09	2.70384e-10
	3.758994e-10	-1.461041e-09	-0.07968693	-0.06459922	-1.314912e-09	4.005809e-08	0.01277086	0.009490119
	0.01335041	0.008573591	-1.314912e-09	4.005809e-08	-0.07833408	-0.06626633	-3.453537e-09	6.640979e-09
	-1.310978e-09	2.70384e-10	0.01277086	0.009490119	-3.453537e-09	6.640979e-09	-0.07987201	-0.06431075
4.5e+08	-0.08103332	-0.06598487	3.623866e-10	-1.525903e-09	0.01367605	0.008370161	-1.332224e-09	3.304429e-10
	3.623866e-10	-1.525903e-09	-0.08254206	-0.06380491	-1.27405e-09	4.118727e-08	0.0130948	0.009335056
	0.01367605	0.008370161	-1.27405e-09	4.118727e-08	-0.08118083	-0.06556798	-3.459714e-09	6.951385e-09
	-1.332224e-09	3.304429e-10	0.0130948	0.009335056	-3.459714e-09	6.951385e-09	-0.08273033	-0.0634997
4.6e+08	-0.08385055	-0.06518936	3.459816e-10	-1.591784e-09	0.01398929	0.008151433	-1.350843e-09	3.924733e-10
	3.459816e-10	-1.591784e-09	-0.08536573	-0.06289313	-1.217857e-09	4.232374e-08	0.01340804	0.009165446
	0.01398929	0.008151433	-1.217857e-09	4.232374e-08	-0.08399949	-0.06475375	-3.456404e-09	7.265331e-09
	-1.350843e-09	3.924733e-10	0.01340804	0.009165446	-3.456404e-09	7.265331e-09	-0.08555665	-0.06257078
4.7e+08	-0.08663549	-0.06427973	3.265388e-10	-1.658529e-09	0.01428943	0.007918037	-1.366707e-09	4.563518e-10
	3.265388e-10	-1.658529e-09	-0.08815309	-0.06186545	-1.145773e-09	4.346681e-08	0.01370993	0.008981838
	0.01428943	0.007918037	-1.145773e-09	4.346681e-08	-0.08678531	-0.06382504	-3.443406e-09	7.582379e-09
