!$
! Info: Touchstone file created by Circ.  Input file=Tx_2in_Rx_85ohms_TxVia_10mils_RxVia_20mils.circ
!$
# Hz S RI R 50
0	0.001737967	2.192858e-26	-1.096577e-05	2.182389e-25	2.391743e-05	1.798545e-24	-1.099179e-05	3.036565e-24
	-1.096578e-05	2.185157e-25	0.001738656	2.856536e-26	-1.095899e-05	1.049709e-25	2.199965e-05	2.400289e-24
	2.261544e-05	1.752483e-24	-1.095899e-05	1.04995e-25	0.00175344	2.300605e-26	-1.096901e-05	4.072371e-25
	-1.099179e-05	3.036052e-24	2.345845e-05	2.470477e-24	-1.0969e-05	4.067554e-25	0.001744322	2.730372e-26
1e+07	0.002384388	-0.001652814	-2.272458e-05	-6.641717e-06	4.692444e-05	0.0004843774	-1.65921e-06	-5.454927e-07
	-2.272458e-05	-6.641718e-06	0.002390161	-0.001653887	-9.106488e-06	1.554741e-05	4.616163e-05	0.000484621
	4.688062e-05	0.0004843808	-9.106488e-06	1.554741e-05	0.002406843	-0.001645941	-2.27476e-05	-6.676286e-06
	-1.65921e-06	-5.454925e-07	4.619364e-05	0.0004846095	-2.27476e-05	-6.676286e-06	0.00239943	-0.001650853
2e+07	0.002905405	-0.003862867	-2.149951e-05	8.733086e-07	8.977235e-05	0.000955839	-9.903621e-07	-3.519642e-06
	-2.149951e-05	8.733084e-07	0.002905334	-0.003867427	-1.355329e-05	2.014436e-05	8.695361e-05	0.0009564676
	8.976265e-05	0.0009558669	-1.355329e-05	2.014436e-05	0.00292705	-0.003852471	-2.152152e-05	7.833375e-07
	-9.903619e-07	-3.519642e-06	8.695043e-05	0.0009564467	-2.152152e-05	7.833377e-07	0.002915249	-0.00385975
3e+07	0.003151831	-0.006349437	-2.084612e-05	-1.133586e-06	0.000152304	0.001421768	-3.036734e-06	-4.554614e-06
	-2.084612e-05	-1.133586e-06	0.003143101	-0.006355563	-1.631868e-05	2.450098e-05	0.0001461495	0.001423031
	0.0001523048	0.001421773	-1.631868e-05	2.450098e-05	0.003172899	-0.006334103	-2.087489e-05	-1.267179e-06
	-3.036733e-06	-4.554614e-06	0.0001461444	0.001423028	-2.087489e-05	-1.267179e-06	0.003154141	-0.006343092
4e+07	0.003200305	-0.00892899	-2.036936e-05	-2.298249e-06	0.0002351975	0.001882445	-4.76881e-06	-4.844614e-06
	-2.036936e-05	-2.298249e-06	0.00317997	-0.008935731	-1.803739e-05	2.829512e-05	0.0002244277	0.001884628
	0.0002351935	0.001882443	-1.803739e-05	2.829512e-05	0.003220906	-0.008908573	-2.040302e-05	-2.477177e-06
	-4.76881e-06	-4.844614e-06	0.0002244273	0.001884629	-2.040302e-05	-2.477177e-06	0.003192733	-0.008920337
5e+07	0.003079603	-0.01155591	-2.001961e-05	-3.113663e-06	0.0003383344	0.002337245	-6.286586e-06	-4.729748e-06
	-2.001961e-05	-3.113663e-06	0.003044715	-0.01156226	-1.896759e-05	3.158332e-05	0.0003216823	0.002340759
	0.0003383327	0.002337244	-1.896759e-05	3.158332e-05	0.003099724	-0.01153049	-2.005752e-05	-3.339115e-06
	-6.286586e-06	-4.729748e-06	0.0003216818	0.00234076	-2.005752e-05	-3.339115e-06	0.003058179	-0.01154474
6e+07	0.00280422	-0.01420648	-1.976997e-05	-3.737929e-06	0.0004614373	0.002785475	-7.63748e-06	-4.330411e-06
	-1.976997e-05	-3.737929e-06	0.002751877	-0.01421129	-1.925652e-05	3.436722e-05	0.0004376985	0.002790823
	0.0004614427	0.002785473	-1.925652e-05	3.436722e-05	0.002823732	-0.01417619	-1.981164e-05	-4.011281e-06
	-7.63748e-06	-4.330411e-06	0.0004376956	0.002790824	-1.981164e-05	-4.011281e-06	0.002765534	-0.01419161
7e+07	0.002383034	-0.01686504	-1.960364e-05	-4.238805e-06	0.0006042005	0.003226392	-8.845642e-06	-3.695507e-06
	-1.960364e-05	-4.238805e-06	0.0023104	-0.01686699	-1.901016e-05	3.659829e-05	0.0005722191	0.003234133
	0.0006042111	0.003226385	-1.901016e-05	3.659829e-05	0.00240173	-0.01682999	-1.964881e-05	-4.561629e-06
	-8.845642e-06	-3.695508e-06	0.0005722144	0.003234136	-1.964881e-05	-4.561629e-06	0.002324206	-0.01684532
8e+07	0.001822252	-0.01951984	-1.950911e-05	-4.650538e-06	0.000766278	0.003659233	-9.921074e-06	-2.834433e-06
	-1.950911e-05	-4.650538e-06	0.001726558	-0.01951746	-1.8324e-05	3.816535e-05	0.0007249244	0.003669981
	0.0007662887	0.003659222	-1.8324e-05	3.816535e-05	0.001839868	-0.01948011	-1.955782e-05	-5.024582e-06
	-9.921074e-06	-2.834433e-06	0.0007249197	0.003669985	-1.955782e-05	-5.024582e-06	0.00174034	-0.0194944
9e+07	0.001126618	-0.02216145	-1.947828e-05	-4.992975e-06	0.0009472824	0.004083301	-1.085919e-05	-1.709352e-06
	-1.947828e-05	-4.992975e-06	0.001005171	-0.02215307	-1.73137e-05	3.881902e-05	0.0008954442	0.004097741
	0.0009472888	0.004083292	-1.73137e-05	3.881902e-05	0.001142856	-0.02211708	-1.95309e-05	-5.420142e-06
	-1.085919e-05	-1.709352e-06	0.0008954415	0.004097745	-1.95309e-05	-5.420142e-06	0.00101835	-0.02212933
1e+08	0.0002998643	-0.02478265	-1.950804e-05	-5.284341e-06	0.001146926	0.004498586	-1.159014e-05	-2.70634e-08
	-1.950804e-05	-5.284341e-06	0.0001500606	-0.02476637	-1.627767e-05	3.734856e-05	0.001083512	0.004517482
	0.001146925	0.004498586	-1.627767e-05	3.734856e-05	0.0003144132	-0.02473354	-1.956524e-05	-5.766751e-06
	-1.159014e-05	-2.70634e-08	0.001083513	0.004517482	-1.956524e-05	-5.766751e-06	0.0001616581	-0.02474256
1.1e+08	-0.0006572004	-0.0273813	-1.956149e-05	-5.537267e-06	0.001367536	0.004902293	-1.10921e-05	1.406142e-06
	-1.956149e-05	-5.537267e-06	-0.0008381947	-0.02735429	-1.06048e-05	3.486655e-05	0.001291102	0.004926065
	0.001367536	0.004902293	-1.06048e-05	3.486655e-05	-0.0006437182	-0.02732681	-1.962616e-05	-6.072473e-06
	-1.10921e-05	1.406142e-06	0.001291102	0.004926065	-1.962616e-05	-6.072473e-06	-0.0008285566	-0.02732918
1.2e+08	-0.001740023	-0.02993807	-1.965414e-05	-5.726409e-06	0.001604971	0.005292694	-1.0671e-05	2.317788e-06
	-1.965414e-05	-5.726409e-06	-0.001954167	-0.02989853	-4.392746e-06	3.401941e-05	0.001514706	0.0053226
	0.001604971	0.005292694	-4.392746e-06	3.401941e-05	-0.001728122	-0.02987887	-1.972757e-05	-6.315828e-06
	-1.0671e-05	2.317788e-06	0.001514706	0.0053226	-1.972757e-05	-6.315828e-06	-0.001946965	-0.02987215
1.3e+08	-0.00294391	-0.0324485	-1.978479e-05	-5.862472e-06	0.001858766	0.00566996	-1.032861e-05	2.837793e-06
	-1.978479e-05	-5.862472e-06	-0.003193209	-0.0323944	2.109578e-06	3.350339e-05	0.001753921	0.005707147
	0.001858766	0.00566996	2.109578e-06	3.350339e-05	-0.002934201	-0.03238485	-1.986847e-05	-6.507642e-06
	-1.032861e-05	2.837793e-06	0.001753921	0.005707147	-1.986847e-05	-6.507642e-06	-0.003188983	-0.03236671
1.4e+08	-0.004264692	-0.03490761	-1.995082e-05	-5.948026e-06	0.002128314	0.006033559	-1.020586e-05	2.552031e-06
	-1.995082e-05	-5.948026e-06	-0.00455115	-0.03483676	8.849923e-06	3.300878e-05	0.002008177	0.006079133
	0.002128314	0.00603356	8.849923e-06	3.300878e-05	-0.004257794	-0.03483953	-2.004645e-05	-6.650496e-06
	-1.020586e-05	2.552031e-06	0.002008177	0.006079133	-2.004645e-05	-6.650496e-06	-0.004550442	-0.03480763
1.5e+08	-0.005698572	-0.03731054	-2.014564e-05	-5.986031e-06	0.002412956	0.006382874	-1.008432e-05	2.33629e-06
	-2.014564e-05	-5.986031e-06	-0.006024138	-0.03722055	1.579435e-05	3.237638e-05	0.002276843	0.006437942
	0.002412956	0.006382874	1.579435e-05	3.237638e-05	-0.00569506	-0.0372379	-2.025512e-05	-6.747447e-06
	-1.008432e-05	2.33629e-06	0.002276843	0.006437942	-2.025512e-05	-6.747447e-06	-0.006027469	-0.03718976
1.6e+08	-0.007241933	-0.03965256	-2.036512e-05	-5.97764e-06	0.00271199	0.006717272	-9.965128e-06	2.171318e-06
	-2.036512e-05	-5.97764e-06	-0.007608463	-0.03954088	2.291326e-05	3.150542e-05	0.002559255	0.006782966
	0.00271199	0.006717272	2.291326e-05	3.150542e-05	-0.00724232	-0.0395751	-2.049058e-05	-6.799654e-06
	-9.965128e-06	2.171318e-06	0.002559255	0.006782967	-2.049058e-05	-6.799654e-06	-0.00761632	-0.03950813
1.7e+08	-0.008891227	-0.0419291	-2.060523e-05	-5.923642e-06	0.003024678	0.007036134	-9.848699e-06	2.044922e-06
	-2.060523e-05	-5.923642e-06	-0.009300451	-0.04179298	3.01775e-05	3.032489e-05	0.002854718	0.007113626
	0.003024678	0.007036134	3.01775e-05	3.032489e-05	-0.008895955	-0.04184648	-2.074903e-05	-6.807887e-06
	-9.848699e-06	2.044922e-06	0.002854718	0.007113626	-2.074903e-05	-6.807887e-06	-0.00931328	-0.04175795
1.8e+08	-0.01064289	-0.04413567	-2.086199e-05	-5.824645e-06	0.003350247	0.007338862	-9.735074e-06	1.948827e-06
	-2.086199e-05	-5.824645e-06	-0.01109639	-0.04397223	3.75573e-05	2.878171e-05	0.003162511	0.007429368
	0.003350247	0.007338862	3.75573e-05	2.878171e-05	-0.01065234	-0.04404751	-2.102676e-05	-6.772715e-06
	-9.735074e-06	1.948827e-06	0.003162511	0.007429368	-2.102676e-05	-6.772715e-06	-0.0111146	-0.04393453
1.9e+08	-0.01249329	-0.04626797	-2.113153e-05	-5.681193e-06	0.003687889	0.007624891	-9.624139e-06	1.877107e-06
	-2.113153e-05	-5.681193e-06	-0.01299249	-0.04607417	4.502177e-05	2.683469e-05	0.003481888	0.00772967
	0.003687889	0.007624891	4.502177e-05	2.683469e-05	-0.01250778	-0.04617385	-2.132012e-05	-6.69462e-06
	-9.624139e-06	1.877107e-06	0.003481888	0.00772967	-2.132012e-05	-6.69462e-06	-0.01301643	-0.04603338
2e+08	-0.01443871	-0.04832182	-2.141004e-05	-5.493839e-06	0.00403677	0.007893689	-9.51569e-06	1.825375e-06
	-2.141004e-05	-5.493839e-06	-0.01498483	-0.0480945	5.253897e-05	2.445131e-05	0.003812082	0.008014047
	0.00403677	0.007893689	5.253897e-05	2.445131e-05	-0.0144585	-0.04822131	-2.162557e-05	-6.57407e-06
	-9.51569e-06	1.825375e-06	0.003812082	0.008014047	-2.162557e-05	-6.57407e-06	-0.01501484	-0.04805019
2.1e+08	-0.01647532	-0.05029323	-2.169381e-05	-5.263193e-06	0.004396026	0.008144763	-9.409497e-06	1.790273e-06
	-2.169381e-05	-5.263193e-06	-0.01706939	-0.05002911	6.007574e-05	2.160584e-05	0.004152303	0.008282045
	0.004396026	0.008144763	6.007574e-05	2.160584e-05	-0.01650064	-0.05018589	-2.193962e-05	-6.411567e-06
	-9.409497e-06	1.790273e-06	0.004152303	0.008282045	-2.193962e-05	-6.411567e-06	-0.01710577	-0.04998082
2.2e+08	-0.01859914	-0.05217837	-2.19792e-05	-4.989963e-06	0.00476477	0.008377661	-9.305303e-06	1.769184e-06
	-2.19792e-05	-4.989963e-06	-0.01924202	-0.05187408	6.759796e-05	1.827807e-05	0.004501743	0.00853325
	0.00476477	0.008377661	6.759796e-05	1.827807e-05	-0.01863018	-0.05206375	-2.225888e-05	-6.207686e-06
	-9.305303e-06	1.769184e-06	0.004501743	0.00853325	-2.225888e-05	-6.207686e-06	-0.01928501	-0.05182134
2.3e+08	-0.02080612	-0.05397361	-2.226264e-05	-4.674986e-06	0.005142094	0.008591975	-9.202839e-06	1.76004e-06
	-2.226264e-05	-4.674986e-06	-0.02149842	-0.0536257	7.5071e-05	1.445249e-05	0.004859574	0.008767285
	0.005142094	0.008591975	7.5071e-05	1.445249e-05	-0.02084303	-0.05385123	-2.258002e-05	-5.963111e-06
	-9.202839e-06	1.76004e-06	0.004859574	0.008767285	-2.258002e-05	-5.963111e-06	-0.02154825	-0.053568
2.4e+08	-0.02309205	-0.05567549	-2.254069e-05	-4.319224e-06	0.00552707	0.008787342	-9.101858e-06	1.761142e-06
	-2.254069e-05	-4.319224e-06	-0.0238342	-0.05528045	8.245906e-05	1.011792e-05	0.005224955	0.008983813
	0.00552707	0.008787342	8.245906e-05	1.011792e-05	-0.02313496	-0.0555449	-2.289983e-05	-5.678627e-06
	-9.101858e-06	1.761142e-06	0.005224955	0.008983813	-2.289983e-05	-5.678627e-06	-0.02389106	-0.05521728
2.5e+08	-0.02545262	-0.05728077	-2.281e-05	-3.9238e-06	0.005918755	0.008963444	-9.002106e-06	1.771109e-06
	-2.281e-05	-3.9238e-06	-0.02624483	-0.05683503	8.972623e-05	5.266897e-06	0.005597027	0.009182538
	0.005918755	0.008963444	8.972623e-05	5.266897e-06	-0.02550162	-0.0571415	-2.321515e-05	-5.355156e-06
	-9.002106e-06	1.771109e-06	0.005597027	0.009182538	-2.321515e-05	-5.355156e-06	-0.02630887	-0.05676587
2.6e+08	-0.02788342	-0.05878642	-2.306731e-05	-3.489986e-06	0.006316192	0.009120011	-8.903346e-06	1.788783e-06
	-2.306731e-05	-3.489986e-06	-0.02872568	-0.05828636	9.683602e-05	-1.043563e-07	0.005974923	0.009363206
	0.006316192	0.009120011	9.683602e-05	-1.043563e-07	-0.02793859	-0.05863799	-2.352296e-05	-4.99375e-06
	-8.903346e-06	1.788783e-06	0.005974923	0.009363206	-2.352296e-05	-4.99375e-06	-0.02879701	-0.05821068
2.7e+08	-0.03037993	-0.06018959	-2.330949e-05	-3.019225e-06	0.006718414	0.009256818	-8.805329e-06	1.813192e-06
	-2.330949e-05	-3.019225e-06	-0.031272	-0.05963159	0.0001037524	-5.996572e-06	0.006357765	0.009525602
	0.006718414	0.009256818	0.0001037524	-5.996572e-06	-0.0304413	-0.06003151	-2.382031e-05	-4.595609e-06
	-8.805329e-06	1.813192e-06	0.006357765	0.009525602	-2.382031e-05	-4.595609e-06	-0.03135073	-0.05954884
2.8e+08	-0.03293753	-0.06148768	-2.353355e-05	-2.513109e-06	0.007124444	0.009373692	-8.707842e-06	1.8435e-06
	-2.353355e-05	-2.513109e-06	-0.03387898	-0.06086808	0.0001104389	-1.240708e-05	0.006744667	0.009669557
	0.007124444	0.009373692	0.0001104389	-1.240708e-05	-0.03300513	-0.06131946	-2.410438e-05	-4.162063e-06
	-8.707842e-06	1.8435e-06	0.006744667	0.009669557	-2.410438e-05	-4.162063e-06	-0.03396516	-0.06077771
2.9e+08	-0.03555155	-0.06267826	-2.373664e-05	-1.973387e-06	0.007533302	0.009470505	-8.610671e-06	1.878983e-06
	-2.373664e-05	-1.973387e-06	-0.03654169	-0.06199343	0.000116859	-1.93301e-05	0.007134739	0.009794944
	0.007533302	0.009470505	0.000116859	-1.93301e-05	-0.03562536	-0.06249941	-2.437248e-05	-3.694581e-06
	-8.610671e-06	1.878983e-06	0.007134739	0.009794944	-2.437248e-05	-3.694581e-06	-0.03663535	-0.06189487
3e+08	-0.0382172	-0.06375916	-2.391602e-05	-1.401978e-06	0.007944003	0.009547179	-8.513604e-06	1.919014e-06
	-2.391602e-05	-1.401978e-06	-0.03925517	-0.06300546	0.0001229786	-2.67581e-05	0.007527089	0.009901679
	0.007944003	0.009547179	0.0001229786	-2.67581e-05	-0.03829718	-0.06356917	-2.462204e-05	-3.194782e-06
	-8.513604e-06	1.919014e-06	0.007527089	0.009901679	-2.462204e-05	-3.194782e-06	-0.03935628	-0.06289814
3.1e+08	-0.04092966	-0.06472839	-2.406321e-05	-7.975416e-07	0.008355564	0.009603683	-8.416445e-06	1.96299e-06
	-2.406321e-05	-7.975416e-07	-0.04201435	-0.06390222	0.0001279579	-3.411429e-05	0.007920822	0.00998972
	0.008355564	0.009603683	0.0001279579	-3.411429e-05	-0.04101575	-0.06452676	-2.484496e-05	-2.660875e-06
	-8.416445e-06	1.96299e-06	0.007920822	0.00998972	-2.484496e-05	-2.660875e-06	-0.04212288	-0.06378557
3.2e+08	-0.04368403	-0.06558422	-2.416888e-05	-1.593519e-07	0.008767003	0.009640035	-8.318997e-06	2.01036e-06
	-2.416888e-05	-1.593519e-07	-0.04481414	-0.06468198	0.0001310143	-4.076274e-05	0.008315047	0.01005907
	0.008767003	0.009640035	0.0001310143	-4.076274e-05	-0.04377615	-0.06537043	-2.503229e-05	-2.091587e-06
	-8.318997e-06	2.01036e-06	0.008315047	0.01005907	-2.503229e-05	-2.091587e-06	-0.04493	-0.06455544
3.3e+08	-0.04647539	-0.06632508	-2.424235e-05	5.031085e-07	0.009177341	0.0096563	-8.221106e-06	2.06075e-06
	-2.424235e-05	5.031085e-07	-0.04764938	-0.06534327	0.0001337661	-4.7802e-05	0.008708875	0.01010977
	0.009177341	0.0096563	0.0001337661	-4.7802e-05	-0.0465734	-0.06609863	-2.51929e-05	-1.496286e-06
	-8.221106e-06	2.06075e-06	0.008708875	0.01010977	-2.51929e-05	-1.496286e-06	-0.04777247	-0.06520624
3.4e+08	-0.04929877	-0.06694968	-2.428161e-05	1.187301e-06	0.00958561	0.00965259	-8.12258e-06	2.113737e-06
	-2.428161e-05	1.187301e-06	-0.0505149	-0.06588481	0.0001361785	-5.521356e-05	0.009101425	0.01014191
	0.00958561	0.00965259	0.0001361785	-5.521356e-05	-0.04940251	-0.06671004	-2.532483e-05	-8.771525e-07
	-8.12258e-06	2.113737e-06	0.009101425	0.01014191	-2.532483e-05	-8.771525e-07	-0.05064505	-0.06573674
3.5e+08	-0.05214914	-0.0674569	-2.428488e-05	1.890569e-06	0.009990847	0.009629065	-8.023286e-06	2.168948e-06
	-2.428488e-05	1.890569e-06	-0.05340547	-0.06630558	0.0001382205	-6.29785e-05	0.009491824	0.01015562
	0.009990847	0.009629065	0.0001382205	-6.29785e-05	-0.05225843	-0.06720357	-2.542631e-05	-2.364684e-07
	-8.023286e-06	2.168948e-06	0.009491824	0.01015562	-2.542631e-05	-2.364684e-07	-0.05354252	-0.06614589
3.6e+08	-0.0550215	-0.06784587	-2.425056e-05	2.610173e-06	0.0103921	0.009585927	-7.923105e-06	2.226032e-06
	-2.425056e-05	2.610173e-06	-0.05631588	-0.06660478	0.0001398624	-7.107544e-05	0.009879206	0.01015107
	0.0103921	0.009585927	0.0001398624	-7.107544e-05	-0.05513612	-0.06757833	-2.549577e-05	4.234043e-07
	-7.923105e-06	2.226032e-06	0.009879206	0.01015107	-2.549577e-05	4.234043e-07	-0.05645959	-0.06643289
3.7e+08	-0.0579108	-0.06811591	-2.417726e-05	3.343284e-06	0.01078844	0.009523427	-7.821902e-06	2.284659e-06
	-2.417726e-05	3.343284e-06	-0.05924087	-0.06678181	0.0001410762	-7.948117e-05	0.01026272	0.01012845
	0.01078844	0.009523427	0.0001410762	-7.948117e-05	-0.0580305	-0.06783366	-2.553177e-05	1.100021e-06
	-7.821902e-06	2.284659e-06	0.01026272	0.01012845	-2.553177e-05	1.100021e-06	-0.059391	-0.06659719
3.8e+08	-0.06081201	-0.06826657	-2.406379e-05	4.087003e-06	0.01117895	0.009441856	-7.719558e-06	2.344517e-06
	-2.406379e-05	4.087003e-06	-0.06217523	-0.06683635	0.0001418357	-8.817056e-05	0.01064153	0.01008804
	0.01117895	0.009441856	0.0001418357	-8.817056e-05	-0.0609365	-0.06796912	-2.553307e-05	1.790871e-06
	-7.719558e-06	2.344517e-06	0.01064153	0.01008804	-2.553307e-05	1.790871e-06	-0.06233148	-0.06663843
3.9e+08	-0.06372008	-0.06829761	-2.390917e-05	4.83838e-06	0.01156272	0.009341551	-7.615961e-06	2.405306e-06
	-2.390917e-05	4.83838e-06	-0.06511372	-0.06676825	0.0001421161	-9.711655e-05	0.01101481	0.01003009
	0.01156272	0.009341551	0.0001421161	-9.711655e-05	-0.06384905	-0.06798446	-2.549862e-05	2.493396e-06
	-7.615961e-06	2.405306e-06	0.01101481	0.01003009	-2.549862e-05	2.493396e-06	-0.06527577	-0.0665565
4e+08	-0.06662999	-0.06820901	-2.371263e-05	5.594417e-06	0.01193886	0.009222889	-7.511008e-06	2.466741e-06
	-2.371263e-05	5.594417e-06	-0.06805112	-0.06657762	0.000141895	-0.0001062906	0.01138176	0.009954956
	0.01193886	0.009222889	0.000141895	-0.0001062906	-0.06676309	-0.06787968	-2.542752e-05	3.204988e-06
	-7.511008e-06	2.466741e-06	0.01138176	0.009954956	-2.542752e-05	3.204988e-06	-0.06821862	-0.06635151
4.1e+08	-0.06953674	-0.06800095	-2.347361e-05	6.352092e-06	0.01230653	0.009086287	-7.404613e-06	2.52855e-06
	-2.347361e-05	6.352092e-06	-0.07098227	-0.06626476	0.0001411515	-0.0001156624	0.0117416	0.009862978
	0.01230653	0.009086287	0.0001411515	-0.0001156624	-0.0696736	-0.06765498	-2.531908e-05	3.923014e-06
	-7.404613e-06	2.52855e-06	0.0117416	0.009862978	-2.531908e-05	3.923014e-06	-0.07115483	-0.06602378
4.2e+08	-0.07243537	-0.0676738	-2.319177e-05	7.108373e-06	0.01266488	0.008932201	-7.296702e-06	2.590467e-06
	-2.319177e-05	7.108373e-06	-0.07390201	-0.06583021	0.0001398666	-0.0001252004	0.01209355	0.009754555
	0.01266488	0.008932201	0.0001398666	-0.0001252004	-0.07257557	-0.06731074	-2.517279e-05	4.644831e-06
	-7.296702e-06	2.590467e-06	0.01209355	0.009754555	-2.517279e-05	4.644831e-06	-0.07407921	-0.06557387
4.3e+08	-0.07532092	-0.06722818	-2.286696e-05	7.860224e-06	0.0130131	0.008761126	-7.187212e-06	2.652236e-06
	-2.286696e-05	7.860224e-06	-0.07680525	-0.06527471	0.0001380239	-0.0001348717	0.01243687	0.009630116
	0.0130131	0.008761126	0.0001380239	-0.0001348717	-0.07546404	-0.06684759	-2.498833e-05	5.367781e-06
	-7.187212e-06	2.652236e-06	0.01243687	0.009630116	-2.498833e-05	5.367781e-06	-0.07698662	-0.06500253
4.4e+08	-0.07818852	-0.06666487	-2.249925e-05	8.604619e-06	0.01335041	0.008573591	-7.076086e-06	2.713607e-06
	-2.249925e-05	8.604619e-06	-0.07968693	-0.06459922	0.0001356087	-0.0001446423	0.01277086	0.009490119
	0.01335041	0.008573591	0.0001356087	-0.0001446423	-0.07833408	-0.06626633	-2.476553e-05	6.089212e-06
	-7.076086e-06	2.713607e-06	0.01277086	0.009490119	-2.476553e-05	6.089212e-06	-0.07987201	-0.06431075
4.5e+08	-0.08103332	-0.06598487	-2.208892e-05	9.338556e-06	0.01367605	0.008370161	-6.963285e-06	2.774337e-06
	-2.208892e-05	9.338556e-06	-0.08254206	-0.06380491	0.0001326087	-0.0001544774	0.0130948	0.009335056
	0.01367605	0.008370161	0.0001326087	-0.0001544774	-0.08118083	-0.06556798	-2.450443e-05	6.806484e-06
	-6.963285e-06	2.774337e-06	0.0130948	0.009335056	-2.450443e-05	6.806484e-06	-0.08273033	-0.0634997
4.6e+08	-0.08385055	-0.06518936	-2.163645e-05	1.005908e-05	0.01398929	0.008151433	-6.848783e-06	2.83419e-06
	-2.163645e-05	1.005908e-05	-0.08536573	-0.06289313	0.0001290139	-0.000164341	0.01340804	0.009165446
	0.01398929	0.008151433	0.0001290139	-0.000164341	-0.08399949	-0.06475375	-2.420523e-05	7.516993e-06
	-6.848783e-06	2.83419e-06	0.01340804	0.009165446	-2.420523e-05	7.516993e-06	-0.08555665	-0.06257078
4.7e+08	-0.08663549	-0.06427973	-2.11425e-05	1.076327e-05	0.01428943	0.007918037	-6.732557e-06	2.892933e-06
	-2.11425e-05	1.076327e-05	-0.08815309	-0.06186545	0.0001248165	-0.0001741968	0.01370993	0.008981838
