!$
! Info: Touchstone file created by Circ.  Input file=Tx_2in_Rx_93ohms_TxVia_10mils_RxVia_20mils.circ
!$
# Hz S RI R 50
0	0.001964172	2.043228e-26	-1.093267e-05	2.141746e-25	2.234635e-05	1.995002e-24	-1.093792e-05	4.786507e-25
	-1.093267e-05	2.142514e-25	0.001963585	2.850894e-26	-1.093369e-05	7.320918e-26	2.196021e-05	2.721936e-24
	2.045651e-05	1.967e-24	-1.093369e-05	7.329317e-26	0.001978481	2.126902e-26	-1.093282e-05	4.149386e-25
	-1.093792e-05	4.780467e-25	2.341893e-05	2.801528e-24	-1.093282e-05	4.143976e-25	0.001969247	2.725003e-26
1e+07	0.002892804	0.0002283696	-5.308978e-05	-1.752122e-05	4.579113e-05	0.0004551068	-3.163459e-05	2.343608e-05
	-5.308978e-05	-1.752122e-05	0.002859811	0.0001016156	-5.740808e-07	-1.733297e-06	4.574107e-05	0.0004877511
	4.575243e-05	0.0004551315	-5.740798e-07	-1.733298e-06	0.002721262	0.0001125367	-3.016456e-06	-5.828877e-08
	-3.163459e-05	2.343608e-05	4.577311e-05	0.0004877397	-3.016456e-06	-5.828798e-08	0.002819468	9.766839e-05
2e+07	0.003602144	-0.0002392001	-5.525679e-05	-5.606642e-06	9.184845e-05	0.0009238844	-4.102954e-05	2.437549e-05
	-5.525679e-05	-5.606643e-06	0.003462781	-0.0004418669	-7.356876e-07	-1.132248e-06	6.403988e-05	0.0009812122
	9.185535e-05	0.0009239023	-7.356873e-07	-1.132248e-06	0.003372662	-0.0003673225	-3.016249e-07	-5.493466e-06
	-4.102954e-05	2.437549e-05	6.403678e-05	0.0009811913	-3.016246e-07	-5.493465e-06	0.003432696	-0.0004292536
3e+07	0.00409984	-0.000997884	-5.689486e-05	-7.050628e-07	0.0001561976	0.001390809	-4.797144e-05	2.560938e-05
	-5.689487e-05	-7.050629e-07	0.003875164	-0.001223326	-1.742877e-06	-1.827966e-06	0.000118242	0.001457679
	0.000156195	0.001390809	-1.742877e-06	-1.827966e-06	0.00382561	-0.001130236	-2.885596e-06	-7.207991e-06
	-4.797144e-05	2.560938e-05	0.0001182369	0.001457677	-2.885596e-06	-7.207991e-06	0.003853821	-0.001205634
4e+07	0.004468366	-0.001869331	-5.81832e-05	3.390238e-06	0.0002400974	0.001854745	-5.365886e-05	2.607185e-05
	-5.81832e-05	3.390239e-06	0.004168764	-0.00209827	-2.592471e-06	-2.048737e-06	0.0002029844	0.001925818
	0.0002400926	0.001854747	-2.592471e-06	-2.048737e-06	0.00415667	-0.001998674	-5.146659e-06	-8.029413e-06
	-5.365886e-05	2.607185e-05	0.000202984	0.001925819	-5.146659e-06	-8.029413e-06	0.004155781	-0.002080145
5e+07	0.004738104	-0.002809219	-5.925083e-05	6.877507e-06	0.0003437169	0.00231453	-5.856511e-05	2.586812e-05
	-5.925083e-05	6.877507e-06	0.004370167	-0.003028976	-3.333767e-06	-2.028266e-06	0.0003056845	0.002387089
	0.0003437157	0.002314532	-3.333766e-06	-2.028266e-06	0.004394004	-0.002930118	-7.190807e-06	-8.35141e-06
	-5.856511e-05	2.586812e-05	0.000305684	0.002387089	-7.190807e-06	-8.35141e-06	0.004363891	-0.003012741
6e+07	0.00492384	-0.003795855	-6.067251e-05	6.014512e-06	0.0004669769	0.002769256	-6.295598e-05	2.504617e-05
	-6.067251e-05	6.014512e-06	0.004492397	-0.003996341	-3.995778e-06	-1.844947e-06	0.0004263458	0.002841422
	0.0004669779	0.002769254	-3.995778e-06	-1.844947e-06	0.004551279	-0.003903759	-9.073304e-06	-8.313418e-06
	-6.295598e-05	2.504617e-05	0.0004263429	0.002841423	-9.073304e-06	-8.313418e-06	0.004491851	-0.00398302
7e+07	0.005034101	-0.004816094	-6.210448e-05	5.11203e-06	0.0006097237	0.003218152	-6.700406e-05	2.357287e-05
	-6.210448e-05	5.11203e-06	0.004543125	-0.004988191	-4.58555e-06	-1.532607e-06	0.0005648416	0.003288391
	0.0006097245	0.003218147	-4.58555e-06	-1.532607e-06	0.004636442	-0.004906722	-1.082155e-05	-7.972005e-06
	-6.700406e-05	2.357287e-05	0.0005648369	0.003288394	-1.082155e-05	-7.972006e-06	0.004547874	-0.004978856
8e+07	0.005074301	-0.005861153	-6.358465e-05	4.086283e-06	0.0007717687	0.003660613	-7.086156e-05	2.131143e-05
	-6.358465e-05	4.086282e-06	0.004527471	-0.005995574	-5.107586e-06	-1.100442e-06	0.0007209362	0.003727399
	0.0007717685	0.003660608	-5.107587e-06	-1.100442e-06	0.00465469	-0.005929928	-1.244643e-05	-7.337895e-06
	-7.086156e-05	2.131143e-05	0.0007209315	0.003727403	-1.244643e-05	-7.337895e-06	0.004536991	-0.005991646
9e+07	0.005047976	-0.006925211	-6.516332e-05	2.800592e-06	0.0009529548	0.004096434	-7.471145e-05	1.789462e-05
	-6.516332e-05	2.800592e-06	0.004449283	-0.007010778	-5.559107e-06	-5.326538e-07	0.0008943044	0.004157776
	0.0009529539	0.00409643	-5.559108e-06	-5.326538e-07	0.004609733	-0.00696623	-1.394217e-05	-6.367151e-06
	-7.471145e-05	1.789462e-05	0.0008943016	0.004157779	-1.394217e-05	-6.367151e-06	0.004462631	-0.007013893
1e+08	0.004956395	-0.008008722	-6.699779e-05	6.207166e-07	0.001153645	0.004528239	-7.905803e-05	1.136026e-05
	-6.699779e-05	6.207166e-07	0.004312925	-0.008021977	-5.904451e-06	3.121597e-07	0.001084563	0.004578765
	0.001153645	0.004528239	-5.904451e-06	3.121597e-07	0.004504817	-0.00800807	-1.522954e-05	-4.723801e-06
	-7.905803e-05	1.136026e-05	0.001084563	0.004578765	-1.522954e-05	-4.723801e-06	0.004328568	-0.008034467
1.1e+08	0.004782409	-0.009098531	-6.662058e-05	-1.907434e-06	0.001359762	0.004952209	-7.619705e-05	3.496821e-06
	-6.662058e-05	-1.907434e-06	0.004142671	-0.00904933	-5.652137e-06	1.019496e-06	0.001290601	0.004989565
	0.001359761	0.004952209	-5.652137e-06	1.019496e-06	0.004350624	-0.009063704	-1.515904e-05	-3.361423e-06
	-7.619705e-05	3.496821e-06	0.001290601	0.004989564	-1.515904e-05	-3.361423e-06	0.004156904	-0.009069452
1.2e+08	0.004550594	-0.0101745	-6.616127e-05	-3.32981e-06	0.001582701	0.005359362	-7.285274e-05	-1.181472e-06
	-6.616127e-05	-3.32981e-06	0.003909812	-0.01008368	-5.43841e-06	1.472388e-06	0.001512839	0.005390269
	0.001582701	0.005359362	-5.43841e-06	1.472388e-06	0.004135706	-0.01012069	-1.520057e-05	-2.558682e-06
	-7.285274e-05	-1.181472e-06	0.001512839	0.005390269	-1.520057e-05	-2.558682e-06	0.003922367	-0.01011021
1.3e+08	0.00426304	-0.01124033	-6.574579e-05	-4.323777e-06	0.001822585	0.005752704	-6.943088e-05	-4.802169e-06
	-6.574579e-05	-4.323777e-06	0.00361864	-0.01111481	-5.237428e-06	1.832393e-06	0.001750812	0.00577997
	0.001822584	0.005752704	-5.237428e-06	1.832393e-06	0.003863543	-0.01117345	-1.529386e-05	-1.932881e-06
	-6.943088e-05	-4.802169e-06	0.001750812	0.00577997	-1.529386e-05	-1.932881e-06	0.003629047	-0.01114738
1.4e+08	0.003921922	-0.01229486	-6.538683e-05	-5.040426e-06	0.002078903	0.006132335	-6.598818e-05	-7.846284e-06
	-6.538683e-05	-5.040426e-06	0.003271766	-0.01213844	-5.163459e-06	1.740433e-06	0.002003983	0.006157902
	0.002078903	0.006132335	-5.163459e-06	1.740433e-06	0.003536607	-0.01221864	-1.542594e-05	-1.399018e-06
	-6.598818e-05	-7.846284e-06	0.002003983	0.006157902	-1.542594e-05	-1.399018e-06	0.003279516	-0.01217678
1.5e+08	0.00352905	-0.01333638	-6.508289e-05	-5.552777e-06	0.002351056	0.006497935	-6.254602e-05	-1.054763e-05
	-6.508289e-05	-5.552777e-06	0.002871206	-0.01315128	-5.090588e-06	1.674201e-06	0.002271777	0.006523366
	0.002351056	0.006497935	-5.090588e-06	1.674201e-06	0.003156873	-0.01325342	-1.558776e-05	-9.173505e-07
	-6.254602e-05	-1.054763e-05	0.002271777	0.006523366	-1.558776e-05	-9.173505e-07	0.002875795	-0.01319513
1.6e+08	0.003085981	-0.01436297	-6.48304e-05	-5.902879e-06	0.002638395	0.00684904	-5.911563e-05	-1.304572e-05
	-6.48304e-05	-5.902879e-06	0.002418662	-0.01415047	-5.017545e-06	1.631349e-06	0.002553587	0.006875708
	0.002638395	0.006849041	-5.017545e-06	1.631349e-06	0.00272602	-0.01427523	-1.577385e-05	-4.641155e-07
	-5.911563e-05	-1.304572e-05	0.002553587	0.006875708	-1.577385e-05	-4.641155e-07	0.002419609	-0.01419956
1.7e+08	0.002594128	-0.01537265	-6.462461e-05	-6.117895e-06	0.002940234	0.007185131	-5.57052e-05	-1.543347e-05
	-6.462461e-05	-6.117895e-06	0.001915671	-0.01513335	-4.944583e-06	1.606056e-06	0.002848781	0.007214316
	0.002940234	0.007185131	-4.944583e-06	1.606056e-06	0.002245555	-0.01528165	-1.597966e-05	-2.368109e-08
	-5.57052e-05	-1.543347e-05	0.002848781	0.007214316	-1.597966e-05	-2.368109e-08	0.001912522	-0.01518739
1.8e+08	0.002054823	-0.0163634	-6.446039e-05	-6.216536e-06	0.003255855	0.007505669	-5.232206e-05	-1.777699e-05
	-6.446039e-05	-6.216536e-06	0.001363689	-0.01609742	-4.871767e-06	1.594381e-06	0.003156704	0.007538606
	0.003255855	0.007505669	-4.871767e-06	1.594381e-06	0.001716885	-0.01627038	-1.620111e-05	4.148994e-07
	-5.232206e-05	-1.777699e-05	0.003156704	0.007538606	-1.620111e-05	4.148994e-07	0.001356018	-0.01615612
1.9e+08	0.001469377	-0.01733322	-6.433249e-05	-6.212355e-06	0.00358451	0.007810119	-4.897382e-05	-2.012556e-05
	-6.433249e-05	-6.212355e-06	0.0007641517	-0.01704029	-4.799073e-06	1.593506e-06	0.003476675	0.007848032
	0.00358451	0.007810119	-4.799073e-06	1.593506e-06	0.001141381	-0.01723918	-1.643435e-05	8.596376e-07
	-4.897382e-05	-2.012556e-05	0.003476676	0.007848032	-1.643435e-05	8.596376e-07	0.0007515603	-0.01710334
2e+08	0.0008391067	-0.01828014	-6.42357e-05	-6.115546e-06	0.003925419	0.008097961	-4.566857e-05	-2.251709e-05
	-6.42357e-05	-6.115546e-06	0.0001185048	-0.01795968	-4.726425e-06	1.601342e-06	0.003807994	0.008142075
	0.003925419	0.008097961	-4.726425e-06	1.601342e-06	0.0005204061	-0.01818594	-1.667571e-05	1.316538e-06
	-4.566857e-05	-2.251709e-05	0.003807994	0.008142075	-1.667571e-05	1.316538e-06	0.0001006189	-0.01802677
2.1e+08	0.0001653225	-0.01920227	-6.416494e-05	-5.93407e-06	0.00428301	0.008366271	-4.241514e-05	-2.498143e-05
	-6.416494e-05	-5.93407e-06	-0.0005717737	-0.01885341	-4.653353e-06	1.616291e-06	0.004149935	0.008420249
	0.00428301	0.008366271	-4.653353e-06	1.616291e-06	-0.000144696	-0.01910862	-1.691907e-05	1.792711e-06
	-4.241514e-05	-2.498143e-05	0.004149935	0.008420249	-1.691907e-05	1.792711e-06	-0.000595305	-0.0189242
2.2e+08	-0.0005506072	-0.02009775	-6.411526e-05	-5.674305e-06	0.004657056	0.008613894	-3.922313e-05	-2.75423e-05
	-6.411526e-05	-5.674305e-06	-0.001305164	-0.01971938	-4.579694e-06	1.637097e-06	0.004501753	0.008682101
	0.004657056	0.008613894	-4.579694e-06	1.637097e-06	-0.0008525287	-0.02000527	-1.715999e-05	2.292161e-06
	-3.922313e-05	-2.75423e-05	0.004501753	0.008682101	-1.715999e-05	2.292161e-06	-0.001334669	-0.01979354
2.3e+08	-0.001307206	-0.02096469	-6.408182e-05	-5.341497e-06	0.005040348	0.008843213	-3.610282e-05	-3.021869e-05
	-6.408182e-05	-5.341497e-06	-0.002080094	-0.02055561	-4.505786e-06	1.662759e-06	0.004862682	0.008927212
	0.005040348	0.008843213	-4.505786e-06	1.662759e-06	-0.001601594	-0.0208739	-1.739776e-05	2.81445e-06
	-3.610282e-05	-3.021869e-05	0.004862682	0.008927212	-1.739776e-05	2.81445e-06	-0.002115883	-0.02063279
2.4e+08	-0.002102993	-0.02180134	-6.406003e-05	-4.940152e-06	0.005432034	0.009053837	-3.306538e-05	-3.302579e-05
	-6.406003e-05	-4.940152e-06	-0.002894944	-0.02136019	-4.431523e-06	1.692458e-06	0.00523194	0.009155195
	0.005432034	0.009053837	-4.431523e-06	1.692458e-06	-0.002390394	-0.0217127	-1.762894e-05	3.361461e-06
	-3.306538e-05	-3.302579e-05	0.00523194	0.009155195	-1.762894e-05	3.361461e-06	-0.002937309	-0.02144003
2.5e+08	-0.002936434	-0.02260603	-6.404535e-05	-4.474209e-06	0.005831234	0.009245418	-3.012231e-05	-3.597564e-05
	-6.404535e-05	-4.474209e-06	-0.003748043	-0.02213134	-4.356792e-06	1.725522e-06	0.005608725	0.0093657
	0.005831234	0.009245418	-4.356792e-06	1.725522e-06	-0.003217382	-0.02251992	-1.785014e-05	3.93446e-06
	-3.012231e-05	-3.597564e-05	0.005608725	0.0093657	-1.785014e-05	3.93446e-06	-0.003797254	-0.02221347
2.6e+08	-0.003805949	-0.02337715	-6.403341e-05	-3.94723e-06	0.006237053	0.009417641	-2.728574e-05	-3.907754e-05
	-6.403341e-05	-3.94723e-06	-0.00463767	-0.02286735	-4.28148e-06	1.761379e-06	0.00599222	0.009558415
	0.006237053	0.009417641	-4.28148e-06	1.761379e-06	-0.004080964	-0.02329391	-1.805804e-05	4.534221e-06
	-2.728574e-05	-3.907754e-05	0.00599222	0.009558415	-1.805804e-05	4.534221e-06	-0.004693979	-0.0229514
2.7e+08	-0.004709908	-0.0241132	-6.401996e-05	-3.362497e-06	0.006648581	0.009570236	-2.456787e-05	-4.233855e-05
	-6.401996e-05	-3.362497e-06	-0.005562051	-0.02356661	-4.205489e-06	1.799551e-06	0.006381596	0.009733063
	0.006648581	0.009570236	-4.205489e-06	1.799551e-06	-0.004979497	-0.02403308	-1.824939e-05	5.161048e-06
	-2.456787e-05	-4.233855e-05	0.006381596	0.009733063	-1.824939e-05	5.161048e-06	-0.005625692	-0.02365219
2.8e+08	-0.005646635	-0.02481271	-6.400101e-05	-2.723116e-06	0.007064893	0.009702969	-2.198164e-05	-4.576352e-05
	-6.400101e-05	-2.723116e-06	-0.006519373	-0.02422763	-4.128728e-06	1.839619e-06	0.006776009	0.009889405
	0.007064893	0.009702969	-4.128728e-06	1.839619e-06	-0.005911295	-0.02473595	-1.842105e-05	5.814875e-06
	-2.198164e-05	-4.576352e-05	0.006776009	0.009889405	-1.842105e-05	5.814875e-06	-0.006590561	-0.02431432
2.9e+08	-0.006614416	-0.02547435	-6.397266e-05	-2.032079e-06	0.007485057	0.009815652	-1.954008e-05	-4.935539e-05
	-6.397266e-05	-2.032079e-06	-0.007507778	-0.02484898	-4.051109e-06	1.881216e-06	0.007174607	0.01002724
	0.007485057	0.009815652	-4.051109e-06	1.881216e-06	-0.006874632	-0.02540112	-1.856994e-05	6.495268e-06
	-1.954008e-05	-4.935539e-05	0.007174607	0.01002724	-1.856994e-05	6.495268e-06	-0.007586708	-0.02493639
3e+08	-0.007611494	-0.02609685	-6.393112e-05	-1.292335e-06	0.007908127	0.009908137	-1.725613e-05	-5.311555e-05
	-6.393112e-05	-1.292335e-06	-0.008525367	-0.02542936	-3.97254e-06	1.924019e-06	0.007576529	0.01014642
	0.007908127	0.009908137	-3.97254e-06	1.924019e-06	-0.007867736	-0.02602727	-1.869311e-05	7.201454e-06
	-1.725613e-05	-5.311555e-05	0.007576529	0.01014642	-1.869311e-05	7.201454e-06	-0.008612215	-0.02551707
3.1e+08	-0.00863608	-0.02667901	-6.387288e-05	-5.067866e-07	0.008333155	0.00998032	-1.514327e-05	-5.70435e-05
	-6.387288e-05	-5.067866e-07	-0.009570211	-0.02596755	-3.892948e-06	1.967734e-06	0.007980907	0.0102468
	0.008333155	0.00998032	-3.892948e-06	1.967734e-06	-0.008888804	-0.02661317	-1.878773e-05	7.932381e-06
	-1.514327e-05	-5.70435e-05	0.007980907	0.0102468	-1.878773e-05	7.932381e-06	-0.009665131	-0.02605512
3.2e+08	-0.009686345	-0.02721973	-6.379453e-05	3.216475e-07	0.008759186	0.01003214	-1.321465e-05	-6.113737e-05
	-6.379453e-05	3.216475e-07	-0.01064034	-0.02646242	-3.81226e-06	2.012097e-06	0.008386869	0.01032832
	0.008759186	0.01003214	-3.81226e-06	2.012097e-06	-0.009935994	-0.02715768	-1.885108e-05	8.686711e-06
	-1.321465e-05	-6.113737e-05	0.008386869	0.01032832	-1.885108e-05	8.686711e-06	-0.01074347	-0.02654942
3.3e+08	-0.01076043	-0.02771799	-6.369279e-05	1.19e-06	0.009185264	0.01006358	-1.148311e-05	-6.539403e-05
	-6.369279e-05	1.19e-06	-0.01173377	-0.02691295	-3.730401e-06	2.056864e-06	0.00879354	0.01039094
	0.009185264	0.01006358	-3.730401e-06	2.056864e-06	-0.01100743	-0.02765974	-1.88806e-05	9.462838e-06
	-1.148311e-05	-6.539403e-05	0.00879354	0.01039094	-1.88806e-05	9.462838e-06	-0.01184521	-0.02699893
3.4e+08	-0.01185646	-0.02817286	-6.356467e-05	2.095292e-06	0.009610433	0.01007467	-9.961794e-06	-6.980879e-05
	-6.356467e-05	2.095292e-06	-0.01284846	-0.02731819	-3.647315e-06	2.10181e-06	0.009200044	0.01043464
	0.009610433	0.01007467	-3.647315e-06	2.10181e-06	-0.01210122	-0.0281184	-1.887389e-05	1.025894e-05
	-9.961794e-06	-6.980879e-05	0.009200044	0.01043464	-1.887389e-05	1.025894e-05	-0.01296832	-0.02740272
3.5e+08	-0.01297253	-0.02858349	-6.340727e-05	3.034471e-06	0.01003374	0.01006548	-8.663216e-06	-7.437587e-05
	-6.340727e-05	3.034471e-06	-0.01398239	-0.02767732	-3.562944e-06	2.146723e-06	0.009605506	0.01045948
	0.01003374	0.01006548	-3.562944e-06	2.146723e-06	-0.01321544	-0.02853276	-1.882871e-05	1.107298e-05
	-8.663216e-06	-7.437587e-05	0.009605506	0.01045948	-1.882871e-05	1.107298e-05	-0.01411072	-0.02775993
3.6e+08	-0.0141067	-0.02894912	-6.321795e-05	4.004447e-06	0.01045423	0.01003612	-7.599895e-06	-7.908809e-05
	-6.321795e-05	4.004447e-06	-0.01513348	-0.02798959	-3.477241e-06	2.191403e-06	0.01000906	0.01046553
	0.01045423	0.01003612	-3.477241e-06	2.191403e-06	-0.01434813	-0.02890203	-1.874297e-05	1.190271e-05
	-7.599895e-06	-7.908809e-05	0.01000906	0.01046553	-1.874297e-05	1.190271e-05	-0.01527033	-0.02806982
3.7e+08	-0.01525703	-0.02926907	-6.299424e-05	5.002058e-06	0.01087096	0.009986754	-6.783807e-06	-8.393724e-05
	-6.299424e-05	5.002058e-06	-0.01629966	-0.02825434	-3.390162e-06	2.235659e-06	0.01040982	0.01045292
	0.01087096	0.009986754	-3.390162e-06	2.235659e-06	-0.01549733	-0.02922551	-1.86148e-05	1.274572e-05
	-6.783807e-06	-8.393724e-05	0.01040982	0.01045292	-1.86148e-05	1.274572e-05	-0.01644504	-0.02833173
3.8e+08	-0.01642156	-0.02954274	-6.273387e-05	6.024078e-06	0.011283	0.009917586	-6.226432e-06	-8.891411e-05
	-6.273387e-05	6.024078e-06	-0.01747884	-0.02847101	-3.301672e-06	2.27931e-06	0.01080695	0.01042179
	0.011283	0.009917586	-3.301672e-06	2.27931e-06	-0.01666106	-0.02950258	-1.84425e-05	1.359943e-05
	-6.226432e-06	-8.891411e-05	0.01080695	0.01042179	-1.84425e-05	1.359943e-05	-0.01763275	-0.02854509
3.9e+08	-0.0175983	-0.02976962	-6.243477e-05	7.067229e-06	0.01168942	0.009828858	-5.938839e-06	-9.400836e-05
	-6.243477e-05	7.067229e-06	-0.0186689	-0.02863914	-3.211741e-06	2.322179e-06	0.01119959	0.01037236
	0.01168942	0.009828858	-3.211741e-06	2.322179e-06	-0.01783731	-0.02973269	-1.822458e-05	1.44611e-05
	-5.938839e-06	-9.400836e-05	0.01119959	0.01037236	-1.822458e-05	1.44611e-05	-0.01883131	-0.02870944
4e+08	-0.01878529	-0.02994929	-6.20951e-05	8.128161e-06	0.01208931	0.009720859	-5.93128e-06	-9.920892e-05
	-6.20951e-05	8.128161e-06	-0.01986774	-0.02875834	-3.120345e-06	2.364095e-06	0.01158689	0.01030485
	0.01208931	0.009720859	-3.120345e-06	2.364095e-06	-0.01902409	-0.02991542	-1.795976e-05	1.532788e-05
	-5.93128e-06	-9.920892e-05	0.01158689	0.01030485	-1.795976e-05	1.532788e-05	-0.0200386	-0.0288244
4.1e+08	-0.01998051	-0.0300814	-6.171321e-05	9.203492e-06	0.01248176	0.009593919	-6.21353e-06	-0.0001045038
	-6.171321e-05	9.203492e-06	-0.02107324	-0.02882833	-3.02747e-06	2.404893e-06	0.01196803	0.01021955
	0.01248176	0.009593919	-3.02747e-06	2.404893e-06	-0.02021938	-0.03005038	-1.764696e-05	1.61968e-05
	-6.21353e-06	-0.0001045038	0.01196803	0.01021955	-1.764696e-05	1.61968e-05	-0.02125249	-0.02888969
4.2e+08	-0.02118199	-0.03016568	-6.128771e-05	1.02898e-05	0.0128659	0.009448409	-6.794849e-06	-0.0001098798
	-6.128771e-05	1.02898e-05	-0.0222833	-0.02884892	-2.93311e-06	2.444412e-06	0.01234219	0.01011677
	0.0128659	0.009448409	-2.93311e-06	2.444412e-06	-0.02142115	-0.0301373	-1.728534e-05	1.70648e-05
	-6.794849e-06	-0.0001098798	0.01234219	0.01011677	-1.728534e-05	1.70648e-05	-0.02247082	-0.0289051
4.3e+08	-0.02238771	-0.03020196	-6.081742e-05	1.138364e-05	0.01324086	0.009284739	-7.683647e-06	-0.0001153232
	-6.081742e-05	1.138364e-05	-0.0234958	-0.02881999	-2.837264e-06	2.482494e-06	0.01270857	0.009996851
	0.01324086	0.009284739	-2.837264e-06	2.482494e-06	-0.0226274	-0.03017598	-1.687426e-05	1.792876e-05
	-7.683647e-06	-0.0001153232	0.01270857	0.009996851	-1.687426e-05	1.792876e-05	-0.02369147	-0.02887055
4.4e+08	-0.0235957	-0.03019014	-6.030135e-05	1.248151e-05	0.0136058	0.00910336	-8.887325e-06	-0.0001208199
	-6.030135e-05	1.248151e-05	-0.02470863	-0.02874154	-2.73994e-06	2.518983e-06	0.0130664	0.00986019
	0.0136058	0.00910336	-2.73994e-06	2.518983e-06	-0.0238361	-0.03016633	-1.641333e-05	1.878545e-05
	-8.887325e-06	-0.0001208199	0.0130664	0.00986019	-1.641333e-05	1.878545e-05	-0.02491231	-0.02878602
4.5e+08	-0.02480395	-0.03013021	-5.973901e-05	1.35799e-05	0.01395989	0.008904763	-1.039824e-05	-0.0001263744
	-5.973901e-05	1.35799e-05	-0.02591969	-0.02861362	-2.641153e-06	2.553731e-06	0.0134149	0.009707205
	0.01395989	0.008904763	-2.641153e-06	2.553731e-06	-0.02504523	-0.0301083	-1.590263e-05	1.963165e-05
	-1.039824e-05	-0.0001263744	0.0134149	0.009707205	-1.590263e-05	1.963165e-05	-0.02613121	-0.02865157
4.6e+08	-0.0260105	-0.03002224	-5.909653e-05	1.467628e-05	0.01430234	0.008689473	-1.414728e-05	-0.0001292477
	-5.909653e-05	1.467628e-05	-0.0271269	-0.0284364	-2.541062e-06	2.586278e-06	0.01375333	0.009538353
	0.01430234	0.008689473	-2.541062e-06	2.586278e-06	-0.0262528	-0.03000195	-1.530806e-05	2.046347e-05
	-1.414728e-05	-0.0001292477	0.01375333	0.009538353	-1.530806e-05	2.046347e-05	-0.02734608	-0.02846739
4.7e+08	-0.02721336	-0.02986635	-5.840239e-05	1.576408e-05	0.01463237	0.008458053	-1.829684e-05	-0.000131781
