!$
! Info: Touchstone file created by Circ.  Input file=Tx_2in_Rx_85ohms_TxVia_10mils_RxVia_20mils.circ
!$
# Hz S RI R 50
0	0.001739044	2.445147e-26	0.9981299	-2.05992e-26	2.257392e-05	1.729809e-24	-2.100367e-05	1.233155e-21
	0.9981298	-2.08593e-26	0.001738656	2.856536e-26	-2.087246e-05	1.217126e-21	2.199965e-05	2.400289e-24
	2.484781e-05	1.733942e-24	-2.082021e-05	1.210738e-21	0.001731901	2.127332e-26	0.9980997	-1.797453e-26
	-2.141563e-05	1.283615e-21	2.345845e-05	2.470477e-24	0.9980997	-1.897303e-26	0.001744322	2.730372e-26
1e+07	0.002391665	-0.001653684	0.9972148	-0.0233135	4.685623e-05	0.0004844906	-3.377779e-05	-2.960692e-05
	0.9972148	-0.0233135	0.002390161	-0.001653887	-3.380158e-05	-2.958414e-05	4.616163e-05	0.000484621
	4.690393e-05	0.000484464	-3.376243e-05	-2.960397e-05	0.002400918	-0.001650628	0.9972041	-0.02340885
	-3.373863e-05	-2.962676e-05	4.619364e-05	0.0004846095	0.9972041	-0.02340885	0.00239943	-0.001650853
2e+07	0.002911318	-0.003867129	0.9956815	-0.04597387	8.970942e-05	0.0009560401	-4.013555e-05	-4.895271e-05
	0.9956815	-0.04597387	0.002905334	-0.003867427	-4.013053e-05	-4.892661e-05	8.695361e-05	0.0009564676
	8.97012e-05	0.0009560153	-4.012884e-05	-4.89553e-05	0.002921074	-0.003859442	0.995661	-0.04616554
	-4.012399e-05	-4.898758e-05	8.695043e-05	0.0009564467	0.995661	-0.04616554	0.002915249	-0.00385975
3e+07	0.003156639	-0.006355521	0.9938083	-0.06829489	0.0001522681	0.001422097	-4.332225e-05	-6.627797e-05
	0.9938083	-0.06829489	0.003143101	-0.006355563	-4.33307e-05	-6.627274e-05	0.0001461495	0.001423031
	0.0001522686	0.001422093	-4.333284e-05	-6.627721e-05	0.003167237	-0.006343094	0.9937746	-0.06857956
	-4.33236e-05	-6.628449e-05	0.0001461444	0.001423028	0.9937746	-0.06857956	0.003154141	-0.006343092
4e+07	0.003204117	-0.008936528	0.9915182	-0.09045234	0.0002352041	0.001882874	-4.407931e-05	-8.262959e-05
	0.9915182	-0.09045234	0.00317997	-0.008935731	-4.409921e-05	-8.261825e-05	0.0002244277	0.001884628
	0.0002352082	0.00188287	-4.409641e-05	-8.261692e-05	0.003216066	-0.008921103	0.9914678	-0.0908296
	-4.407625e-05	-8.262453e-05	0.0002244273	0.001884629	0.9914678	-0.0908296	0.003192733	-0.008920337
5e+07	0.003082478	-0.01156471	0.9887856	-0.1124787	0.0003383723	0.002337783	-4.243319e-05	-9.887013e-05
	0.9887856	-0.1124787	0.003044715	-0.01156226	-4.245003e-05	-9.88599e-05	0.0003216823	0.002340759
	0.0003383735	0.00233778	-4.244842e-05	-9.885952e-05	0.003094761	-0.01154712	0.9887141	-0.1129478
	-4.243068e-05	-9.886749e-05	0.0003216818	0.00234076	0.9887141	-0.1129478	0.003058179	-0.01154474
6e+07	0.00280619	-0.01421642	0.9855994	-0.134384	0.0004615174	0.00278614	-3.866904e-05	-0.0001156354
	0.9855994	-0.134384	0.002751877	-0.01421129	-3.868777e-05	-0.0001156394	0.0004376985	0.002790823
	0.0004615174	0.002786141	-3.869112e-05	-0.0001156393	0.002818164	-0.01419668	0.9855024	-0.1349438
	-3.867408e-05	-0.0001156377	0.0004376956	0.002790824	0.9855024	-0.1349438	0.002765534	-0.01419161
7e+07	0.002384112	-0.01687602	0.9819539	-0.1561698	0.0006043419	0.003227186	-3.302587e-05	-0.0001332726
	0.9819539	-0.1561698	0.0023104	-0.01686699	-3.305799e-05	-0.0001332914	0.0005722191	0.003234133
	0.0006043429	0.00322719	-3.306593e-05	-0.0001332898	0.002395569	-0.01685424	0.9818275	-0.1568188
	-3.303985e-05	-0.0001332772	0.0005722144	0.003234136	0.9818275	-0.1568188	0.002324206	-0.01684532
8e+07	0.00182244	-0.01953176	0.9778465	-0.1778331	0.0007664913	0.003660145	-2.560249e-05	-0.0001520711
	0.9778465	-0.1778331	0.001726558	-0.01951746	-2.565234e-05	-0.0001520942	0.0007249244	0.003669981
	0.0007664936	0.003660149	-2.56619e-05	-0.0001520908	0.001833163	-0.01950839	0.9776868	-0.1785699
	-2.562103e-05	-0.0001520748	0.0007249197	0.003669985	0.9776868	-0.1785699	0.00174034	-0.0194944
9e+07	0.001125916	-0.02217421	0.9732762	-0.199368	0.0009475653	0.004084317	-1.64342e-05	-0.0001724461
	0.9732762	-0.199368	0.001005171	-0.02215307	-1.64945e-05	-0.0001724606	0.0008954442	0.004097741
	0.0009475677	0.00408432	-1.650147e-05	-0.0001724572	0.001135428	-0.02214986	0.9730798	-0.2001912
	-1.644885e-05	-0.0001724478	0.0008954415	0.004097745	0.9730798	-0.2001912	0.00101835	-0.02212933
1e+08	0.000298286	-0.02479608	0.9682439	-0.2207668	0.001147266	0.004499696	-5.7116e-06	-0.0001955618
	0.9682439	-0.2207668	0.0001500606	-0.02476637	-5.764706e-06	-0.000195558	0.001083512	0.004517482
	0.001147266	0.004499696	-5.764464e-06	-0.0001955582	0.0003057994	-0.02477138	0.9680071	-0.2216749
	-5.711358e-06	-0.0001955619	0.001083513	0.004517482	0.9680071	-0.2216749	0.0001616581	-0.02474256
1.1e+08	-0.0006593778	-0.02739523	0.9627562	-0.2420235	0.001368052	0.004903589	3.075085e-06	-0.0002197376
	0.9627562	-0.2420235	-0.0008381947	-0.02735429	2.987868e-06	-0.0002197572	0.001291102	0.004926065
	0.001368052	0.004903589	2.988038e-06	-0.0002197574	-0.0006542166	-0.02736852	0.9624745	-0.2430155
	3.075255e-06	-0.0002197378	0.001291102	0.004926065	0.9624745	-0.2430155	-0.0008285566	-0.02732918
1.2e+08	-0.001742812	-0.02995269	0.9568097	-0.2631316	0.00160565	0.005294116	1.347621e-05	-0.0002446581
	0.9568097	-0.2631316	-0.001954167	-0.02989853	1.335654e-05	-0.0002446815	0.001514706	0.0053226
	0.00160565	0.005294116	1.335666e-05	-0.0002446817	-0.001740604	-0.0299243	0.9564793	-0.2642052
	1.347633e-05	-0.0002446583	0.001514706	0.0053226	0.9564793	-0.2642052	-0.001946965	-0.02987215
1.3e+08	-0.002947344	-0.03246388	0.9504072	-0.2840811	0.001859588	0.005671481	2.50505e-05	-0.0002714355
	0.9504072	-0.2840811	-0.003193209	-0.0323944	2.490357e-05	-0.0002714515	0.001753921	0.005707147
	0.001859588	0.005671481	2.490365e-05	-0.0002714516	-0.002948815	-0.03243393	0.9500248	-0.2852341
	2.505058e-05	-0.0002714356	0.001753921	0.005707147	0.9500248	-0.2852341	-0.003188983	-0.03236671
1.4e+08	-0.004268821	-0.03492378	0.9435519	-0.3048629	0.002129262	0.00603517	3.748459e-05	-0.0003004388
	0.9435519	-0.3048629	-0.00455115	-0.03483676	3.731593e-05	-0.0003004423	0.002008177	0.006079133
	0.002129262	0.00603517	3.731599e-05	-0.0003004424	-0.004274708	-0.03489216	0.9431142	-0.3060932
	3.748465e-05	-0.0003004389	0.002008177	0.006079133	0.9431142	-0.3060932	-0.004550442	-0.03480763
1.5e+08	-0.005703449	-0.03732751	0.9362475	-0.3254678	0.002414022	0.006384579	5.04866e-05	-0.0003319152
	0.9362475	-0.3254678	-0.006024138	-0.03722055	5.03006e-05	-0.0003319046	0.002276843	0.006437942
	0.002414022	0.006384579	5.030064e-05	-0.0003319047	-0.005714446	-0.03729396	0.9357512	-0.3267733
	5.048664e-05	-0.0003319153	0.002276843	0.006437942	0.9357512	-0.3267733	-0.006027469	-0.03718976
1.6e+08	-0.007247612	-0.03967032	0.9284979	-0.3458864	0.002713173	0.006719083	6.376831e-05	-0.0003660549
	0.9284979	-0.3458864	-0.007608463	-0.03954088	6.356774e-05	-0.0003660308	0.002559255	0.006782966
	0.002713173	0.006719083	6.356777e-05	-0.0003660309	-0.007264349	-0.03963448	0.9279397	-0.347265
	6.376834e-05	-0.000366055	0.002559255	0.006782967	0.9279397	-0.347265	-0.00761632	-0.03950813
1.7e+08	-0.008897759	-0.0419476	0.9203075	-0.3661097	0.003025983	0.007038063	7.703847e-05	-0.0004030105
	0.9203075	-0.3661097	-0.009300451	-0.04179298	7.682449e-05	-0.0004029745	0.002854718	0.007113626
	0.003025983	0.007038063	7.682451e-05	-0.0004029746	-0.008920789	-0.04190902	0.9196841	-0.3675592
	7.703849e-05	-0.0004030106	0.002854718	0.007113626	0.9196841	-0.3675592	-0.00931328	-0.04175795
1.8e+08	-0.01065032	-0.0441549	0.9116808	-0.3861285	0.003351683	0.007340923	9.00002e-05	-0.000442904
	0.9116808	-0.3861285	-0.01109639	-0.04397223	8.977257e-05	-0.0004428578	0.003162511	0.007429368
	0.003351683	0.007340923	8.977259e-05	-0.0004428579	-0.01068013	-0.04411306	0.910989	-0.3876466
	9.000021e-05	-0.000442904	0.003162511	0.007429368	0.910989	-0.3876466	-0.0111146	-0.04393453
1.9e+08	-0.01250166	-0.04628786	0.9026228	-0.4059335	0.003689473	0.007627093	0.0001023502	-0.0004858288
	0.9026228	-0.4059335	-0.01299249	-0.04607417	0.0001021076	-0.0004857741	0.003481888	0.00772967
	0.003689473	0.007627093	0.0001021076	-0.0004857742	-0.01253867	-0.04624224	0.9018594	-0.4075179
	0.0001023502	-0.0004858289	0.003481888	0.00772967	0.9018594	-0.4075179	-0.01301643	-0.04603338
2e+08	-0.01444806	-0.04834234	0.8931385	-0.4255159	0.004038517	0.007896041	0.0001137792	-0.0005318514
	0.8931385	-0.4255159	-0.01498483	-0.0480945	0.0001135196	-0.0005317892	0.003812082	0.008014047
	0.004038517	0.007896041	0.0001135196	-0.0005317893	-0.01449263	-0.04829237	0.8923004	-0.4271641
	0.0001137792	-0.0005318514	0.003812082	0.008014047	0.8923004	-0.4271641	-0.01501484	-0.04805019
2.1e+08	-0.01648567	-0.05031432	0.8832334	-0.4448666	0.004397956	0.008147272	0.0001239731	-0.000581011
	0.8832334	-0.4448666	-0.01706939	-0.05002911	0.000123694	-0.0005809419	0.004152303	0.008282045
	0.004397956	0.008147272	0.000123694	-0.0005809419	-0.01653811	-0.05025944	0.8823174	-0.446576
	0.0001239731	-0.000581011	0.004152303	0.008282045	0.8823174	-0.446576	-0.01710577	-0.04998082
2.2e+08	-0.01861053	-0.05219998	0.8729131	-0.4639768	0.004766902	0.008380332	0.0001326143	-0.0006333201
	0.8729131	-0.4639768	-0.01924202	-0.05187408	0.000132313	-0.000633244	0.004501743	0.00853325
	0.004766902	0.008380332	0.000132313	-0.000633244	-0.01867112	-0.05213959	0.8719163	-0.4657446
	0.0001326143	-0.0006333201	0.004501743	0.00853325	0.8719163	-0.4657446	-0.01928501	-0.05182134
2.3e+08	-0.02081856	-0.05399568	0.8621835	-0.4828378	0.005144448	0.008594811	0.0001393838	-0.0006887645
	0.8621835	-0.4828378	-0.02149842	-0.0536257	0.0001390574	-0.0006886808	0.004859574	0.008767285
	0.005144448	0.008594811	0.0001390574	-0.0006886808	-0.02088752	-0.05392919	0.861103	-0.4846613
	0.0001393838	-0.0006887646	0.004859574	0.008767285	0.861103	-0.4846613	-0.02154825	-0.053568
2.4e+08	-0.02310556	-0.05569797	0.8510507	-0.501441	0.005529667	0.008790345	0.0001439624	-0.0007473035
	0.8510507	-0.501441	-0.0238342	-0.05528045	0.000143608	-0.000747211	0.005224955	0.008983813
	0.005529667	0.008790344	0.000143608	-0.000747211	-0.02318308	-0.05562477	0.8498836	-0.5033172
	0.0001439624	-0.0007473035	0.005224955	0.008983813	0.8498836	-0.5033172	-0.02389106	-0.05521728
2.5e+08	-0.02546722	-0.05730361	0.839521	-0.5197779	0.005921614	0.008966613	0.0001460328	-0.0008088698
	0.839521	-0.5197779	-0.02624483	-0.05683503	0.0001456477	-0.000808767	0.005597027	0.009182538
	0.005921614	0.008966613	0.0001456477	-0.000808767	-0.02555345	-0.05722309	0.8382646	-0.5217039
	0.0001460328	-0.0008088698	0.005597027	0.009182538	0.8382646	-0.5217039	-0.02630887	-0.05676587
2.6e+08	-0.02789912	-0.05880955	0.827601	-0.5378403	0.006319333	0.009123345	0.0001452816	-0.0008733705
	0.827601	-0.5378403	-0.02872568	-0.05828636	0.0001448632	-0.0008732555	0.005974923	0.009363206
	0.006319333	0.009123345	0.0001448632	-0.0008732555	-0.02799419	-0.05872109	0.8262526	-0.5398129
	0.0001452816	-0.0008733705	0.005974923	0.009363206	0.8262526	-0.5398129	-0.02879701	-0.05821068
2.7e+08	-0.03039674	-0.06021296	0.8152973	-0.55562	0.006721855	0.009260317	0.0001414008	-0.0009406869
	0.8152973	-0.55562	-0.031272	-0.05963159	0.0001409468	-0.0009405575	0.006357765	0.009525602
	0.006721855	0.009260316	0.0001409468	-0.0009405575	-0.03050072	-0.06011593	0.8138544	-0.5576361
	0.0001414008	-0.0009406869	0.006357765	0.009525602	0.8138544	-0.5576361	-0.03135073	-0.05954884
2.8e+08	-0.03295546	-0.06151123	0.802617	-0.5731091	0.007128206	0.009377352	0.00013409	-0.001010676
	0.802617	-0.5731091	-0.03387898	-0.06086808	0.0001335981	-0.001010529	0.006744667	0.009669557
	0.007128206	0.009377352	0.0001335981	-0.001010529	-0.03306841	-0.06140499	0.801077	-0.5751654
	0.00013409	-0.001010676	0.006744667	0.009669557	0.801077	-0.5751654	-0.03396516	-0.06077771
2.9e+08	-0.0355706	-0.06270194	0.7895671	-0.5902999	0.007537404	0.009474325	0.0001230576	-0.00108317
	0.7895671	-0.5902999	-0.03654169	-0.06199343	0.0001225259	-0.001083004	0.007134739	0.009794944
	0.007537404	0.009474325	0.0001225259	-0.001083004	-0.03569252	-0.06258584	0.7879278	-0.5923929
	0.0001230576	-0.00108317	0.007134739	0.009794944	0.7879278	-0.5923929	-0.03663535	-0.06189487
3e+08	-0.03823737	-0.06378292	0.7761549	-0.6071847	0.007948465	0.009551155	0.000108023	-0.001157977
	0.7761549	-0.6071847	-0.03925517	-0.06300546	0.0001074496	-0.001157789	0.007527089	0.009901679
	0.007948465	0.009551155	0.0001074496	-0.001157789	-0.03836826	-0.06365631	0.7744139	-0.609311
	0.000108023	-0.001157977	0.007527089	0.009901679	0.7744139	-0.609311	-0.03935628	-0.06289814
3.1e+08	-0.04095095	-0.06475217	0.7623878	-0.6237562	0.008360404	0.009607812	8.871759e-05	-0.001234885
	0.7623878	-0.6237562	-0.04201435	-0.06390222	8.810107e-05	-0.001234671	0.007920822	0.00998972
	0.008360404	0.009607812	8.810107e-05	-0.001234671	-0.04109075	-0.06461439	0.760543	-0.6259123
	8.87176e-05	-0.001234885	0.007920822	0.00998972	0.760543	-0.6259123	-0.04212288	-0.06378557
3.2e+08	-0.04370645	-0.06560795	0.7482734	-0.6400072	0.008772241	0.009644313	6.488708e-05	-0.001313659
	0.7482734	-0.6400072	-0.04481414	-0.06468198	6.422594e-05	-0.001313416	0.008315047	0.01005907
	0.008772241	0.009644313	6.422594e-05	-0.001313416	-0.04385506	-0.06545835	0.7463229	-0.6421894
	6.488708e-05	-0.001313659	0.008315047	0.01005907	0.7463229	-0.6421894	-0.04493	-0.06455544
3.3e+08	-0.04649893	-0.06634873	0.7338195	-0.6559306	0.009182998	0.009660723	3.629213e-05	-0.001394043
	0.7338195	-0.6559306	-0.04764938	-0.06534327	3.558513e-05	-0.001393768	0.008708875	0.01010977
	0.009182998	0.009660723	3.558514e-05	-0.001393768	-0.04665621	-0.06618664	0.7317612	-0.6581354
	3.629213e-05	-0.001394043	0.008708875	0.01010977	0.7317612	-0.6581354	-0.04777247	-0.06520624
3.4e+08	-0.0493234	-0.06697318	0.7190339	-0.6715198	0.009591705	0.009657153	2.710337e-06	-0.001475762
	0.7190339	-0.6715198	-0.0505149	-0.06588481	1.956424e-06	-0.001475452	0.009101425	0.01014191
	0.009591705	0.009657153	1.956427e-06	-0.001475452	-0.0494892	-0.06679794	0.7168661	-0.6737433
	2.71034e-06	-0.001475762	0.009101425	0.01014191	0.7168661	-0.6737433	-0.05064505	-0.06573674
3.5e+08	-0.05217487	-0.06748019	0.7039246	-0.6867681	0.009997401	0.009633763	-3.606289e-05	-0.001558523
	0.7039246	-0.6867681	-0.05340547	-0.06630558	-3.686463e-05	-0.001558174	0.009491824	0.01015562
	0.009997401	0.009633763	-3.686463e-05	-0.001558174	-0.05234897	-0.06729115	0.7016457	-0.6890065
	-3.606289e-05	-0.001558523	0.009491824	0.01015562	0.7016457	-0.6890065	-0.05354252	-0.06614589
3.6e+08	-0.05504831	-0.0678689	0.6884999	-0.7016692	0.01039914	0.009590754	-8.02129e-05	-0.001642018
	0.6884999	-0.7016692	-0.05631588	-0.06660478	-8.106319e-05	-0.001641627	0.009879206	0.01015107
	0.01039914	0.009590754	-8.106319e-05	-0.001641627	-0.05523046	-0.0676654	0.6861082	-0.7039187
	-8.02129e-05	-0.001642018	0.009879206	0.01015107	0.6861082	-0.7039187	-0.05645959	-0.06643289
3.7e+08	-0.05793867	-0.06813863	0.6727678	-0.7162169	0.01079598	0.009528377	-0.0001299048	-0.001725922
	0.6727678	-0.7162169	-0.05924087	-0.06678181	-0.0001308042	-0.001725483	0.01026272	0.01012845
	0.01079598	0.009528377	-0.0001308042	-0.001725483	-0.05812859	-0.06792002	0.6702619	-0.7184735
	-0.0001299048	-0.001725922	0.01026272	0.01012845	0.6702619	-0.7184735	-0.059391	-0.06659719
3.8e+08	-0.06084092	-0.06828893	0.6567369	-0.7304053	0.01118701	0.009446922	-0.0001852822	-0.001809894
	0.6567369	-0.7304053	-0.06217523	-0.06683635	-0.0001862311	-0.001809406	0.01064153	0.01008804
	0.01118701	0.009446922	-0.0001862311	-0.001809406	-0.06103828	-0.06805457	0.6541154	-0.7326651
	-0.0001852822	-0.001809894	0.01064153	0.01008804	0.6541154	-0.7326651	-0.06233148	-0.06663843
3.9e+08	-0.06375001	-0.06831955	0.6404155	-0.7442286	0.01157132	0.009346725	-0.0002464668	-0.001893585
	0.6404155	-0.7442286	-0.06511372	-0.06676825	-0.0002474655	-0.001893043	0.01101481	0.01003009
	0.01157132	0.009346725	-0.0002474655	-0.001893043	-0.06395446	-0.06806883	0.6376773	-0.7464876
	-0.0002464668	-0.001893586	0.01101481	0.01003009	0.6376773	-0.7464876	-0.06527577	-0.0665565
4e+08	-0.06666091	-0.06823048	0.6238122	-0.7576814	0.01194803	0.009228163	-0.0003135571	-0.001976632
	0.6238122	-0.7576814	-0.06805112	-0.06657762	-0.0003146056	-0.001976031	0.01138176	0.009954956
	0.01194803	0.009228163	-0.0003146056	-0.001976031	-0.06687204	-0.06796277	0.6209561	-0.7599354
	-0.0003135571	-0.001976632	0.01138176	0.009954956	0.6209561	-0.7599354	-0.06821862	-0.06635151
4.1e+08	-0.06956864	-0.0680219	0.6069356	-0.7707584	0.01231629	0.009091651	-0.000386628	-0.002058664
	0.6069356	-0.7707584	-0.07098227	-0.06626476	-0.0003877261	-0.002058	0.0117416	0.009862978
	0.01231629	0.009091651	-0.0003877261	-0.002058	-0.069786	-0.06773661	0.6039607	-0.7730033
	-0.000386628	-0.002058664	0.0117416	0.009862978	0.6039607	-0.7730033	-0.07115483	-0.06602378
4.2e+08	-0.0724682	-0.06769419	0.5897944	-0.7834544	0.01267525	0.008937644	-0.00046573	-0.002139301
	0.5897944	-0.7834544	-0.07390201	-0.06583021	-0.0004668774	-0.002138569	0.01209355	0.009754555
	0.01267525	0.008937644	-0.0004668774	-0.002138569	-0.07269132	-0.06739074	0.5867	-0.7856861
	-0.00046573	-0.002139301	0.01209355	0.009754555	0.5867	-0.7856861	-0.07407921	-0.06557387
4.3e+08	-0.07535467	-0.06724795	0.5723975	-0.7957646	0.01302411	0.008766637	-0.000550889	-0.002218157
	0.5723975	-0.7957646	-0.07680525	-0.06527471	-0.0005520849	-0.002217354	0.01243687	0.009630116
	0.01302411	0.008766637	-0.0005520849	-0.002217354	-0.07558303	-0.06692578	0.5691827	-0.797979
	-0.000550889	-0.002218157	0.01243687	0.009630116	0.5691827	-0.797979	-0.07698662	-0.06500253
4.4e+08	-0.07822315	-0.06668398	0.5547536	-0.8076844	0.01336208	0.008579158	-0.0006421053	-0.002294843
	0.5547536	-0.8076844	-0.07968693	-0.06459922	-0.0006433492	-0.002293964	0.01277086	0.009490119
	0.01336208	0.008579158	-0.0006433492	-0.002293964	-0.0784562	-0.06634255	0.5514179	-0.8098772
	-0.0006421053	-0.002294843	0.01277086	0.009490119	0.5514179	-0.8098772	-0.07987201	-0.06431075
4.5e+08	-0.08106879	-0.06600327	0.5368717	-0.8192094	0.0136884	0.008375769	-0.0007393543	-0.002368966
	0.5368717	-0.8192094	-0.08254206	-0.06380491	-0.000740645	-0.002368007	0.0130948	0.009335056
	0.0136884	0.008375769	-0.000740645	-0.002368007	-0.08130595	-0.06564207	0.5334146	-0.8213762
	-0.0007393543	-0.002368966	0.0130948	0.009335056	0.5334146	-0.8213762	-0.08273033	-0.0634997
4.6e+08	-0.08388682	-0.06520702	0.5187607	-0.8303352	0.01400235	0.008157069	-0.0008425856	-0.002440133
	0.5187607	-0.8303352	-0.08536573	-0.06289313	-0.0008439217	-0.002439089	0.01340804	0.009165446
	0.01400235	0.008157069	-0.0008439217	-0.002439089	-0.08412747	-0.06482555	0.515182	-0.8324719
	-0.0008425856	-0.002440133	0.01340804	0.009165446	0.515182	-0.8324719	-0.08555665	-0.06257078
4.7e+08	-0.08667253	-0.06429659	0.5004297	-0.8410579	0.01430323	0.007923685	-0.0009517229	-0.00250795
	0.5004297	-0.8410579	-0.08815309	-0.06186545	-0.0009531031	-0.002506816	0.01370993	0.008981838
	0.01430323	0.007923685	-0.0009531031	-0.002506816	-0.08691603	-0.06389441	0.4967291	-0.8431602
	-0.0009517229	-0.00250795	0.01370993	0.008981838	0.4967291	-0.8431602	-0.08834609	-0.06152558
4.8e+08	-0.08942128	-0.06327358	0.4818877	-0.8513737	0.01459037	0.007676273	-0.001066665	-0.002572027
	0.4818877	-0.8513737	-0.09089938	-0.06072363	-0.001068087	-0.002570797	0.01399986	0.008784807
	0.01459037	0.007676273	-0.001068087	-0.002570797	-0.08966694	-0.06285025	0.4780651	-0.8534373
	-0.001066665	-0.002572027	0.01399986	0.008784807	0.4780651	-0.8534373	-0.09109387	-0.06036588
4.9e+08	-0.0921285	-0.06213972	0.4631437	-0.861279	0.01486316	0.00741552	-0.001187284	-0.002631976
	0.4631437	-0.861279	-0.09359992	-0.05946964	-0.001188746	-0.002630646	0.01427725	0.008574952
	0.01486316	0.00741552	-0.001188746	-0.002630646	-0.09237562	-0.06169485	0.4591992	-0.8632996
	-0.001187284	-0.002631976	0.01427725	0.008574952	0.4591992	-0.8632996	-0.09379528	-0.05909367
5e+08	-0.09478974	-0.06089695	0.4442069	-0.8707703	0.01512098	0.007142138	-0.001313429	-0.002687416
	0.4442069	-0.8707703	-0.09625015	-0.05810559	-0.001314928	-0.002685982	0.01454154	0.008352896
