!$
! Info: Touchstone file created by Circ.  Input file=Tx_2in_Rx_100ohms_TxVia_10mils_RxVia_20mils.circ
!$
# Hz S RI R 50
0	0.00220688	2.442141e-26	0.997662	-2.056546e-26	2.254477e-05	2.209283e-24	-2.097509e-05	1.232577e-21
	0.997662	-2.082527e-26	0.002206491	2.852791e-26	-2.084393e-05	1.216556e-21	2.197168e-05	3.06929e-24
	2.481863e-05	2.214512e-24	-2.079169e-05	1.21017e-21	0.002199709	2.124749e-26	0.9976319	-1.79444e-26
	-2.138683e-05	1.283013e-21	2.34303e-05	3.159039e-24	0.9976319	-1.894153e-26	0.002212151	2.726815e-26
1e+07	0.003122743	0.001644806	0.9965899	-0.02258039	0.0001115351	0.000495185	-0.0001014245	-8.433559e-05
	0.9965899	-0.02258039	0.003122248	0.001644352	-0.0001014484	-8.431267e-05	0.0001109426	0.0004952876
	0.0001115829	0.0004951586	-0.0001014093	-8.433247e-05	0.003107175	0.00164789	0.9966043	-0.02267522
	-0.0001013854	-8.435539e-05	0.0001109747	0.0004952762	0.9966043	-0.02267522	0.003106687	0.00164742
2e+07	0.003877272	0.00262867	0.9951108	-0.04442784	0.0001120794	0.001019121	-7.401546e-05	-0.0001994539
	0.9951108	-0.04442784	0.003875214	0.002627685	-7.401045e-05	-0.0001994274	0.0001097471	0.001019491
	0.0001120714	0.001019096	-7.400874e-05	-0.0001994561	0.003868337	0.002645781	0.9951105	-0.04462794
	-7.400387e-05	-0.0001994887	0.0001097441	0.00101947	0.9951105	-0.04462794	0.003866422	0.002644803
3e+07	0.004496885	0.003338758	0.9933344	-0.0659586	0.0001421089	0.0015071	-5.868238e-05	-0.0002810364
	0.9933344	-0.0659586	0.004492086	0.003337294	-5.869043e-05	-0.0002810306	0.0001369254	0.001507924
	0.0001421094	0.001507097	-5.869256e-05	-0.0002810351	0.004494408	0.003363837	0.9933172	-0.06625457
	-5.868372e-05	-0.0002810429	0.0001369203	0.001507922	0.9933172	-0.06625457	0.004490024	0.003362441
4e+07	0.00505759	0.003936264	0.9911829	-0.08733348	0.0002032309	0.001982704	-5.699628e-05	-0.0003530287
	0.9911829	-0.08733348	0.00504886	0.003934477	-5.701556e-05	-0.0003530168	0.0001940878	0.001984246
	0.000203235	0.0019827	-5.701276e-05	-0.0003530155	0.005062121	0.003965983	0.991146	-0.08772345
	-5.699324e-05	-0.0003530236	0.0001940873	0.001984248	0.991146	-0.08772345	0.005054155	0.003964191
5e+07	0.005587048	0.004459922	0.9886303	-0.1085851	0.0003242768	0.002444961	-9.785734e-05	-0.0004154178
	0.9886303	-0.1085851	0.005573205	0.004458079	-9.787349e-05	-0.0004154071	0.0003100927	0.002447518
	0.000324278	0.002444959	-9.787189e-05	-0.0004154067	0.005597795	0.004492474	0.9885697	-0.1090676
	-9.785484e-05	-0.0004154151	0.0003100922	0.002447518	0.9885697	-0.1090676	0.005585042	0.004490585
6e+07	0.006098423	0.004927931	0.985665	-0.1297255	0.0004628663	0.002897622	-0.0001392223	-0.0004728371
	0.985665	-0.1297255	0.006078319	0.004926388	-0.0001392403	-0.0004728407	0.0004425934	0.002901588
	0.0004628663	0.002897624	-0.0001392437	-0.0004728406	0.006115035	0.004962531	0.9855769	-0.1302988
	-0.0001392274	-0.0004728394	0.0004425904	0.002901588	0.9855769	-0.1302988	0.006096464	0.004960968
7e+07	0.006599061	0.005350758	0.9822808	-0.1507582	0.0006190374	0.0033406	-0.000181457	-0.000525865
	0.9822808	-0.1507582	0.006571584	0.005349939	-0.0001814882	-0.0005258833	0.0005916592	0.003346431
	0.0006190384	0.003340604	-0.0001814962	-0.0005258817	0.00662165	0.005386586	0.9821616	-0.1514205
	-0.0001814709	-0.0005258696	0.0005916545	0.003346434	0.9821616	-0.1514205	0.006596299	0.00538571
8e+07	0.007093489	0.005735298	0.9784744	-0.1716824	0.0007926081	0.003773361	-0.0002245931	-0.0005746013
	0.9784744	-0.1716824	0.007057556	0.005735686	-0.0002246421	-0.0005746241	0.0007571348	0.003781571
	0.0007926105	0.003773365	-0.0002246517	-0.0005746207	0.007122161	0.005771215	0.9783208	-0.1724319
	-0.0002246116	-0.0005746051	0.0007571301	0.003781575	0.9783208	-0.1724319	0.007088983	0.00577136
9e+07	0.007584749	0.006086931	0.974244	-0.1924958	0.0009831957	0.004194952	-0.0002684082	-0.0006187841
	0.974244	-0.1924958	0.007539299	0.006089062	-0.000268468	-0.0006187985	0.0009386584	0.004206116
	0.0009831981	0.004194954	-0.000268475	-0.0006187951	0.00761933	0.006121554	0.9740527	-0.1933307
	-0.0002684228	-0.0006187859	0.0009386556	0.00420612	0.9740527	-0.1933307	0.007577153	0.006123141
1e+08	0.008076046	0.00641413	0.9695879	-0.2131987	0.001189838	0.00460249	-0.0003121082	-0.0006562756
	0.9695879	-0.2131987	0.008020048	0.006418599	-0.0003121616	-0.0006562719	0.001135283	0.004617252
	0.001189838	0.00460249	-0.0003121613	-0.000656272	0.008115921	0.006445571	0.9693558	-0.2141166
	-0.000312108	-0.0006562758	0.001135284	0.004617251	0.9693558	-0.2141166	0.00806351	0.006449201
1.1e+08	0.008587212	0.006696743	0.9644902	-0.2337697	0.001404632	0.005001761	-0.0003483971	-0.000693602
	0.9644902	-0.2337697	0.008519062	0.00670492	-0.0003484842	-0.0006936222	0.001338637	0.005020335
	0.001404632	0.005001761	-0.000348484	-0.0006936223	0.008630564	0.00672665	0.9642147	-0.2347702
	-0.0003483969	-0.0006936021	0.001338637	0.005020335	0.9642147	-0.2347702	0.008566363	0.006733225
1.2e+08	0.009092283	0.006943617	0.9589746	-0.254199	0.001636875	0.005393645	-0.0003869977	-0.0007328826
	0.9589746	-0.254199	0.009011405	0.006956153	-0.0003871173	-0.0007329071	0.001558769	0.005417191
	0.001636875	0.005393645	-0.0003871172	-0.0007329072	0.009139116	0.006972019	0.9586522	-0.2552806
	-0.0003869975	-0.0007328828	0.001558769	0.005417191	0.9586522	-0.2552806	0.009062611	0.006982497
1.3e+08	0.009594238	0.007161549	0.9530418	-0.2744858	0.001885634	0.005774984	-0.0004274923	-0.0007715522
	0.9530418	-0.2744858	0.00949996	0.007179099	-0.0004276396	-0.0007715696	0.001794799	0.005804513
	0.001885634	0.005774984	-0.0004276395	-0.0007715697	0.009644315	0.007188138	0.9526691	-0.2756467
	-0.0004274923	-0.0007715523	0.001794799	0.005804513	0.9526691	-0.2756467	0.009554979	0.007203341
1.4e+08	0.01009437	0.007352383	0.9466936	-0.2946241	0.002150288	0.006144573	-0.0004697621	-0.0008090164
	0.9466936	-0.2946241	0.009985955	0.007375653	-0.0004699315	-0.0008090212	0.002046124	0.006181027
	0.002150288	0.006144573	-0.0004699315	-0.0008090213	0.0101474	0.007376923	0.9462674	-0.2958625
	-0.0004697621	-0.0008090165	0.002046124	0.006181027	0.9462674	-0.2958625	0.01004466	0.007397616
1.5e+08	0.01059327	0.007517141	0.9399324	-0.3146072	0.002430231	0.006501501	-0.0005137138	-0.0008449763
	0.9399324	-0.3146072	0.01046995	0.00754691	-0.0005139009	-0.0008449668	0.002312152	0.006545801
	0.002430231	0.006501501	-0.0005139008	-0.0008449669	0.01064896	0.007539479	0.9394495	-0.3159213
	-0.0005137137	-0.0008449764	0.002312152	0.006545801	0.9394495	-0.3159213	0.0105322	0.007566424
1.6e+08	0.01109111	0.007656532	0.9327609	-0.334428	0.002724845	0.006844973	-0.0005592573	-0.0008792482
	0.9327609	-0.334428	0.01095211	0.007693659	-0.0005594592	-0.0008792248	0.00259228	0.006898054
	0.002724846	0.006844973	-0.0005594592	-0.0008792249	0.0111492	0.007676571	0.9322181	-0.3358158
	-0.0005592572	-0.0008792483	0.00259228	0.006898054	0.9322181	-0.3358158	0.01101778	0.007710564
1.7e+08	0.01158778	0.007771118	0.925182	-0.3540791	0.003033484	0.007174267	-0.0006063025	-0.0009117073
	0.925182	-0.3540791	0.01143235	0.007816547	-0.0006065181	-0.0009116714	0.002885885	0.007237091
	0.003033484	0.007174267	-0.0006065181	-0.0009116715	0.01164805	0.007788796	0.9245761	-0.3555387
	-0.0006063025	-0.0009117073	0.002885885	0.007237091	0.9245761	-0.3555387	0.01150132	0.007830688
1.8e+08	0.012083	0.007861397	0.9171989	-0.3735529	0.003355471	0.00748871	-0.0006547595	-0.000942264
	0.9171989	-0.3735529	0.01191044	0.00791615	-0.0006549887	-0.0009422175	0.003192328	0.007562276
	0.003355471	0.00748871	-0.0006549886	-0.0009422175	0.01214527	0.00787667	0.9165268	-0.3750824
	-0.0006547595	-0.0009422641	0.003192328	0.007562276	0.9165268	-0.3750824	0.0119826	0.007927377
1.9e+08	0.01257638	0.007927837	0.9088152	-0.392842	0.003690104	0.007787673	-0.0007045385	-0.0009708519
	0.9088152	-0.392842	0.01238602	0.007993008	-0.0007047824	-0.0009707963	0.003510947	0.007873022
	0.003690104	0.007787673	-0.0007047824	-0.0009707963	0.0126405	0.007940663	0.9080736	-0.3944391
	-0.0007045385	-0.000970852	0.003510947	0.007873022	0.9080736	-0.3944391	0.01246129	0.008001169
2e+08	0.01306747	0.007970879	0.9000344	-0.4119387	0.00403665	0.008070568	-0.0007555507	-0.0009974205
	0.9000344	-0.4119387	0.01285871	0.008047631	-0.0007558112	-0.0009973569	0.003841062	0.008168783
	0.00403665	0.008070568	-0.0007558112	-0.0009973569	0.01313329	0.00798122	0.8992203	-0.4136011
	-0.0007555507	-0.0009974205	0.003841062	0.008168783	0.8992203	-0.4136011	0.01293697	0.008052575
2.1e+08	0.01355573	0.007990959	0.8908604	-0.4308355	0.00439435	0.008336847	-0.0008077084	-0.001021931
	0.8908604	-0.4308355	0.01332807	0.008080507	-0.0008079878	-0.00102186	0.004181969	0.008449047
	0.00439435	0.008336847	-0.0008079878	-0.00102186	0.01362314	0.007998765	0.8899709	-0.4325608
	-0.0008077084	-0.001021931	0.004181969	0.008449047	0.8899709	-0.4325608	0.01340922	0.008082078
2.2e+08	0.01404064	0.007988498	0.8812974	-0.4495245	0.004762421	0.008585999	-0.0008609252	-0.001044353
	0.8812974	-0.4495245	0.01379362	0.00809211	-0.0008612262	-0.001044275	0.004532948	0.008713341
	0.004762421	0.008585999	-0.0008612262	-0.001044275	0.01410952	0.007993713	0.8803293	-0.4513103
	-0.0008609252	-0.001044353	0.004532948	0.008713341	0.8803293	-0.4513103	0.01387756	0.00809015
2.3e+08	0.01452164	0.007963922	0.8713495	-0.4679984	0.005140055	0.008817556	-0.0009151162	-0.001064664
	0.8713495	-0.4679984	0.01425489	0.008082905	-0.0009154415	-0.001064578	0.004893258	0.008961226
	0.005140055	0.008817556	-0.0009154415	-0.001064578	0.01459188	0.007966484	0.8703	-0.4698421
	-0.0009151162	-0.001064664	0.004893258	0.008961226	0.8703	-0.4698421	0.01434151	0.008077256
2.4e+08	0.01499814	0.007917637	0.8610212	-0.4862495	0.005526424	0.009031086	-0.0009701977	-0.001082848
	0.8610212	-0.4862495	0.01471138	0.008053334	-0.00097055	-0.001082754	0.005262138	0.009192297
	0.005526424	0.009031086	-0.00097055	-0.001082754	0.01506964	0.007917481	0.8598875	-0.4881484
	-0.0009701976	-0.001082848	0.005262138	0.009192297	0.8598875	-0.4881484	0.01480058	0.008043839
2.5e+08	0.01546959	0.007850061	0.8503172	-0.5042704	0.005920682	0.009226199	-0.001026088	-0.001098893
	0.8503172	-0.5042704	0.01516261	0.00800384	-0.00102647	-0.001098788	0.005638814	0.009406187
	0.005920682	0.009226199	-0.00102647	-0.001098788	0.01554221	0.007847118	0.8490965	-0.5062216
	-0.001026088	-0.001098893	0.005638814	0.009406187	0.8490965	-0.5062216	0.01525425	0.007990344
2.6e+08	0.01593538	0.007761602	0.8392423	-0.5220536	0.006321964	0.009402545	-0.001082705	-0.001112791
	0.8392423	-0.5220536	0.01560808	0.007934855	-0.001083119	-0.001112675	0.006022492	0.009602563
	0.006321964	0.009402545	-0.001083119	-0.001112675	0.01600902	0.007755801	0.8379318	-0.5240543
	-0.001082705	-0.001112791	0.006022492	0.009602563	0.8379318	-0.5240543	0.01570204	0.007917202
2.7e+08	0.01639496	0.007652669	0.8278014	-0.5395916	0.006729391	0.009559815	-0.001139971	-0.00112454
	0.8278014	-0.5395916	0.01604729	0.007846802	-0.00114042	-0.001124409	0.006412366	0.009781129
	0.006729391	0.009559815	-0.00114042	-0.001124409	0.01646947	0.007643941	0.8263987	-0.5416389
	-0.001139971	-0.00112454	0.006412366	0.00978113	0.8263987	-0.5416389	0.01614342	0.007824841
2.8e+08	0.01684772	0.007523676	0.8159998	-0.5568774	0.007142068	0.009697741	-0.001197809	-0.001134139
	0.8159998	-0.5568774	0.01647975	0.007740104	-0.001198295	-0.001133992	0.006807619	0.009941626
	0.007142068	0.009697741	-0.001198295	-0.001133992	0.01692298	0.007511959	0.8145022	-0.5589681
	-0.001197809	-0.001134139	0.006807619	0.009941626	0.8145022	-0.5589681	0.01657791	0.007713696
2.9e+08	0.01729308	0.00737504	0.8038427	-0.5739036	0.007559093	0.009816098	-0.001256142	-0.001141591
	0.8038427	-0.5739036	0.01690494	0.007615185	-0.001256667	-0.001141426	0.00720742	0.01008383
	0.007559092	0.009816098	-0.001256667	-0.001141426	0.01736895	0.007360271	0.8022479	-0.5760345
	-0.001256142	-0.001141591	0.00720742	0.01008383	0.8022479	-0.5760345	0.01700498	0.007584187
3e+08	0.01773048	0.007207181	0.7913356	-0.5906631	0.007979549	0.009914702	-0.001314897	-0.001146905
	0.7913356	-0.5906631	0.01732239	0.007472465	-0.001315462	-0.001146718	0.00761093	0.01020756
	0.007979549	0.009914702	-0.001315462	-0.001146718	0.0178068	0.007189307	0.7896412	-0.5928311
	-0.001314897	-0.001146905	0.00761093	0.01020756	0.7896412	-0.5928311	0.01742413	0.007436747
3.1e+08	0.01815933	0.007020531	0.7784841	-0.607149	0.008402517	0.009993411	-0.001374001	-0.001150088
	0.7784841	-0.607149	0.0177316	0.007312371	-0.001374609	-0.001149877	0.008017303	0.01031268
	0.008402517	0.009993411	-0.001374609	-0.001149877	0.01823595	0.006999506	0.776688	-0.6093507
	-0.001374001	-0.001150088	0.008017303	0.01031268	0.776688	-0.6093507	0.01783488	0.007271809
3.2e+08	0.01857905	0.006815524	0.7652941	-0.6233542	0.00882707	0.01005213	-0.001433385	-0.001151154
	0.7652941	-0.6233542	0.01813207	0.007135329	-0.001434036	-0.001150915	0.008425687	0.01039906
	0.008827069	0.01005213	-0.001434036	-0.001150915	0.01865582	0.006791313	0.7633941	-0.6255863
	-0.001433385	-0.001151154	0.008425687	0.01039906	0.7633941	-0.6255863	0.01823671	0.00708981
3.3e+08	0.01898909	0.006592611	0.7517714	-0.6392722	0.009252275	0.01009079	-0.001492981	-0.001150116
	0.7517714	-0.6392722	0.01852332	0.006941777	-0.001493676	-0.001149848	0.008835223	0.01046665
	0.009252275	0.01009079	-0.001493676	-0.001149848	0.01906585	0.006565181	0.7497656	-0.6415312
	-0.001492981	-0.001150116	0.008835223	0.01046665	0.7497656	-0.6415312	0.01862914	0.00689119
3.4e+08	0.01938889	0.006352251	0.7379223	-0.6548961	0.0096772	0.0101094	-0.001552722	-0.001146992
	0.7379223	-0.6548961	0.01890488	0.006732157	-0.001553463	-0.001146691	0.009245055	0.01051541
	0.0096772	0.0101094	-0.001553463	-0.001146691	0.01946546	0.006321586	0.7358086	-0.6571784
	-0.001552722	-0.001146992	0.009245055	0.01051541	0.7358086	-0.6571784	0.01901169	0.006676406
3.5e+08	0.01977788	0.006094916	0.7237528	-0.6702194	0.01010091	0.01010797	-0.001612545	-0.001141802
	0.7237528	-0.6702194	0.01927628	0.00650692	-0.001613334	-0.001141463	0.009654321	0.01054536
	0.01010091	0.01010797	-0.001613334	-0.001141463	0.01985411	0.006061005	0.7215294	-0.6725215
	-0.001612545	-0.001141802	0.009654321	0.01054536	0.7215294	-0.6725215	0.01938387	0.006445915
3.6e+08	0.02015553	0.005821091	0.7092694	-0.6852357	0.01052249	0.01008658	-0.001672389	-0.001134565
	0.7092694	-0.6852357	0.01963704	0.006266525	-0.001673225	-0.001134186	0.01006216	0.01055653
	0.01052249	0.01008658	-0.001673225	-0.001134186	0.02023125	0.005783935	0.7069347	-0.6875539
	-0.001672389	-0.001134565	0.01006216	0.01055653	0.7069347	-0.6875539	0.01974522	0.006200188
3.7e+08	0.02052131	0.005531274	0.6944786	-0.6999387	0.01094099	0.01004534	-0.001732195	-0.001125305
	0.6944786	-0.6999387	0.01998671	0.006011442	-0.00173308	-0.001124883	0.01046773	0.01054903
	0.01094099	0.01004534	-0.00173308	-0.001124883	0.02059634	0.005490883	0.6920309	-0.7022692
	-0.001732195	-0.001125305	0.01046773	0.01054903	0.6920309	-0.7022692	0.02009528	0.005939704
3.8e+08	0.02087468	0.00522598	0.679387	-0.7143222	0.0113555	0.00998442	-0.001791906	-0.001114046
	0.679387	-0.7143222	0.02032484	0.005742153	-0.00179284	-0.001113577	0.01087016	0.01052297
	0.0113555	0.00998442	-0.00179284	-0.001113577	0.02094886	0.005182373	0.6768248	-0.7166612
	-0.001791906	-0.001114046	0.01087016	0.01052297	0.6768248	-0.7166612	0.02043359	0.005664954
3.9e+08	0.02121514	0.004905738	0.6640014	-0.7283802	0.01176512	0.009904006	-0.001851469	-0.001100814
	0.6640014	-0.7283802	0.02065101	0.005459149	-0.001852452	-0.001100293	0.01126862	0.01047852
	0.01176512	0.009904006	-0.001852452	-0.001100293	0.02128831	0.004858945	0.6613234	-0.7307239
	-0.001851469	-0.001100814	0.01126862	0.01047852	0.6613234	-0.7307239	0.02075972	0.005376441
4e+08	0.02154219	0.004571093	0.6483287	-0.7421067	0.01216893	0.009804342	-0.001910832	-0.001085636
	0.6483287	-0.7421067	0.02096477	0.005162936	-0.001911865	-0.00108506	0.01166227	0.01041588
	0.01216893	0.009804342	-0.001911865	-0.00108506	0.02161418	0.004521153	0.6455335	-0.7444512
	-0.001910832	-0.001085636	0.01166227	0.01041588	0.6455335	-0.7444512	0.02107324	0.005074678
4.1e+08	0.02185534	0.004222607	0.6323759	-0.755496	0.01256604	0.009685711	-0.001969946	-0.00106854
	0.6323759	-0.755496	0.02126573	0.004854029	-0.001971029	-0.001067905	0.01205028	0.01033529
	0.01256604	0.009685711	-0.001971029	-0.001067905	0.021926	0.004169567	0.6294625	-0.7578374
	-0.001969946	-0.00106854	0.01205028	0.01033529	0.6294625	-0.7578374	0.02137374	0.004760195
4.2e+08	0.02215414	0.003860854	0.6161502	-0.7685425	0.01295558	0.009548435	-0.002028765	-0.001049554
	0.6161502	-0.7685425	0.02155348	0.004532957	-0.002029899	-0.001048856	0.01243183	0.01023702
	0.01295558	0.009548435	-0.002029899	-0.001048856	0.0222233	0.003804769	0.6131174	-0.7708768
	-0.002028765	-0.001049554	0.01243183	0.01023702	0.6131174	-0.7708768	0.02166081	0.004433525
4.3e+08	0.02243812	0.003486426	0.5996587	-0.7812407	0.01333669	0.009392876	-0.002087246	-0.001028708
	0.5996587	-0.7812407	0.02182764	0.004200257	-0.002088429	-0.001027943	0.01280613	0.0101214
	0.01333669	0.009392876	-0.002088429	-0.001027943	0.02250563	0.003427363	0.5965057	-0.7835639
	-0.002087246	-0.001028708	0.01280613	0.0101214	0.5965057	-0.7835639	0.02193407	0.004095221
4.4e+08	0.02270685	0.003099929	0.582909	-0.7935853	0.01370851	0.009219436	-0.002145348	-0.001006031
	0.582909	-0.7935853	0.02208784	0.003856483	-0.002146579	-0.001005195	0.01317239	0.009988761
	0.01370851	0.009219436	-0.002146579	-0.001005195	0.02277256	0.003037959	0.5796348	-0.7958932
	-0.002145348	-0.001006031	0.01317239	0.009988761	0.5796348	-0.7958932	0.02219316	0.003745844
4.5e+08	0.02295993	0.002701986	0.5659084	-0.8055711	0.01407023	0.009028554	-0.002203031	-0.0009815543
	0.5659084	-0.8055711	0.02233373	0.003502196	-0.00220431	-0.000980642	0.01352984	0.009839497
	0.01407023	0.009028554	-0.00220431	-0.000980642	0.02302369	0.002637192	0.5625124	-0.8078597
	-0.002203031	-0.0009815543	0.01352984	0.009839497	0.5625124	-0.8078597	0.02243771	0.003385968
4.6e+08	0.02319695	0.002293233	0.5486646	-0.8171931	0.01442103	0.008820707	-0.002260259	-0.0009553072
	0.5486646	-0.8171931	0.02256497	0.003137971	-0.002261586	-0.0009543144	0.01387771	0.009674025
	0.01442103	0.008820707	-0.002261586	-0.0009543144	0.02325862	0.002225703	0.5451462	-0.8194583
	-0.002260259	-0.0009553072	0.01387771	0.009674025	0.5451462	-0.8194583	0.0226674	0.003016178
4.7e+08	0.02341755	0.001874321	0.5311851	-0.8284465	0.01476013	0.00859641	-0.002317	-0.0009273198
	0.5311851	-0.8284465	0.02278125	0.002764394	-0.002318373	-0.000926242	0.01421529	0.009492798
	0.01476013	0.00859641	-0.002318373	-0.000926242	0.02347697	0.001804148	0.527544	-0.830684
	-0.002317	-0.0009273198	0.01421529	0.009492798	0.527544	-0.830684	0.0228819	0.002637065
4.8e+08	0.02362136	0.001445913	0.5134779	-0.8393266	0.01508678	0.008356212	-0.002373221	-0.0008976217
	0.5134779	-0.8393266	0.02298227	0.002382058	-0.002374639	-0.0008964541	0.01454186	0.009296302
	0.01508678	0.008356212	-0.002374639	-0.0008964541	0.02367841	0.001373202	0.5097136	-0.8415322
	-0.002373221	-0.0008976217	0.01454186	0.009296302	0.5097136	-0.8415322	0.02308092	0.002249239
4.9e+08	0.02380807	0.001008688	0.4955508	-0.8498287	0.01540023	0.008100697	-0.002428893	-0.0008662418
	0.4955508	-0.8498287	0.02316776	0.001991572	-0.002430354	-0.0008649799	0.01485672	0.009085052
	0.01540023	0.008100697	-0.002430354	-0.0008649799	0.02386262	0.0009335504	0.4916631	-0.8519982
	-0.002428893	-0.0008662418	0.01485672	0.009085052	0.4916631	-0.8519982	0.02326419	0.001853319
5e+08	0.02397737	0.0005633351	0.4774117	-0.8599486	0.01569978	0.007830481	-0.00248399	-0.0008332088
	0.4774117	-0.8599486	0.02333745	0.001593549	-0.002485492	-0.0008318476	0.01515921	0.008859598
	0.01569978	0.007830481	-0.002485492	-0.0008318476	0.02402929	0.0004858863	0.4734006	-0.8620777
	-0.00248399	-0.0008332088	0.01515921	0.008859598	0.4734006	-0.8620777	0.02343144	0.001449925
5.1e+08	0.02412897	0.0001105532	0.4590688	-0.869682	0.01598475	0.007546215	-0.002538487	-0.0007985503
