!$
! Info: Touchstone file created by Circ.  Input file=Tx_2in_Rx_100ohms_TxVia_10mils_RxVia_20mils.circ
!$
# Hz S RI R 50
0	0.002205804	2.190148e-26	1.122662e-10	3.866975e-29	2.388897e-05	2.297356e-24	-5.107949e-09	6.258051e-25
	1.122782e-10	3.886552e-29	0.002206491	2.852791e-26	5.520954e-10	2.294718e-27	2.197168e-05	3.06929e-24
	2.258707e-05	2.238506e-24	5.520333e-10	2.301965e-27	0.002221262	2.297751e-26	-9.267708e-09	1.148925e-24
	-5.107055e-09	6.256956e-25	2.34303e-05	3.159039e-24	-9.267905e-09	1.148949e-24	0.002212151	2.726815e-26
1e+07	0.003090312	0.001644935	5.281848e-11	-1.515466e-11	0.0001116377	0.0004964096	-9.521635e-09	1.611164e-08
	5.281854e-11	-1.515495e-11	0.003122248	0.001644352	7.032653e-10	1.103544e-09	0.0001109426	0.0004952876
	0.0001115938	0.0004964129	7.032652e-10	1.103545e-09	0.003138108	0.001648508	-1.087983e-08	1.56771e-08
	-9.521635e-09	1.611164e-08	0.0001109747	0.0004952762	-1.087983e-08	1.56771e-08	0.003106687	0.00164742
2e+07	0.003851318	0.002640883	4.503855e-11	-1.265343e-11	0.0001122736	0.001021587	-9.666279e-09	1.186044e-08
	4.503839e-11	-1.265357e-11	0.003875214	0.002627685	9.09748e-10	1.946358e-09	0.0001097471	0.001019491
	0.0001122637	0.001021615	9.097481e-10	1.946359e-09	0.003893807	0.00263522	-1.134841e-08	1.190818e-08
	-9.666279e-09	1.186044e-08	0.0001097441	0.00101947	-1.134841e-08	1.190818e-08	0.003866422	0.002644803
3e+07	0.004475983	0.003355413	6.146943e-11	-3.202463e-11	0.0001424327	0.00151076	-7.647455e-09	1.134725e-08
	6.146938e-11	-3.202461e-11	0.004492086	0.003337294	1.040767e-09	2.729067e-09	0.0001369254	0.001507924
	0.0001424334	0.001510764	1.040767e-09	2.729067e-09	0.004514977	0.003347938	-9.053939e-09	1.198519e-08
	-7.647455e-09	1.134725e-08	0.0001369203	0.001507922	-9.053939e-09	1.198519e-08	0.004490024	0.003362441
4e+07	0.00504101	0.003955539	6.873939e-11	-5.604488e-11	0.0002037314	0.001987572	-5.957281e-09	1.076373e-08
	6.873938e-11	-5.604491e-11	0.00504886	0.003934477	1.149738e-09	3.506502e-09	0.0001940878	0.001984246
	0.0002037275	0.00198757	1.149738e-09	3.506502e-09	0.005077645	0.003947751	-7.151095e-09	1.162112e-08
	-5.957281e-09	1.076373e-08	0.0001940873	0.001984248	-7.151095e-09	1.162112e-08	0.005054155	0.003964191
5e+07	0.0055743	0.004480842	7.426534e-11	-7.390254e-11	0.000325021	0.00245102	-5.050284e-09	1.023655e-08
	7.42653e-11	-7.390255e-11	0.005573205	0.004458079	1.260573e-09	4.268663e-09	0.0003100927	0.002447518
	0.0003250194	0.002451019	1.260573e-09	4.268663e-09	0.005609388	0.004473317	-6.160912e-09	1.111543e-08
	-5.050284e-09	1.023655e-08	0.0003100922	0.002447518	-6.160912e-09	1.111543e-08	0.005585042	0.004490585
6e+07	0.006089134	0.004949829	8.62169e-11	-7.343907e-11	0.000463901	0.002904839	-5.167468e-09	9.923801e-09
	8.621698e-11	-7.343905e-11	0.006078319	0.004926388	1.389627e-09	5.008457e-09	0.0004425934	0.002901588
	0.0004639063	0.002904837	1.389627e-09	5.008457e-09	0.006123274	0.004942818	-6.270399e-09	1.057589e-08
	-5.167468e-09	9.923801e-09	0.0004425904	0.002901588	-6.270399e-09	1.057589e-08	0.006096464	0.004960968
7e+07	0.006592922	0.005373101	1.143238e-10	3.595636e-11	0.0006204004	0.003348956	-7.318094e-09	9.383134e-09
	1.143241e-10	3.595626e-11	0.006571584	0.005349939	1.593363e-09	5.749494e-09	0.0005916592	0.003346431
	0.0006204108	0.00334895	1.593363e-09	5.749494e-09	0.006626574	0.005366731	-7.976484e-09	9.315879e-09
	-7.318094e-09	9.383135e-09	0.0005916545	0.003346434	-7.976484e-09	9.315879e-09	0.006596299	0.00538571
8e+07	0.007090222	0.005757593	1.141317e-09	-1.025089e-09	0.0007943453	0.003782848	-1.141862e-08	2.709057e-09
	1.141317e-09	-1.02509e-09	0.007057556	0.005735686	1.69303e-09	6.747899e-09	0.0007571348	0.003781571
	0.000794356	0.003782838	1.69303e-09	6.747899e-09	0.00712376	0.005751965	-1.027626e-08	4.041804e-09
	-1.141862e-08	2.709057e-09	0.0007571301	0.003781575	-1.027626e-08	4.041804e-09	0.007088983	0.00577136
9e+07	0.007584071	0.006108635	1.940861e-10	-1.749987e-10	0.0009853655	0.004205563	-3.217252e-09	-2.523945e-09
	1.940864e-10	-1.749992e-10	0.007539299	0.006089062	1.575671e-09	7.361232e-09	0.0009386584	0.004206116
	0.0009853718	0.004205554	1.575671e-09	7.361232e-09	0.00761783	0.006103915	-4.290912e-09	-1.45535e-09
	-3.217252e-09	-2.523945e-09	0.0009386556	0.00420612	-4.290912e-09	-1.45535e-09	0.007577153	0.006123141
1e+08	0.008077539	0.006434188	1.031643e-10	-1.889662e-10	0.001192508	0.004614211	-7.426847e-11	-2.740084e-10
	1.031643e-10	-1.889662e-10	0.008020048	0.006418599	1.687562e-09	7.909028e-09	0.001135283	0.004617252
	0.001192508	0.004614211	1.687562e-09	7.909028e-09	0.008111952	0.006431066	-2.323999e-10	2.199318e-10
	-7.426847e-11	-2.740084e-10	0.001135284	0.004617251	-2.323999e-10	2.199318e-10	0.00806351	0.006449201
1.1e+08	0.008588641	0.006715429	1.124934e-10	-2.145744e-10	0.001407735	0.005014471	-9.896305e-11	-2.952699e-10
	1.124934e-10	-2.145744e-10	0.008519062	0.00670492	1.753947e-09	8.621773e-09	0.001338637	0.005020335
	0.001407735	0.005014471	1.753947e-09	8.621773e-09	0.008626574	0.006713807	-2.959816e-10	2.554224e-10
	-9.896305e-11	-2.952699e-10	0.001338637	0.005020335	-2.959816e-10	2.554224e-10	0.008566363	0.006733225
1.2e+08	0.009093762	0.00696192	1.208891e-10	-2.405827e-10	0.001640476	0.005407379	-1.247465e-10	-3.156045e-10
	1.208891e-10	-2.405827e-10	0.009011405	0.006956153	1.815022e-09	9.332457e-09	0.001558769	0.005417191
	0.001640476	0.005407379	1.815022e-09	9.332457e-09	0.00913489	0.00696002	-3.659843e-10	2.959596e-10
	-1.247465e-10	-3.156045e-10	0.001558769	0.005417191	-3.659843e-10	2.959596e-10	0.009062611	0.006982497
1.3e+08	0.009595809	0.007179833	1.288717e-10	-2.674058e-10	0.001889803	0.005789741	-1.521405e-10	-3.345871e-10
	1.288717e-10	-2.674058e-10	0.00949996	0.007179099	1.871541e-09	1.004156e-08	0.001794799	0.005804513
	0.001889803	0.005789741	1.871541e-09	1.004156e-08	0.009639785	0.007176748	-4.415435e-10	3.415399e-10
	-1.521405e-10	-3.345871e-10	0.001794799	0.005804513	-4.415435e-10	3.415399e-10	0.009554979	0.007203341
1.4e+08	0.01009607	0.007370864	1.364735e-10	-2.951071e-10	0.00215509	0.006160329	-1.811934e-10	-3.52045e-10
	1.364735e-10	-2.951071e-10	0.009985955	0.007375653	1.924096e-09	1.074947e-08	0.002046124	0.006181027
	0.00215509	0.006160329	1.924096e-09	1.074947e-08	0.01014254	0.007366015	-5.222345e-10	3.924597e-10
	-1.811934e-10	-3.52045e-10	0.002046124	0.006181027	-5.222345e-10	3.924597e-10	0.01004466	0.007397616
1.5e+08	0.01059515	0.007535959	1.436743e-10	-3.237232e-10	0.002435725	0.006518218	-2.11871e-10	-3.678568e-10
	1.436743e-10	-3.237232e-10	0.01046995	0.00754691	1.973138e-09	1.14565e-08	0.002312152	0.006545801
	0.002435725	0.006518218	1.973138e-09	1.14565e-08	0.01064376	0.007528965	-6.076707e-10	4.490085e-10
	-2.11871e-10	-3.678568e-10	0.002312152	0.006545801	-6.076707e-10	4.490085e-10	0.0105322	0.007566424
1.6e+08	0.0110932	0.007675779	1.504289e-10	-3.532754e-10	0.002731077	0.006862606	-2.441138e-10	-3.81915e-10
	1.504289e-10	-3.532754e-10	0.01095211	0.007693659	2.019015e-09	1.216293e-08	0.00259228	0.006898054
	0.002731077	0.006862606	2.019015e-09	1.216293e-08	0.01114366	0.007666383	-6.974793e-10	5.114618e-10
	-2.441138e-10	-3.81915e-10	0.00259228	0.006898054	-6.974793e-10	5.114618e-10	0.01101778	0.007710564
1.7e+08	0.01159012	0.007790856	1.566799e-10	-3.837756e-10	0.003040494	0.007192766	-2.778483e-10	-3.941196e-10
	1.566799e-10	-3.837756e-10	0.01143235	0.007816547	2.062009e-09	1.2869e-08	0.002885885	0.007237091
	0.003040494	0.007192766	2.062009e-09	1.2869e-08	0.01164217	0.007778877	-7.912901e-10	5.800782e-10
	-2.778483e-10	-3.941196e-10	0.002885885	0.007237091	-7.912901e-10	5.800782e-10	0.01150132	0.007830688
1.8e+08	0.01208563	0.007881668	1.623628e-10	-4.152274e-10	0.003363293	0.007508022	-3.129912e-10	-4.04376e-10
	1.623628e-10	-4.152274e-10	0.01191044	0.00791615	2.102356e-09	1.357494e-08	0.003192328	0.007562276
	0.003363293	0.007508022	2.102356e-09	1.357494e-08	0.01213906	0.007866969	-8.887316e-10	6.550988e-10
	-3.129912e-10	-4.04376e-10	0.003192328	0.007562276	-8.887316e-10	6.550988e-10	0.0119826	0.007927377
1.9e+08	0.01257933	0.007948668	1.674091e-10	-4.476279e-10	0.003698764	0.007807748	-3.494522e-10	-4.125942e-10
	1.674091e-10	-4.476279e-10	0.01238602	0.007993008	2.140261e-09	1.428098e-08	0.003510947	0.007873022
	0.003698764	0.007807748	2.140261e-09	1.428098e-08	0.01263394	0.007931134	-9.894286e-10	7.36748e-10
	-3.494522e-10	-4.125942e-10	0.003510947	0.007873022	-9.894286e-10	7.36748e-10	0.01246129	0.008001169
2e+08	0.01307075	0.007992289	1.717479e-10	-4.809673e-10	0.004046172	0.008091353	-3.871344e-10	-4.186884e-10
	1.717479e-10	-4.809673e-10	0.01285871	0.008047631	2.175916e-09	1.498731e-08	0.003841062	0.008168783
	0.004046172	0.008091353	2.175916e-09	1.498731e-08	0.01312639	0.00797182	-1.093e-09	8.252332e-10
	-3.871344e-10	-4.186884e-10	0.003841062	0.008168783	-1.093e-09	8.252332e-10	0.01293697	0.008052575
2.1e+08	0.01355937	0.008012956	1.753072e-10	-5.152294e-10	0.004404753	0.008358292	-4.259355e-10	-4.225772e-10
	1.753072e-10	-5.152294e-10	0.01332807	0.008080507	2.209501e-09	1.569416e-08	0.004181969	0.008449047
	0.004404753	0.008358292	2.209501e-09	1.569416e-08	0.01361588	0.007989456	-1.19906e-09	9.207451e-10
	-4.259355e-10	-4.225772e-10	0.004181969	0.008449047	-1.19906e-09	9.207451e-10	0.01340922	0.008082078
2.2e+08	0.01404465	0.008011089	1.780149e-10	-5.503923e-10	0.004773721	0.008608053	-4.657479e-10	-4.241835e-10
	1.780149e-10	-5.503923e-10	0.01379362	0.00809211	2.241192e-09	1.64017e-08	0.004532948	0.008713341
	0.004773721	0.008608053	2.241192e-09	1.64017e-08	0.01410189	0.007984461	-1.307213e-09	1.023457e-09
	-4.657479e-10	-4.241835e-10	0.004532948	0.008713341	-1.307213e-09	1.023457e-09	0.01387756	0.00809015
2.3e+08	0.01452604	0.007987106	1.797994e-10	-5.864279e-10	0.005152267	0.008840169	-5.06459e-10	-4.234347e-10
	1.797994e-10	-5.864279e-10	0.01425489	0.008082905	2.271161e-09	1.711013e-08	0.004893258	0.008961226
	0.005152267	0.008840169	2.271161e-09	1.711013e-08	0.01458386	0.007957255	-1.41706e-09	1.133526e-09
	-5.06459e-10	-4.234347e-10	0.004893258	0.008961226	-1.41706e-09	1.133526e-09	0.01434151	0.008077256
2.4e+08	0.01500295	0.007941418	1.805904e-10	-6.233029e-10	0.005539561	0.009054208	-5.479514e-10	-4.202634e-10
	1.805904e-10	-6.233029e-10	0.01471138	0.008053334	2.299582e-09	1.781961e-08	0.005262138	0.009192297
	0.005539561	0.009054208	2.299582e-09	1.781961e-08	0.01506121	0.007908249	-1.528193e-09	1.251091e-09
	-5.479514e-10	-4.202634e-10	0.005262138	0.009192297	-1.528193e-09	1.251091e-09	0.01480058	0.008043839
2.5e+08	0.01547482	0.007874435	1.803195e-10	-6.609785e-10	0.005934754	0.00924978	-5.901032e-10	-4.146069e-10
	1.803195e-10	-6.609785e-10	0.01516261	0.00800384	2.326629e-09	1.85303e-08	0.005638814	0.009406187
	0.005934754	0.00924978	2.326629e-09	1.85303e-08	0.01553335	0.007837856	-1.640196e-09	1.37627e-09
	-5.901032e-10	-4.146069e-10	0.005638814	0.009406187	-1.640196e-09	1.37627e-09	0.01525425	0.007990344
2.6e+08	0.01594104	0.007786562	1.789202e-10	-6.994112e-10	0.006336979	0.009426535	-6.327882e-10	-4.064084e-10
	1.789202e-10	-6.994112e-10	0.01560808	0.007934855	2.352478e-09	1.924234e-08	0.006022492	0.009602563
	0.006336979	0.009426535	2.352478e-09	1.924234e-08	0.01599971	0.007746486	-1.752649e-09	1.509166e-09
	-6.327882e-10	-4.064084e-10	0.006022492	0.009602563	-1.752649e-09	1.509166e-09	0.01570204	0.007917202
2.7e+08	0.01640106	0.007678212	1.763292e-10	-7.385524e-10	0.006745354	0.009584163	-6.758758e-10	-3.956163e-10
	1.763292e-10	-7.385524e-10	0.01604729	0.007846802	2.377304e-09	1.995588e-08	0.006412366	0.009781129
	0.006745354	0.009584163	2.377304e-09	1.995588e-08	0.01645968	0.007634552	-1.865124e-09	1.649859e-09
	-6.758758e-10	-3.956163e-10	0.006412366	0.00978113	-1.865124e-09	1.649859e-09	0.01614342	0.007824841
2.8e+08	0.01685427	0.007549795	1.724857e-10	-7.783492e-10	0.007158985	0.009722397	-7.192317e-10	-3.821854e-10
	1.724857e-10	-7.783492e-10	0.01647975	0.007740104	2.401286e-09	2.067104e-08	0.006807619	0.009941626
	0.007158985	0.009722397	2.401286e-09	2.067104e-08	0.01691268	0.007502478	-1.977187e-09	1.79841e-09
	-7.192317e-10	-3.821854e-10	0.006807619	0.009941626	-1.977187e-09	1.79841e-09	0.01657791	0.007713696
2.9e+08	0.0173001	0.007401728	1.673323e-10	-8.187444e-10	0.007576964	0.00984101	-7.627177e-10	-3.660766e-10
	1.673323e-10	-8.187444e-10	0.01690494	0.007615185	2.424602e-09	2.138791e-08	0.00720742	0.01008383
	0.007576964	0.00984101	2.424602e-09	2.138791e-08	0.01735811	0.007350682	-2.088403e-09	1.95486e-09
	-7.627177e-10	-3.660766e-10	0.00720742	0.01008383	-2.088403e-09	1.95486e-09	0.01700498	0.007584187
3e+08	0.01773797	0.007234428	1.608152e-10	-8.596771e-10	0.007998376	0.009939819	-8.061922e-10	-3.472572e-10
	1.608152e-10	-8.596771e-10	0.01732239	0.007472465	2.447431e-09	2.210661e-08	0.00761093	0.01020756
	0.007998376	0.009939819	2.447431e-09	2.210661e-08	0.01779539	0.007179599	-2.198328e-09	2.119227e-09
	-8.061922e-10	-3.472572e-10	0.00761093	0.01020756	-2.198328e-09	2.119227e-09	0.01742413	0.007436747
3.1e+08	0.0181673	0.007048329	1.528842e-10	-9.010827e-10	0.008422296	0.01001868	-8.495106e-10	-3.257016e-10
	1.528842e-10	-9.010827e-10	0.0177316	0.007312371	2.469954e-09	2.282722e-08	0.008017303	0.01031268
	0.008422296	0.01001868	2.469954e-09	2.282722e-08	0.01822394	0.006989666	-2.306519e-09	2.291507e-09
	-8.495106e-10	-3.257016e-10	0.008017303	0.01031268	-2.306519e-09	2.291507e-09	0.01783488	0.007271809
3.2e+08	0.01858751	0.006843864	1.43493e-10	-9.428931e-10	0.008847796	0.0100775	-8.925253e-10	-3.013913e-10
	1.43493e-10	-9.428931e-10	0.01813207	0.007135329	2.49235e-09	2.354982e-08	0.008425687	0.01039906
	0.008847796	0.0100775	2.49235e-09	2.354982e-08	0.01864317	0.006781331	-2.41253e-09	2.471677e-09
	-8.925253e-10	-3.013913e-10	0.008425687	0.01039906	-2.41253e-09	2.471677e-09	0.01823671	0.00708981
3.3e+08	0.01899805	0.00662148	1.325998e-10	-9.850373e-10	0.009273941	0.01011621	-9.350864e-10	-2.74315e-10
	1.325998e-10	-9.850373e-10	0.01852332	0.006941777	2.514799e-09	2.427446e-08	0.008835223	0.01046665
	0.009273941	0.01011621	2.514799e-09	2.427446e-08	0.01905252	0.006555052	-2.515914e-09	2.659686e-09
	-9.350864e-10	-2.74315e-10	0.008835223	0.01046665	-2.515914e-09	2.659686e-09	0.01862914	0.00689119
3.4e+08	0.01939835	0.00638164	1.201665e-10	-1.027442e-09	0.009699796	0.01013482	-9.770417e-10	-2.444692e-10
	1.201665e-10	-1.027442e-09	0.01890488	0.006732157	2.537481e-09	2.50012e-08	0.009245055	0.01051541
	0.009699796	0.01013482	2.537481e-09	2.50012e-08	0.01945143	0.006311301	-2.616223e-09	2.855466e-09
	-9.770417e-10	-2.444692e-10	0.009245055	0.01051541	-2.616223e-09	2.855466e-09	0.01901169	0.006676406
3.5e+08	0.01978786	0.006124811	1.0616e-10	-1.07003e-09	0.01012443	0.01013333	-1.018237e-09	-2.118583e-10
	1.0616e-10	-1.07003e-09	0.01927628	0.00650692	2.560574e-09	2.573009e-08	0.009654321	0.01054536
	0.01012443	0.01013333	2.560574e-09	2.573009e-08	0.01983933	0.006050563	-2.713013e-09	3.058921e-09
	-1.018237e-09	-2.118583e-10	0.009654321	0.01054536	-2.713013e-09	3.058921e-09	0.01938387	0.006445915
3.6e+08	0.02016603	0.005851479	9.055095e-11	-1.112724e-09	0.0105469	0.01011184	-1.058518e-09	-1.764945e-10
	9.055095e-11	-1.112724e-09	0.01963704	0.006266525	2.584257e-09	2.646114e-08	0.01006216	0.01055653
	0.0105469	0.01011184	2.584257e-09	2.646114e-08	0.02021568	0.005773331	-2.805841e-09	3.269935e-09
	-1.058518e-09	-1.764945e-10	0.01006216	0.01055653	-2.805841e-09	3.269935e-09	0.01974522	0.006200188
3.7e+08	0.02053233	0.005562141	7.331513e-11	-1.155443e-09	0.01096629	0.01007045	-1.097729e-09	-1.383986e-10
	7.331513e-11	-1.155443e-09	0.01998671	0.006011442	2.608706e-09	2.71944e-08	0.01046773	0.01054903
	0.01096629	0.01007045	2.608706e-09	2.71944e-08	0.02057995	0.005480119	-2.894267e-09	3.488368e-09
	-1.097729e-09	-1.383986e-10	0.01046773	0.01054903	-2.894267e-09	3.488368e-09	0.02009528	0.005939704
3.8e+08	0.02088623	0.005257314	5.443274e-11	-1.198107e-09	0.01138166	0.01000931	-1.135712e-09	-9.759955e-11
	5.443274e-11	-1.198107e-09	0.02032484	0.005742153	2.634096e-09	2.792986e-08	0.01087016	0.01052297
	0.01138166	0.01000931	2.634096e-09	2.792986e-08	0.02093161	0.005171451	-2.977858e-09	3.714056e-09
	-1.135712e-09	-9.759955e-11	0.01087016	0.01052297	-2.977858e-09	3.714056e-09	0.02043359	0.005664954
3.9e+08	0.02122723	0.004937526	3.388862e-11	-1.240631e-09	0.01179211	0.009928643	-1.172311e-09	-5.413498e-11
	3.388862e-11	-1.240631e-09	0.02065101	0.005459149	2.660601e-09	2.866754e-08	0.01126862	0.01047852
	0.01179211	0.009928643	2.660601e-09	2.866754e-08	0.02127015	0.00484787	-3.056187e-09	3.946813e-09
	-1.172311e-09	-5.413498e-11	0.01126862	0.01047852	-3.056187e-09	3.946813e-09	0.02075972	0.005376441
4e+08	0.02155483	0.004603316	1.167255e-11	-1.282932e-09	0.01219673	0.009828675	-1.207371e-09	-8.05116e-12
	1.167255e-11	-1.282932e-09	0.02096477	0.005162936	2.68839e-09	2.940741e-08	0.01166227	0.01041588
	0.01219673	0.009828675	2.68839e-09	2.940741e-08	0.02159507	0.004509927	-3.128832e-09	4.18643e-09
	-1.207371e-09	-8.05116e-12	0.01166227	0.01041588	-3.128832e-09	4.18643e-09	0.02107324	0.005074678
4.1e+08	0.02186853	0.00425525	-1.222122e-11	-1.324925e-09	0.01259463	0.009709691	-1.240736e-09	4.059695e-11
	-1.222122e-11	-1.324925e-09	0.02126573	0.004854029	2.717634e-09	3.014947e-08	0.01205028	0.01033529
	0.01259463	0.009709691	2.717634e-09	3.014947e-08	0.02190589	0.004158201	-3.195382e-09	4.432674e-09
	-1.240736e-09	4.059695e-11	0.01205028	0.01033529	-3.195382e-09	4.432674e-09	0.02137374	0.004760195
4.2e+08	0.02216788	0.003893903	-3.779393e-11	-1.366526e-09	0.01298492	0.009572017	-1.272254e-09	9.174562e-11
	-3.779393e-11	-1.366526e-09	0.02155348	0.004532957	2.748497e-09	3.089369e-08	0.01243183	0.01023702
	0.01298492	0.009572017	2.748497e-09	3.089369e-08	0.02220215	0.003793271	-3.255435e-09	4.685291e-09
	-1.272254e-09	9.174562e-11	0.01243183	0.01023702	-3.255435e-09	4.685291e-09	0.02166081	0.004433525
4.3e+08	0.02245242	0.003519862	-6.504209e-11	-1.407649e-09	0.01336674	0.009416015	-1.301772e-09	1.453223e-10
	-6.504209e-11	-1.407649e-09	0.02182764	0.004200257	2.781143e-09	3.164003e-08	0.01280613	0.0101214
	0.01336674	0.009416015	2.781143e-09	3.164003e-08	0.0224834	0.003415746	-3.308601e-09	4.944006e-09
	-1.301772e-09	1.453223e-10	0.01280613	0.0101214	-3.308601e-09	4.944006e-09	0.02193407	0.004095221
4.4e+08	0.02272172	0.003133738	-9.395756e-11	-1.448209e-09	0.01373925	0.009242089	-1.329143e-09	2.012459e-10
	-9.395756e-11	-1.448209e-09	0.02208784	0.003856483	2.815732e-09	3.238844e-08	0.01317239	0.009988761
	0.01373925	0.009242089	2.815732e-09	3.238844e-08	0.0227492	0.003026239	-3.354502e-09	5.208521e-09
	-1.329143e-09	2.012459e-10	0.01317239	0.009988761	-3.354502e-09	5.208521e-09	0.02219316	0.003745844
4.5e+08	0.02297535	0.002736148	-1.245275e-10	-1.488122e-09	0.01410161	0.009050679	-1.354221e-09	2.594262e-10
	-1.245275e-10	-1.488122e-09	0.02233373	0.003502196	2.852419e-09	3.313889e-08	0.01352984	0.009839497
	0.01410161	0.009050679	2.852419e-09	3.313889e-08	0.02299915	0.002625383	-3.39277e-09	5.478518e-09
	-1.354221e-09	2.594262e-10	0.01352984	0.009839497	-3.39277e-09	5.478518e-09	0.02243771	0.003385968
4.6e+08	0.02321294	0.002327731	-1.567352e-10	-1.527302e-09	0.01445301	0.008842265	-1.376864e-09	3.19765e-10
	-1.567352e-10	-1.527302e-09	0.02256497	0.003137971	2.891356e-09	3.38913e-08	0.01387771	0.009674025
	0.01445301	0.008842265	2.891356e-09	3.38913e-08	0.02323285	0.002213824	-3.423058e-09	5.753657e-09
	-1.376864e-09	3.19765e-10	0.01387771	0.009674025	-3.423058e-09	5.753657e-09	0.0226674	0.003016178
4.7e+08	0.02343408	0.001909133	-1.905583e-10	-1.565667e-09	0.01479267	0.008617363	-1.396933e-09	3.821545e-10
	-1.905583e-10	-1.565667e-09	0.02278125	0.002764394	2.93269e-09	3.464561e-08	0.01421529	0.009492798
	0.01479267	0.008617363	2.93269e-09	3.464561e-08	0.02344994	0.001792225	-3.445025e-09	6.033579e-09
	-1.396933e-09	3.821545e-10	0.01421529	0.009492798	-3.445025e-09	6.033579e-09	0.0228819	0.002637065
4.8e+08	0.02363845	0.001481024	-2.259729e-10	-1.603135e-09	0.01511983	0.008376525	-1.414295e-09	4.464801e-10
