!$
! Info: Touchstone file created by Circ.  Input file=Tx_2in_Rx_85ohms_TxVia_10mils_RxVia_20mils.circ
!$
# Hz S RI R 50
0	0.001735778	2.544809e-26	-1.096675e-05	-1.51351e-26	2.457209e-05	2.12738e-24	-1.09801e-05	1.601243e-24
	-1.096675e-05	-1.492983e-26	0.001738656	2.856536e-26	-1.096678e-05	-5.518986e-27	2.199965e-05	2.400289e-24
	2.462065e-05	2.128623e-24	-1.096677e-05	-5.732047e-27	0.001750821	2.553501e-26	-1.096851e-05	2.027398e-25
	-1.09801e-05	1.601089e-24	2.345845e-05	2.470477e-24	-1.096851e-05	2.024636e-25	0.001744322	2.730372e-26
1e+07	0.002395496	-0.001686677	-1.028525e-06	-2.863081e-06	3.127313e-05	0.0004854091	-4.87407e-07	-3.289261e-06
	-1.028525e-06	-2.863081e-06	0.002390161	-0.001653887	-1.931988e-06	-2.462132e-07	4.616163e-05	0.000484621
	3.127771e-05	0.0004854063	-1.931988e-06	-2.462132e-07	0.002678153	-0.001606125	-4.280461e-06	1.005055e-07
	-4.874071e-07	-3.289261e-06	4.619364e-05	0.0004846095	-4.280461e-06	1.005055e-07	0.00239943	-0.001650853
2e+07	0.002885763	-0.003924712	-9.527127e-07	-1.21291e-06	6.607233e-05	0.0009698913	-1.786104e-07	-1.748896e-06
	-9.527127e-07	-1.21291e-06	0.002905334	-0.003867427	-4.544618e-06	-3.61698e-06	8.695361e-05	0.0009564676
	6.607176e-05	0.0009698882	-4.544618e-06	-3.616979e-06	0.003178518	-0.003887513	-6.0546e-06	-2.156184e-06
	-1.786104e-07	-1.748896e-06	8.695043e-05	0.0009564467	-6.0546e-06	-2.156184e-06	0.002915249	-0.00385975
3e+07	0.003108122	-0.006421035	-9.07001e-07	-8.380401e-07	0.0001342442	0.001440698	-2.423199e-07	-1.408015e-06
	-9.07001e-07	-8.380401e-07	0.003143101	-0.006355563	-6.564606e-06	-4.371625e-06	0.0001461495	0.001423031
	0.0001342443	0.001440697	-6.564606e-06	-4.371625e-06	0.003408484	-0.006398389	-7.421159e-06	-2.572237e-06
	-2.423199e-07	-1.408015e-06	0.0001461444	0.001423028	-7.421159e-06	-2.572237e-06	0.003154141	-0.006343092
4e+07	0.003136027	-0.009004367	-8.696452e-07	-6.539456e-07	0.0002220361	0.001904302	-4.563781e-07	-1.208751e-06
	-8.696452e-07	-6.539456e-07	0.00317997	-0.008935731	-8.268677e-06	-4.454596e-06	0.0002244277	0.001884628
	0.0002220368	0.001904302	-8.268677e-06	-4.454596e-06	0.003442343	-0.008993203	-8.569146e-06	-2.518262e-06
	-4.563781e-07	-1.208751e-06	0.0002244273	0.001884629	-8.569146e-06	-2.518262e-06	0.003192733	-0.008920337
5e+07	0.00299712	-0.01163134	-8.368214e-07	-5.396178e-07	0.0003295512	0.002360981	-6.433203e-07	-1.049714e-06
	-8.368214e-07	-5.396178e-07	0.003044715	-0.01156226	-9.755684e-06	-4.158982e-06	0.0003216823	0.002340759
	0.0003295521	0.002360981	-9.755684e-06	-4.158982e-06	0.003308035	-0.01163127	-9.566311e-06	-2.200403e-06
	-6.433203e-07	-1.049714e-06	0.0003216818	0.00234076	-9.566311e-06	-2.200403e-06	0.003058179	-0.01154474
6e+07	0.00270535	-0.01427914	-8.066256e-07	-4.582153e-07	0.0004566574	0.002810377	-8.08997e-07	-8.991512e-07
	-8.066256e-07	-4.582153e-07	0.002751877	-0.01421129	-1.107234e-05	-3.590063e-06	0.0004376985	0.002790823
	0.0004566585	0.002810376	-1.107234e-05	-3.590063e-06	0.00301958	-0.01429055	-1.044495e-05	-1.691843e-06
	-8.08997e-07	-8.991512e-07	0.0004376956	0.002790824	-1.044495e-05	-1.691843e-06	0.002765534	-0.01419161
7e+07	0.002269313	-0.01693243	-7.778443e-07	-3.945577e-07	0.0006031377	0.003251867	-9.565922e-07	-7.44107e-07
	-7.778443e-07	-3.945577e-07	0.0023104	-0.01686699	-1.224204e-05	-2.789527e-06	0.0005722191	0.003234133
	0.000603139	0.003251867	-1.224204e-05	-2.789527e-06	0.002585579	-0.01695607	-1.122287e-05	-1.023697e-06
	-9.565922e-07	-7.441069e-07	0.0005722144	0.003234136	-1.122287e-05	-1.023697e-06	0.002324206	-0.01684532
8e+07	0.001695098	-0.01957948	-7.496134e-07	-3.409255e-07	0.0007686885	0.003684701	-1.086727e-06	-5.782139e-07
	-7.496135e-07	-3.409255e-07	0.001726558	-0.01951746	-1.327454e-05	-1.761909e-06	0.0007249244	0.003669981
	0.0007686896	0.0036847	-1.327454e-05	-1.761909e-06	0.002012074	-0.01961637	-1.18928e-05	-2.054597e-07
	-1.086727e-06	-5.782139e-07	0.0007249197	0.003669985	-1.18928e-05	-2.054597e-07	0.00174034	-0.0194944
9e+07	0.0009875057	-0.02221037	-7.212694e-07	-2.931653e-07	0.0009529218	0.004108083	-1.191851e-06	-3.89106e-07
	-7.212694e-07	-2.931653e-07	0.001005171	-0.02215307	-1.416307e-05	-4.64205e-07	0.0008954442	0.004097741
	0.0009529225	0.004108083	-1.416307e-05	-4.64205e-07	0.001303735	-0.0222621	-1.245406e-05	8.21055e-07
	-1.191851e-06	-3.89106e-07	0.0008954415	0.004097745	-1.245406e-05	8.21055e-07	0.00101835	-0.02212933
1e+08	0.000151063	-0.02481443	-6.901755e-07	-2.45381e-07	0.001155408	0.004521346	-1.269301e-06	-1.28043e-07
	-6.901755e-07	-2.45381e-07	0.0001500606	-0.02476637	-1.483184e-05	1.418697e-06	0.001083512	0.004517482
	0.001155408	0.004521346	-1.483184e-05	1.418697e-06	0.000464387	-0.02488542	-1.286031e-05	2.272806e-06
	-1.269301e-06	-1.28043e-07	0.001083513	0.004517482	-1.286031e-05	2.272806e-06	0.0001616581	-0.02474256
1.1e+08	-0.0008015335	-0.02739888	-6.745679e-07	-2.028583e-07	0.001376233	0.004923568	-1.189016e-06	9.028559e-08
	-6.745679e-07	-2.028583e-07	-0.0008381947	-0.02735429	-1.419315e-05	3.023499e-06	0.001291102	0.004926065
	0.001376233	0.004923568	-1.419315e-05	3.023499e-06	-0.0005021001	-0.02748537	-1.261334e-05	2.131676e-06
	-1.189016e-06	9.028559e-08	0.001291102	0.004926065	-1.261334e-05	2.131676e-06	-0.0008285566	-0.02732918
1.2e+08	-0.001880911	-0.02994754	-6.64905e-07	-1.681448e-07	0.001614062	0.005313538	-1.120268e-06	2.344678e-07
	-6.64905e-07	-1.681448e-07	-0.001954167	-0.02989853	-1.39561e-05	2.761675e-06	0.001514706	0.0053226
	0.001614062	0.005313538	-1.39561e-05	2.761675e-06	-0.001595057	-0.03004463	-1.246566e-05	1.675954e-06
	-1.120268e-06	2.344678e-07	0.001514706	0.0053226	-1.246566e-05	1.675954e-06	-0.001946965	-0.02987215
1.3e+08	-0.003081783	-0.03245204	-6.565123e-07	-1.37726e-07	0.001868326	0.005690715	-1.069492e-06	2.939563e-07
	-6.565123e-07	-1.37726e-07	-0.003193209	-0.0323944	-1.379231e-05	2.325566e-06	0.001753921	0.005707147
	0.001868326	0.005690715	-1.379231e-05	2.325566e-06	-0.0028098	-0.03255767	-1.231597e-05	1.36068e-06
	-1.069492e-06	2.939563e-07	0.001753921	0.005707147	-1.231597e-05	1.36068e-06	-0.003188983	-0.03236671
1.4e+08	-0.004399862	-0.03490654	-6.48597e-07	-1.104242e-07	0.002138398	0.006054415	-1.054308e-06	2.249082e-07
	-6.48597e-07	-1.104242e-07	-0.00455115	-0.03483676	-1.362973e-05	2.00137e-06	0.002008177	0.006079133
	0.002138398	0.006054415	-1.362973e-05	2.00137e-06	-0.004142157	-0.03501915	-1.216962e-05	1.128761e-06
	-1.054308e-06	2.249082e-07	0.002008177	0.006079133	-1.216962e-05	1.128761e-06	-0.004550442	-0.03480763
1.5e+08	-0.005831295	-0.03730578	-6.407393e-07	-8.560267e-08	0.002423615	0.006403953	-1.039845e-06	1.672349e-07
	-6.407393e-07	-8.560267e-08	-0.006024138	-0.03722055	-1.347128e-05	1.753057e-06	0.002276843	0.006437942
	0.002423615	0.006403953	-1.347128e-05	1.753057e-06	-0.00558828	-0.03742398	-1.202793e-05	9.532815e-07
	-1.039845e-06	1.672349e-07	0.002276843	0.006437942	-1.202793e-05	9.532815e-07	-0.006027469	-0.03718976
1.6e+08	-0.007372435	-0.0396448	-6.32911e-07	-6.273467e-08	0.002723272	0.006738656	-1.026258e-06	1.179953e-07
	-6.32911e-07	-6.273467e-08	-0.007608463	-0.03954088	-1.331793e-05	1.560001e-06	0.002559255	0.006782966
	0.002723272	0.006738656	-1.331793e-05	1.560001e-06	-0.007144483	-0.03976731	-1.18915e-05	8.18977e-07
	-1.026258e-06	1.179953e-07	0.002559255	0.006782967	-1.18915e-05	8.18977e-07	-0.00761632	-0.03950813
1.7e+08	-0.009019715	-0.04191885	-6.25088e-07	-4.145204e-08	0.003036629	0.007057879	-1.013598e-06	7.527192e-08
	-6.25088e-07	-4.145204e-08	-0.009300451	-0.04179298	-1.316997e-05	1.408999e-06	0.002854718	0.007113626
	0.003036629	0.007057879	-1.316997e-05	1.408999e-06	-0.008807139	-0.04204444	-1.176037e-05	7.160639e-07
	-1.013598e-06	7.527192e-08	0.002854718	0.007113626	-1.176037e-05	7.160639e-07	-0.00931328	-0.04175795
1.8e+08	-0.01076956	-0.04412334	-6.172496e-07	-2.14862e-08	0.003362913	0.007361004	-1.001871e-06	3.773699e-08
	-6.172496e-07	-2.14862e-08	-0.01109639	-0.04397223	-1.302731e-05	1.291046e-06	0.003162511	0.007429368
	0.003362913	0.007361004	-1.302731e-05	1.291046e-06	-0.01057261	-0.04425087	-1.163436e-05	6.378553e-07
	-1.001871e-06	3.773699e-08	0.003162511	0.007429368	-1.163436e-05	6.378553e-07	-0.0111146	-0.04393453
1.9e+08	-0.01261832	-0.04625389	-6.093783e-07	-2.634896e-09	0.003701316	0.007647449	-9.91059e-07	4.424109e-09
	-6.093783e-07	-2.634896e-09	-0.01299249	-0.04607417	-1.288973e-05	1.199683e-06	0.003481888	0.00772967
	0.003701316	0.007647449	-1.288973e-05	1.199683e-06	-0.0124372	-0.04638222	-1.151321e-05	5.795458e-07
	-9.91059e-07	4.424109e-09	0.003481888	0.00772967	-1.151321e-05	5.795458e-07	-0.01301643	-0.04603338
2e+08	-0.01456227	-0.04830625	-6.014589e-07	1.525778e-08	0.004051	0.007916672	-9.811349e-07	-2.539088e-08
	-6.014589e-07	1.525778e-08	-0.01498483	-0.0480945	-1.275692e-05	1.130115e-06	0.003812082	0.008014047
	0.004051	0.007916672	-1.275692e-05	1.130115e-06	-0.01439713	-0.04843432	-1.13966e-05	5.375646e-07
	-9.811349e-07	-2.539088e-08	0.003812082	0.008014047	-1.13966e-05	5.375646e-07	-0.01501484	-0.04805019
2.1e+08	-0.01659756	-0.05027639	-5.934785e-07	3.231434e-08	0.004411101	0.00816817	-9.720685e-07	-5.226777e-08
	-5.934785e-07	3.231434e-08	-0.01706939	-0.05002911	-1.262858e-05	1.07867e-06	0.004152303	0.008282045
	0.004411101	0.00816817	-1.262858e-05	1.07867e-06	-0.0164485	-0.05040316	-1.128422e-05	5.091732e-07
	-9.720685e-07	-5.226777e-08	0.004152303	0.008282045	-1.128422e-05	5.091732e-07	-0.01710577	-0.04998082
2.2e+08	-0.01872023	-0.05216043	-5.85426e-07	4.863216e-08	0.00478073	0.008401484	-9.638278e-07	-7.664442e-08
	-5.85426e-07	4.863216e-08	-0.01924202	-0.05187408	-1.250437e-05	1.042488e-06	0.004501743	0.00853325
	0.00478073	0.008401484	-1.250437e-05	1.042488e-06	-0.01858732	-0.0522849	-1.117575e-05	4.922351e-07
	-9.638278e-07	-7.664442e-08	0.004501743	0.00853325	-1.117575e-05	4.922351e-07	-0.01928501	-0.05182134
2.3e+08	-0.02092619	-0.05395471	-5.772919e-07	6.428923e-08	0.005158975	0.008616198	-9.563784e-07	-9.886768e-08
	-5.772919e-07	6.428923e-08	-0.02149842	-0.0536257	-1.238397e-05	1.019303e-06	0.004859574	0.008767285
	0.005158975	0.008616198	-1.238397e-05	1.019303e-06	-0.02080946	-0.0540759	-1.107089e-05	4.850566e-07
	-9.563784e-07	-9.886768e-08	0.004859574	0.008767285	-1.107089e-05	4.850566e-07	-0.02154825	-0.053568
2.4e+08	-0.02321125	-0.05565575	-5.690683e-07	7.934959e-08	0.005544908	0.008811945	-9.496924e-07	-1.192223e-07
	-5.690683e-07	7.93496e-08	-0.0238342	-0.05528045	-1.226709e-05	1.007265e-06	0.005224955	0.008983813
	0.005544908	0.008811945	-1.226709e-05	1.007265e-06	-0.02311068	-0.05577271	-1.096938e-05	4.862537e-07
	-9.496924e-07	-1.192223e-07	0.005224955	0.008983813	-1.096938e-05	4.862537e-07	-0.02389106	-0.05521728
2.5e+08	-0.02557109	-0.05726029	-5.607482e-07	9.386531e-08	0.005937582	0.008988401	-9.437398e-07	-1.379379e-07
	-5.607482e-07	9.386531e-08	-0.02624483	-0.05683503	-1.215344e-05	1.004872e-06	0.005597027	0.009182538
	0.005937582	0.008988401	-1.215344e-05	1.004872e-06	-0.02548665	-0.05737208	-1.087093e-05	4.947016e-07
	-9.437398e-07	-1.379379e-07	0.005597027	0.009182538	-1.087093e-05	4.947016e-07	-0.02630887	-0.05676587
2.6e+08	-0.02800127	-0.05876525	-5.523257e-07	1.078796e-07	0.006336038	0.009145294	-9.384942e-07	-1.552057e-07
	-5.523257e-07	1.078796e-07	-0.02872568	-0.05828636	-1.204276e-05	1.010872e-06	0.005974923	0.009363206
	0.006336038	0.009145294	-1.204276e-05	1.010872e-06	-0.02793289	-0.05887097	-1.077532e-05	5.094627e-07
	-9.384942e-07	-1.552057e-07	0.005974923	0.009363206	-1.077532e-05	5.094627e-07	-0.02879701	-0.05821068
2.7e+08	-0.03049729	-0.06016779	-5.437956e-07	1.214282e-07	0.006739305	0.009282397	-9.339274e-07	-1.711834e-07
	-5.437956e-07	1.214282e-07	-0.031272	-0.05963159	-1.193476e-05	1.024222e-06	0.006357765	0.009525602
	0.006739305	0.009282397	-1.193476e-05	1.024222e-06	-0.03044487	-0.06026654	-1.068229e-05	5.297558e-07
	-9.339274e-07	-1.711834e-07	0.006357765	0.009525602	-1.068229e-05	5.297558e-07	-0.03135073	-0.05954884
2.8e+08	-0.03305451	-0.06146528	-5.35154e-07	1.345408e-07	0.007146405	0.009399531	-9.300172e-07	-1.86004e-07
	-5.35154e-07	1.345408e-07	-0.03387898	-0.06086808	-1.182923e-05	1.044035e-06	0.006744667	0.009669557
	0.007146405	0.009399531	-1.182923e-05	1.044035e-06	-0.03301792	-0.06155616	-1.059165e-05	5.54916e-07
	-9.300172e-07	-1.86004e-07	0.006744667	0.009669557	-1.059165e-05	5.54916e-07	-0.03396516	-0.06077771
2.9e+08	-0.03566826	-0.0626553	-5.263973e-07	1.472425e-07	0.007556356	0.009496569	-9.267417e-07	-1.997796e-07
	-5.263973e-07	1.472425e-07	-0.03654169	-0.06199343	-1.172595e-05	1.069554e-06	0.007134739	0.009794944
	0.007556356	0.009496569	-1.172595e-05	1.069554e-06	-0.03564733	-0.06273744	-1.05032e-05	5.843763e-07
	-9.267417e-07	-1.997796e-07	0.007134739	0.009794944	-1.05032e-05	5.843763e-07	-0.03663535	-0.06189487
3e+08	-0.03833373	-0.06373563	-5.175225e-07	1.595543e-07	0.00796817	0.00957343	-9.240778e-07	-2.126046e-07
	-5.175225e-07	1.595543e-07	-0.03925517	-0.06300546	-1.162468e-05	1.100128e-06	0.007527089	0.009901679
	0.00796817	0.00957343	-1.162468e-05	1.100128e-06	-0.03832828	-0.06380817	-1.041674e-05	6.176503e-07
	-9.240778e-07	-2.126046e-07	0.007527089	0.009901679	-1.041674e-05	6.176503e-07	-0.03935628	-0.06289814
3.1e+08	-0.04104612	-0.06470431	-5.085268e-07	1.714935e-07	0.008380861	0.009630082	-9.220082e-07	-2.245593e-07
	-5.085268e-07	1.714935e-07	-0.04201435	-0.06390222	-1.152521e-05	1.135196e-06	0.007920822	0.00998972
	0.008380861	0.009630082	-1.152521e-05	1.135196e-06	-0.0410559	-0.06476639	-1.033211e-05	6.543157e-07
	-9.220082e-07	-2.245593e-07	0.007920822	0.00998972	-1.033211e-05	6.543157e-07	-0.04212288	-0.06378557
3.2e+08	-0.04380051	-0.06555955	-4.994076e-07	1.83075e-07	0.008793445	0.009666542	-9.205144e-07	-2.357123e-07
	-4.994076e-07	1.83075e-07	-0.04481414	-0.06468198	-1.142732e-05	1.174262e-06	0.008315047	0.01005907
	0.008793445	0.009666542	-1.142732e-05	1.174262e-06	-0.04382527	-0.06561035	-1.024915e-05	6.940038e-07
	-9.205144e-07	-2.357123e-07	0.008315047	0.01005907	-1.024915e-05	6.940038e-07	-0.04493	-0.06455544
3.3e+08	-0.04659196	-0.06629983	-4.901651e-07	1.943112e-07	0.009204942	0.009682873	-9.195763e-07	-2.461223e-07
	-4.901651e-07	1.943112e-07	-0.04764938	-0.06534327	-1.13309e-05	1.216887e-06	0.008708875	0.01010977
	0.009204942	0.009682873	-1.13309e-05	1.216887e-06	-0.04663141	-0.06633849	-1.016769e-05	7.363908e-07
	-9.195763e-07	-2.461223e-07	0.008708875	0.01010977	-1.016769e-05	7.363908e-07	-0.04777247	-0.06520624
3.4e+08	-0.0494155	-0.0669238	-4.807989e-07	2.052123e-07	0.009614381	0.009679187	-9.191727e-07	-2.55841e-07
	-4.807989e-07	2.052123e-07	-0.0505149	-0.06588481	-1.123574e-05	1.262685e-06	0.009101425	0.01014191
	0.009614381	0.009679187	-1.123574e-05	1.262685e-06	-0.0494693	-0.06694952	-1.008756e-05	7.811783e-07
	-9.191727e-07	-2.55841e-07	0.009101425	0.01014191	-1.008756e-05	7.811783e-07	-0.05064505	-0.06573674
3.5e+08	-0.05226612	-0.06743037	-4.713084e-07	2.157871e-07	0.0100208	0.009655642	-9.192925e-07	-2.649102e-07
	-4.713084e-07	2.157871e-07	-0.05340547	-0.06630558	-1.11417e-05	1.311309e-06	0.009491824	0.01015562
	0.0100208	0.009655642	-1.11417e-05	1.311309e-06	-0.0523339	-0.06744235	-1.000865e-05	8.281185e-07
	-9.192925e-07	-2.649102e-07	0.009491824	0.01015562	-1.000865e-05	8.281185e-07	-0.05354252	-0.06614589
3.6e+08	-0.05513877	-0.06781864	-4.616935e-07	2.260432e-07	0.01042324	0.009612442	-9.199227e-07	-2.733662e-07
	-4.616935e-07	2.260432e-07	-0.05631588	-0.06660478	-1.104867e-05	1.362452e-06	0.009879206	0.01015107
	0.01042324	0.009612442	-1.104867e-05	1.362452e-06	-0.05522014	-0.06781608	-9.930854e-06	8.769892e-07
	-9.199227e-07	-2.733662e-07	0.009879206	0.01015107	-9.930854e-06	8.769892e-07	-0.05645959	-0.06643289
3.7e+08	-0.05802843	-0.06808794	-4.519545e-07	2.359866e-07	0.01082077	0.009549836	-9.210488e-07	-2.812403e-07
	-4.519545e-07	2.359866e-07	-0.05924087	-0.06678181	-1.095653e-05	1.415834e-06	0.01026272	0.01012845
	0.01082077	0.009549836	-1.095653e-05	1.415834e-06	-0.05812294	-0.06807008	-9.854049e-06	9.275854e-07
	-9.210488e-07	-2.812403e-07	0.01026272	0.01012845	-9.854049e-06	9.275854e-07	-0.059391	-0.06659719
3.8e+08	-0.06093004	-0.06823781	-4.42092e-07	2.456222e-07	0.01121247	0.009468116	-9.226563e-07	-2.885596e-07
	-4.42092e-07	2.456222e-07	-0.06217523	-0.06683635	-1.086513e-05	1.471204e-06	0.01064153	0.01008804
	0.01121247	0.009468116	-1.086513e-05	1.471204e-06	-0.06103722	-0.06820389	-9.778124e-06	9.797213e-07
	-9.226563e-07	-2.885596e-07	0.01064153	0.01008804	-9.778124e-06	9.797213e-07	-0.06233148	-0.06663843
3.9e+08	-0.06383856	-0.06826801	-4.321069e-07	2.549541e-07	0.01159743	0.009367617	-9.247318e-07	-2.95347e-07
	-4.321069e-07	2.549541e-07	-0.06511372	-0.06676825	-1.077436e-05	1.528329e-06	0.01101481	0.01003009
	0.01159743	0.009367617	-1.077436e-05	1.528329e-06	-0.0639579	-0.0682173	-9.702973e-06	1.033228e-06
	-9.247318e-07	-2.95347e-07	0.01101481	0.01003009	-9.702973e-06	1.033228e-06	-0.06527577	-0.0665565
4e+08	-0.06674896	-0.06817851	-4.220003e-07	2.639853e-07	0.01197477	0.009248717	-9.272609e-07	-3.016226e-07
	-4.220003e-07	2.639853e-07	-0.06805112	-0.06657762	-1.068411e-05	1.586995e-06	0.01138176	0.009954956
	0.01197477	0.009248717	-1.068411e-05	1.586995e-06	-0.06687991	-0.06811029	-9.628493e-06	1.087949e-06
	-9.272609e-07	-3.016226e-07	0.01138176	0.009954956	-9.628493e-06	1.087949e-06	-0.06821862	-0.06635151
4.1e+08	-0.06965624	-0.06796948	-4.117738e-07	2.727184e-07	0.01234363	0.009111833	-9.302309e-07	-3.07403e-07
	-4.117738e-07	2.727184e-07	-0.07098227	-0.06626476	-1.059426e-05	1.647007e-06	0.0117416	0.009862978
	0.01234363	0.009111833	-1.059426e-05	1.647007e-06	-0.06979822	-0.06788307	-9.554591e-06	1.143742e-06
	-9.302309e-07	-3.07403e-07	0.0117416	0.009862978	-9.554591e-06	1.143742e-06	-0.07115483	-0.06602378
4.2e+08	-0.0725554	-0.06764131	-4.014292e-07	2.811553e-07	0.01270316	0.008957422	-9.336295e-07	-3.127019e-07
	-4.014292e-07	2.811553e-07	-0.07390201	-0.06583021	-1.050472e-05	1.708182e-06	0.01209355	0.009754555
	0.01270316	0.008957422	-1.050472e-05	1.708182e-06	-0.0727078	-0.06753605	-9.481182e-06	1.200476e-06
	-9.336295e-07	-3.127019e-07	0.01209355	0.009754555	-9.481182e-06	1.200476e-06	-0.07407921	-0.06557387
4.3e+08	-0.07544153	-0.0671946	-3.909685e-07	2.892972e-07	0.01305256	0.008785977	-9.374445e-07	-3.175307e-07
	-3.909685e-07	2.892972e-07	-0.07680525	-0.06527471	-1.04154e-05	1.770349e-06	0.01243687	0.009630116
	0.01305256	0.008785977	-1.04154e-05	1.770349e-06	-0.0756037	-0.06706985	-9.408183e-06	1.258029e-06
	-9.374445e-07	-3.175307e-07	0.01243687	0.009630116	-9.408183e-06	1.258029e-06	-0.07698662	-0.06500253
4.4e+08	-0.0783097	-0.06663013	-3.803938e-07	2.971451e-07	0.01339104	0.00859803	-9.416628e-07	-3.218993e-07
	-3.803938e-07	2.971451e-07	-0.07968693	-0.06459922	-1.032621e-05	1.833348e-06	0.01277086	0.009490119
	0.01339104	0.00859803	-1.032621e-05	1.833348e-06	-0.07848097	-0.06648528	-9.335512e-06	1.316285e-06
	-9.416628e-07	-3.218993e-07	0.01277086	0.009490119	-9.335512e-06	1.316285e-06	-0.07987201	-0.06431075
4.5e+08	-0.08115509	-0.0659489	-3.697077e-07	3.046993e-07	0.01371784	0.008394144	-9.462717e-07	-3.258161e-07
	-3.697077e-07	3.046993e-07	-0.08254206	-0.06380491	-1.023707e-05	1.897027e-06	0.0130948	0.009335056
	0.01371784	0.008394144	-1.023707e-05	1.897027e-06	-0.08133474	-0.06578338	-9.263095e-06	1.375137e-06
	-9.462717e-07	-3.258161e-07	0.0130948	0.009335056	-9.263095e-06	1.375137e-06	-0.08273033	-0.0634997
4.6e+08	-0.08397291	-0.0651521	-3.58913e-07	3.119599e-07	0.01403223	0.008174919	-9.512597e-07	-3.292867e-07
	-3.58913e-07	3.119599e-07	-0.08536573	-0.06289313	-1.01479e-05	1.961244e-06	0.01340804	0.009165446
	0.01403223	0.008174919	-1.01479e-05	1.961244e-06	-0.08416021	-0.06496536	-9.190864e-06	1.434485e-06
	-9.512597e-07	-3.292867e-07	0.01340804	0.009165446	-9.190864e-06	1.434485e-06	-0.08555665	-0.06257078
4.7e+08	-0.08675844	-0.06424111	-3.480124e-07	3.189266e-07	0.01433352	0.007940983	-9.566129e-07	-3.323175e-07
