!$
! Info: Touchstone file created by Circ.  Input file=Tx_2in_Rx_93ohms_TxVia_10mils_RxVia_20mils.circ
!$
# Hz S RI R 50
0	0.001960708	2.539971e-26	-1.09337e-05	-1.508848e-26	2.453257e-05	2.410985e-24	-1.094704e-05	1.601291e-24
	-1.09337e-05	-1.488383e-26	0.001963585	2.850894e-26	-1.093372e-05	-5.468888e-27	2.196021e-05	2.721936e-24
	2.458111e-05	2.412394e-24	-1.093372e-05	-5.681308e-27	0.001975744	2.54865e-26	-1.093545e-05	2.027719e-25
	-1.094704e-05	1.601137e-24	2.341893e-05	2.801528e-24	-1.093545e-05	2.024964e-25	0.001969247	2.725003e-26
1e+07	0.002705753	0.0001159882	-1.871724e-07	-4.094799e-06	4.583105e-05	0.0004577194	-1.914154e-07	-4.195016e-06
	-1.871724e-07	-4.094799e-06	0.002859811	0.0001016156	-1.261739e-06	-8.595992e-07	4.574107e-05	0.0004877511
	4.583564e-05	0.0004577167	-1.261739e-06	-8.595992e-07	0.00290848	0.0002260213	-4.32272e-06	-1.290295e-06
	-1.914155e-07	-4.195016e-06	4.577311e-05	0.0004877397	-4.322721e-06	-1.290295e-06	0.002819468	9.766839e-05
2e+07	0.003356598	-0.0003595544	-1.113692e-06	-2.892868e-06	8.977343e-05	0.0009283906	-1.226837e-06	-3.06479e-06
	-1.113692e-06	-2.892868e-06	0.003462781	-0.0004418669	-4.591288e-06	-4.870588e-06	6.403988e-05	0.0009812122
	8.977288e-05	0.0009283876	-4.591288e-06	-4.870588e-06	0.003618789	-0.000244838	-4.742823e-06	2.084459e-07
	-1.226837e-06	-3.06479e-06	6.403678e-05	0.0009811913	-4.742823e-06	2.084459e-07	0.003432696	-0.0004292536
3e+07	0.003809097	-0.001117951	-1.840642e-06	-2.617735e-06	0.0001525221	0.001396044	-2.035304e-06	-2.802031e-06
	-1.840642e-06	-2.617735e-06	0.003875164	-0.001223326	-7.168349e-06	-5.789163e-06	0.000118242	0.001457679
	0.0001525222	0.001396043	-7.168349e-06	-5.789163e-06	0.004117428	-0.001007262	-5.107814e-06	3.809411e-08
	-2.035304e-06	-2.802031e-06	0.0001182369	0.001457677	-5.107814e-06	3.809414e-08	0.003853821	-0.001205634
4e+07	0.004139751	-0.001981619	-2.454505e-06	-2.386069e-06	0.0002351201	0.001860333	-2.717356e-06	-2.562411e-06
	-2.454505e-06	-2.386068e-06	0.004168764	-0.00209827	-9.342521e-06	-5.886824e-06	0.0002029844	0.001925818
	0.0002351208	0.001860332	-9.342521e-06	-5.886824e-06	0.004486833	-0.001882776	-5.40785e-06	9.546322e-08
	-2.717356e-06	-2.562411e-06	0.000202984	0.001925819	-5.40785e-06	9.54632e-08	0.004155781	-0.002080145
5e+07	0.004376808	-0.002907976	-2.98927e-06	-2.124533e-06	0.0003375768	0.002320254	-3.311638e-06	-2.280308e-06
	-2.98927e-06	-2.124533e-06	0.004370167	-0.003028976	-1.123842e-05	-5.514513e-06	0.0003056845	0.002387089
	0.0003375777	0.002320253	-1.123842e-05	-5.514513e-06	0.004757372	-0.002827077	-5.661932e-06	2.63685e-07
	-3.311638e-06	-2.280308e-06	0.000305684	0.002387089	-5.661932e-06	2.63685e-07	0.004363891	-0.003012741
6e+07	0.004534035	-0.003876227	-3.461009e-06	-1.816217e-06	0.0004597606	0.002774982	-3.836505e-06	-1.941701e-06
	-3.461009e-06	-1.816217e-06	0.004492397	-0.003996341	-1.291516e-05	-4.799883e-06	0.0004263458	0.002841422
	0.0004597617	0.002774982	-1.291516e-05	-4.799883e-06	0.004943742	-0.003818487	-5.879036e-06	5.045246e-07
	-3.836505e-06	-1.941701e-06	0.0004263429	0.002841423	-5.879036e-06	5.045246e-07	0.004491851	-0.00398302
7e+07	0.004619446	-0.004873537	-3.87758e-06	-1.45375e-06	0.0006015065	0.003223767	-4.301299e-06	-1.540617e-06
	-3.877581e-06	-1.45375e-06	0.004543125	-0.004988191	-1.440163e-05	-3.794371e-06	0.0005648416	0.003288391
	0.0006015077	0.003223767	-1.440163e-05	-3.794371e-06	0.005054385	-0.004843821	-6.06489e-06	8.002548e-07
	-4.301299e-06	-1.540617e-06	0.0005648369	0.003288394	-6.06489e-06	8.002548e-07	0.004547874	-0.004978856
8e+07	0.004638284	-0.005890868	-4.241756e-06	-1.027942e-06	0.000762615	0.003665971	-4.708814e-06	-1.069789e-06
	-4.241756e-06	-1.027942e-06	0.004527471	-0.005995574	-1.570921e-05	-2.504008e-06	0.0007209362	0.003727399
	0.0007626161	0.003665971	-1.570921e-05	-2.504008e-06	0.005094662	-0.005894248	-6.217023e-06	1.08315e-06
	-4.708814e-06	-1.069789e-06	0.0007209315	0.003727403	-6.217023e-06	1.08315e-06	0.004536991	-0.005991646
9e+07	0.004594292	-0.006921113	-4.550844e-06	-5.182745e-07	0.0009429013	0.004101313	-5.050412e-06	-5.032736e-07
	-4.550844e-06	-5.182745e-07	0.004449283	-0.007010778	-1.682921e-05	-8.75628e-07	0.0008943044	0.004157776
	0.000942902	0.004101312	-1.682921e-05	-8.75628e-07	0.005068075	-0.00696391	-6.413466e-06	1.015165e-06
	-5.050412e-06	-5.032736e-07	0.0008943016	0.004157779	-6.413466e-06	1.015165e-06	0.004462631	-0.007013893
1e+08	0.004490745	-0.007956747	-4.774351e-06	1.891383e-07	0.001142643	0.004532098	-5.300649e-06	2.943849e-07
	-4.774351e-06	1.891383e-07	0.004312925	-0.008021977	-1.766049e-05	1.482453e-06	0.001084563	0.004578765
	0.001142643	0.004532098	-1.766049e-05	1.482453e-06	0.004975845	-0.008053266	-6.636601e-06	8.116841e-07
	-5.300649e-06	2.943849e-07	0.001084563	0.004578765	-6.636601e-06	8.116841e-07	0.004328568	-0.008034467
1.1e+08	0.004337758	-0.009006879	-4.533373e-06	7.801379e-07	0.0013489	0.004954947	-5.027866e-06	9.628557e-07
	-4.533373e-06	7.801379e-07	0.004142671	-0.00904933	-1.68568e-05	3.470246e-06	0.001290601	0.004989565
	0.0013489	0.004954947	-1.68568e-05	3.470246e-06	0.004801379	-0.009148487	-6.561229e-06	5.424252e-07
	-5.027866e-06	9.628557e-07	0.001290601	0.004989564	-6.561229e-06	5.424252e-07	0.004156904	-0.009069452
1.2e+08	0.00412455	-0.01005775	-4.328527e-06	1.168214e-06	0.001572042	0.005361437	-4.850398e-06	1.169066e-06
	-4.328527e-06	1.168214e-06	0.003909812	-0.01008368	-1.640796e-05	3.807986e-06	0.001512839	0.005390269
	0.001572042	0.005361437	-1.640796e-05	3.807986e-06	0.004568555	-0.01023036	-6.474335e-06	4.115665e-07
	-4.850398e-06	1.169066e-06	0.001512839	0.005390269	-6.474335e-06	4.115665e-07	0.003922367	-0.01011021
1.3e+08	0.003854736	-0.01110407	-4.262889e-06	1.034814e-06	0.001812128	0.00575427	-4.789339e-06	9.577841e-07
	-4.262889e-06	1.034814e-06	0.00361864	-0.01111481	-1.62114e-05	3.271321e-06	0.001750812	0.00577997
	0.001812128	0.00575427	-1.62114e-05	3.271321e-06	0.004279368	-0.01130235	-6.39169e-06	3.301803e-07
	-4.789339e-06	9.577841e-07	0.001750812	0.00577997	-6.39169e-06	3.301803e-07	0.003629047	-0.01114738
1.4e+08	0.003530814	-0.0121427	-4.209082e-06	8.97906e-07	0.002068639	0.006133482	-4.72899e-06	7.944423e-07
	-4.209082e-06	8.97906e-07	0.003271766	-0.01213844	-1.601439e-05	2.873767e-06	0.002003983	0.006157902
	0.002068639	0.006133482	-1.601439e-05	2.873767e-06	0.003935994	-0.01236312	-6.311018e-06	2.768496e-07
	-4.72899e-06	7.944423e-07	0.002003983	0.006157902	-6.311018e-06	2.768496e-07	0.003279516	-0.01217678
1.5e+08	0.003154735	-0.01317098	-4.156349e-06	7.89842e-07	0.002340977	0.006498728	-4.670429e-06	6.638554e-07
	-4.156349e-06	7.89842e-07	0.002871206	-0.01315128	-1.582082e-05	2.570274e-06	0.002271777	0.006523366
	0.002340977	0.006498728	-1.582082e-05	2.570274e-06	0.003540287	-0.01341081	-6.233373e-06	2.42851e-07
	-4.670429e-06	6.638554e-07	0.002271777	0.006523366	-6.233373e-06	2.42851e-07	0.002875795	-0.01319513
1.6e+08	0.00272813	-0.01418645	-4.10515e-06	7.029118e-07	0.002628492	0.006849525	-4.614119e-06	5.572877e-07
	-4.10515e-06	7.029118e-07	0.002418662	-0.01415047	-1.563221e-05	2.335101e-06	0.002553587	0.006875708
	0.002628492	0.006849525	-1.563221e-05	2.335101e-06	0.003093863	-0.01444342	-6.158243e-06	2.225243e-07
	-4.614119e-06	5.572877e-07	0.002553587	0.006875708	-6.158243e-06	2.225243e-07	0.002419609	-0.01419956
1.7e+08	0.002252447	-0.01518677	-4.055649e-06	6.321258e-07	0.002930501	0.007185342	-4.560206e-06	4.691096e-07
	-4.055649e-06	6.321258e-07	0.001915671	-0.01513335	-1.544905e-05	2.151765e-06	0.002848781	0.007214316
	0.002930501	0.007185342	-1.544905e-05	2.151765e-06	0.00259819	-0.0154589	-6.085565e-06	2.125412e-07
	-4.560206e-06	4.691096e-07	0.002848781	0.007214316	-6.085565e-06	2.125412e-07	0.001912522	-0.01518739
1.8e+08	0.001729041	-0.01616969	-4.007869e-06	5.74054e-07	0.003246286	0.007505632	-4.508689e-06	3.954531e-07
	-4.007869e-06	5.74054e-07	0.001363689	-0.01609742	-1.527137e-05	2.009023e-06	0.003156704	0.007538606
	0.003246286	0.007505632	-1.527137e-05	2.009023e-06	0.002054657	-0.01645521	-6.015201e-06	2.106214e-07
	-4.508689e-06	3.954531e-07	0.003156704	0.007538606	-6.015201e-06	2.106214e-07	0.001356018	-0.01615612
1.9e+08	0.001159231	-0.017133	-3.961771e-06	5.262171e-07	0.003575076	0.007809865	-4.459497e-06	3.33525e-07
	-3.961771e-06	5.262171e-07	0.0007641517	-0.01704029	-1.5099e-05	1.898804e-06	0.003476675	0.007848032
	0.003575076	0.007809865	-1.5099e-05	1.898804e-06	0.001464618	-0.01743032	-5.946987e-06	2.151228e-07
	-4.459497e-06	3.33525e-07	0.003476676	0.007848032	-5.946987e-06	2.151228e-07	0.0007515603	-0.01710334
2e+08	0.0005442688	-0.01807469	-3.917103e-06	4.867216e-07	0.003927067	0.00809269	-4.412455e-06	2.812321e-07
	-3.917103e-06	4.867216e-07	0.0001185048	-0.01795968	-1.49316e-05	1.815107e-06	0.003807994	0.008142075
	0.003927067	0.00809269	-1.49316e-05	1.815107e-06	0.0008293563	-0.01838236	-5.880701e-06	2.248112e-07
	-4.412455e-06	2.812321e-07	0.003807994	0.008142075	-5.880701e-06	2.248112e-07	0.0001006189	-0.01802677
2.1e+08	-0.0001144445	-0.01899263	-3.87396e-06	4.541848e-07	0.004290636	0.008357826	-4.367523e-06	2.369822e-07
	-3.87396e-06	4.541848e-07	-0.0005717737	-0.01885341	-1.476892e-05	1.753351e-06	0.004149935	0.008420249
	0.004290636	0.008357826	-1.476892e-05	1.753351e-06	0.0001503024	-0.01930928	-5.816231e-06	2.387567e-07
	-4.367523e-06	2.369822e-07	0.004149935	0.008420249	-5.816231e-06	2.387567e-07	-0.000595305	-0.0189242
2.2e+08	-0.00081552	-0.01988482	-3.832263e-06	4.274948e-07	0.004664296	0.008605098	-4.324588e-06	1.995246e-07
	-3.832263e-06	4.274948e-07	-0.001305164	-0.01971938	-1.461062e-05	1.709961e-06	0.004501753	0.008682101
	0.004664296	0.008605098	-1.461062e-05	1.709961e-06	-0.0005711299	-0.0202092	-5.753426e-06	2.562228e-07
	-4.324588e-06	1.995246e-07	0.004501753	0.008682101	-5.753426e-06	2.562228e-07	-0.001334669	-0.01979354
2.3e+08	-0.001557528	-0.02074938	-3.791918e-06	4.057681e-07	0.005047209	0.008834083	-4.283528e-06	1.678681e-07
	-3.791918e-06	4.057681e-07	-0.002080094	-0.02055561	-1.445636e-05	1.682102e-06	0.004862682	0.008927212
	0.005047209	0.008834083	-1.445636e-05	1.682102e-06	-0.001333487	-0.02108028	-5.692138e-06	2.76622e-07
	-4.283528e-06	1.678681e-07	0.004862682	0.008927212	-5.692138e-06	2.76622e-07	-0.002115883	-0.02063279
2.4e+08	-0.002338992	-0.02158448	-3.752845e-06	3.882794e-07	0.005438517	0.009044389	-4.244239e-06	1.412008e-07
	-3.752845e-06	3.882794e-07	-0.002894944	-0.02136019	-1.430584e-05	1.667458e-06	0.00523194	0.009155195
	0.005438517	0.009044389	-1.430584e-05	1.667458e-06	-0.002135273	-0.02192078	-5.63224e-06	2.994746e-07
	-4.244239e-06	1.412008e-07	0.00523194	0.009155195	-5.63224e-06	2.994746e-07	-0.002937309	-0.02144003
2.5e+08	-0.003158385	-0.02238838	-3.714962e-06	3.744409e-07	0.005837341	0.009235665	-4.206614e-06	1.188649e-07
	-3.714962e-06	3.744409e-07	-0.003748043	-0.02213134	-1.415875e-05	1.664149e-06	0.005608725	0.0093657
	0.005837341	0.009235665	-1.415875e-05	1.664149e-06	-0.002974941	-0.02272901	-5.573609e-06	3.243878e-07
	-4.206614e-06	1.188649e-07	0.005608725	0.0093657	-5.573609e-06	3.243878e-07	-0.003797254	-0.02221347
2.6e+08	-0.004014131	-0.02315944	-3.67818e-06	3.637544e-07	0.006242785	0.009407596	-4.170559e-06	1.003128e-07
	-3.67818e-06	3.637544e-07	-0.00463767	-0.02286735	-1.401463e-05	1.6706e-06	0.00599222	0.009558415
	0.006242785	0.009407596	-1.401463e-05	1.6706e-06	-0.003850899	-0.02350336	-5.516135e-06	3.51033e-07
	-4.170559e-06	1.003128e-07	0.00599222	0.009558415	-5.516135e-06	3.51033e-07	-0.004693979	-0.0229514
2.7e+08	-0.004904603	-0.0238961	-3.642434e-06	3.558184e-07	0.006653938	0.009559909	-4.135972e-06	8.508967e-08
	-3.642434e-06	3.558184e-07	-0.005562051	-0.02356661	-1.387337e-05	1.685508e-06	0.006381596	0.009733063
	0.006653938	0.009559909	-1.387337e-05	1.685508e-06	-0.004761499	-0.0242423	-5.459711e-06	3.791357e-07
	-4.135972e-06	8.508967e-08	0.006381596	0.009733063	-5.459711e-06	3.791357e-07	-0.005625692	-0.02365219
2.8e+08	-0.005828136	-0.02459687	-3.607667e-06	3.502877e-07	0.007069874	0.009692371	-4.102774e-06	7.280986e-08
	-3.607667e-06	3.502877e-07	-0.006519373	-0.02422763	-1.373474e-05	1.707763e-06	0.006776009	0.009889405
	0.007069874	0.009692371	-1.373474e-05	1.707763e-06	-0.005705058	-0.02494438	-5.404249e-06	4.084623e-07
	-4.102774e-06	7.280986e-08	0.006776009	0.009889405	-5.404249e-06	4.084623e-07	-0.006590561	-0.02431432
2.9e+08	-0.006783021	-0.02526036	-3.573818e-06	3.468676e-07	0.00748966	0.009804791	-4.070886e-06	6.314598e-08
	-3.573818e-06	3.468676e-07	-0.007507778	-0.02484898	-1.359854e-05	1.736417e-06	0.007174607	0.01002724
	0.00748966	0.009804791	-1.359854e-05	1.736417e-06	-0.006679847	-0.02560825	-5.349663e-06	4.388126e-07
	-4.070886e-06	6.314598e-08	0.007174607	0.01002724	-5.349663e-06	4.388126e-07	-0.007586708	-0.02493639
3e+08	-0.007767504	-0.02588527	-3.540825e-06	3.453068e-07	0.007912351	0.009897021	-4.040225e-06	5.581918e-08
	-3.540825e-06	3.453068e-07	-0.008525367	-0.02542936	-1.346452e-05	1.770659e-06	0.007576529	0.01014642
	0.007912351	0.009897021	-1.346452e-05	1.770659e-06	-0.007684093	-0.02623261	-5.295872e-06	4.700136e-07
	-4.040225e-06	5.581918e-08	0.007576529	0.01014642	-5.295872e-06	4.700136e-07	-0.008612215	-0.02551707
3.1e+08	-0.008779801	-0.02647037	-3.508643e-06	3.45388e-07	0.008336997	0.009968957	-4.010731e-06	5.058915e-08
	-3.508643e-06	3.45388e-07	-0.009570211	-0.02596755	-1.333251e-05	1.809784e-06	0.007980907	0.0102468
	0.008336997	0.009968957	-1.333251e-05	1.809784e-06	-0.008715991	-0.02681627	-5.242811e-06	5.019159e-07
	-4.010731e-06	5.058915e-08	0.007980907	0.0102468	-5.242811e-06	5.019159e-07	-0.009665131	-0.02605512
3.2e+08	-0.009818094	-0.02701454	-3.477221e-06	3.469229e-07	0.008762642	0.01002054	-3.982335e-06	4.724793e-08
	-3.477221e-06	3.469229e-07	-0.01064034	-0.02646242	-1.320233e-05	1.853178e-06	0.008386869	0.01032832
	0.008762642	0.01002054	-1.320233e-05	1.853178e-06	-0.009773699	-0.02735812	-5.190413e-06	5.343887e-07
	-3.982335e-06	4.724793e-08	0.008386869	0.01032832	-5.190413e-06	5.343887e-07	-0.01074347	-0.02654942
3.3e+08	-0.01088053	-0.02751674	-3.44651e-06	3.497474e-07	0.009188331	0.01005174	-3.954972e-06	4.561451e-08
	-3.44651e-06	3.497474e-07	-0.01173377	-0.02691295	-1.307378e-05	1.900302e-06	0.00879354	0.01039094
	0.009188331	0.01005174	-1.307378e-05	1.900302e-06	-0.01085534	-0.02785713	-5.138612e-06	5.673155e-07
	-3.954972e-06	4.561451e-08	0.00879354	0.01039094	-5.138612e-06	5.673155e-07	-0.01184521	-0.02699893
3.4e+08	-0.01196523	-0.02797599	-3.416473e-06	3.537184e-07	0.009613106	0.01006261	-3.928588e-06	4.553163e-08
	-3.416473e-06	3.537184e-07	-0.01284846	-0.02731819	-1.294671e-05	1.950681e-06	0.009200044	0.01043464
	0.009613106	0.01006261	-1.294671e-05	1.950681e-06	-0.01195902	-0.02831236	-5.08736e-06	6.005953e-07
	-3.928588e-06	4.553163e-08	0.009200044	0.01043464	-5.08736e-06	6.005953e-07	-0.01296832	-0.02740272
3.5e+08	-0.0130703	-0.02839144	-3.387066e-06	3.587093e-07	0.01003601	0.01005319	-3.903127e-06	4.68602e-08
	-3.387066e-06	3.587093e-07	-0.01398239	-0.02767732	-1.282099e-05	2.003892e-06	0.009605506	0.01045948
	0.01003601	0.01005319	-1.282099e-05	2.003892e-06	-0.01308281	-0.02872294	-5.036603e-06	6.341366e-07
	-3.903127e-06	4.68602e-08	0.009605506	0.01045948	-5.036603e-06	6.341366e-07	-0.01411072	-0.02775993
3.6e+08	-0.01419381	-0.02876228	-3.358259e-06	3.64609e-07	0.0104561	0.01002362	-3.878541e-06	4.947878e-08
	-3.358259e-06	3.64609e-07	-0.01513348	-0.02798959	-1.269647e-05	2.059558e-06	0.01000906	0.01046553
	0.0104561	0.01002362	-1.269647e-05	2.059558e-06	-0.01422475	-0.02908812	-4.986296e-06	6.678592e-07
	-3.878541e-06	4.947878e-08	0.01000906	0.01046553	-4.986296e-06	6.678592e-07	-0.01527033	-0.02806982
3.7e+08	-0.01533381	-0.02908782	-3.330015e-06	3.713188e-07	0.01087242	0.009974052	-3.854781e-06	5.327963e-08
	-3.330015e-06	3.713188e-07	-0.01629966	-0.02825434	-1.257302e-05	2.117341e-06	0.01040982	0.01045292
	0.01087242	0.009974052	-1.257302e-05	2.117341e-06	-0.01538289	-0.0294072	-4.936397e-06	7.016902e-07
	-3.854781e-06	5.327963e-08	0.01040982	0.01045292	-4.936397e-06	7.016902e-07	-0.01644504	-0.02833173
3.8e+08	-0.01648836	-0.02936745	-3.302304e-06	3.787512e-07	0.01128404	0.009904683	-3.831803e-06	5.816708e-08
	-3.302304e-06	3.787512e-07	-0.01747884	-0.02847101	-1.245053e-05	2.176937e-06	0.01080695	0.01042179
	0.01128404	0.009904683	-1.245053e-05	2.176937e-06	-0.01655523	-0.02967959	-4.886867e-06	7.355638e-07
	-3.831803e-06	5.816708e-08	0.01080695	0.01042179	-4.886867e-06	7.355638e-07	-0.01763275	-0.02854509
3.9e+08	-0.01765547	-0.02960062	-3.275096e-06	3.868278e-07	0.01169004	0.009815761	-3.809563e-06	6.405599e-08
	-3.275096e-06	3.868278e-07	-0.0186689	-0.02863914	-1.232888e-05	2.238069e-06	0.01119959	0.01037236
	0.01169004	0.009815761	-1.232888e-05	2.238069e-06	-0.01773979	-0.02990476	-4.837668e-06	7.694206e-07
	-3.809563e-06	6.405599e-08	0.01119959	0.01037236	-4.837668e-06	7.694206e-07	-0.01883131	-0.02870944
4e+08	-0.01883317	-0.0297869	-3.248362e-06	3.954781e-07	0.01208949	0.009707575	-3.788019e-06	7.086943e-08
	-3.248362e-06	3.954781e-07	-0.01986774	-0.02875834	-1.220797e-05	2.300482e-06	0.01158689	0.01030485
	0.01208949	0.009707575	-1.220797e-05	2.300482e-06	-0.01893455	-0.0300823	-4.788766e-06	8.032056e-07
	-3.788019e-06	7.086943e-08	0.01158689	0.01030485	-4.788766e-06	8.032056e-07	-0.0200386	-0.0288244
4.1e+08	-0.02001947	-0.02992592	-3.222077e-06	4.046393e-07	0.01248151	0.009580455	-3.767132e-06	7.853932e-08
	-3.222077e-06	4.046393e-07	-0.02107324	-0.02882833	-1.20877e-05	2.363947e-06	0.01196803	0.01021955
	0.01248151	0.009580455	-1.20877e-05	2.363947e-06	-0.0201375	-0.03021185	-4.740131e-06	8.368693e-07
	-3.767132e-06	7.853932e-08	0.01196803	0.01021955	-4.740131e-06	8.368693e-07	-0.02125249	-0.02888969
4.2e+08	-0.02121238	-0.03001739	-3.196219e-06	4.142551e-07	0.01286521	0.009434772	-3.746867e-06	8.70048e-08
	-3.196219e-06	4.142551e-07	-0.0222833	-0.02884892	-1.196798e-05	2.428253e-06	0.01234219	0.01011677
	0.01286521	0.009434772	-1.196798e-05	2.428253e-06	-0.02134662	-0.03029316	-4.691735e-06	8.703667e-07
	-3.746867e-06	8.70048e-08	0.01234219	0.01011677	-4.691735e-06	8.703667e-07	-0.02247082	-0.0289051
4.3e+08	-0.02240989	-0.03006112	-3.170764e-06	4.24275e-07	0.01323971	0.009270936	-3.72719e-06	9.621096e-08
	-3.170764e-06	4.24275e-07	-0.0234958	-0.02881999	-1.184875e-05	2.493206e-06	0.01270857	0.009996851
	0.01323971	0.009270936	-1.184875e-05	2.493206e-06	-0.0225599	-0.03032604	-4.643553e-06	9.036563e-07
	-3.72719e-06	9.621096e-08	0.01270857	0.009996851	-4.643553e-06	9.036563e-07	-0.02369147	-0.02887055
4.4e+08	-0.02361003	-0.03005699	-3.145691e-06	4.346523e-07	0.01360419	0.0090894	-3.708066e-06	1.061074e-07
	-3.145691e-06	4.346523e-07	-0.02470863	-0.02874154	-1.172991e-05	2.558622e-06	0.0130664	0.00986019
	0.01360419	0.0090894	-1.172991e-05	2.558622e-06	-0.02377531	-0.03031041	-4.59556e-06	9.36699e-07
	-3.708066e-06	1.061074e-07	0.0130664	0.00986019	-4.59556e-06	9.36699e-07	-0.02491231	-0.02878602
4.5e+08	-0.02481079	-0.03000498	-3.120979e-06	4.453451e-07	0.01395781	0.008890652	-3.689463e-06	1.166484e-07
	-3.120979e-06	4.453451e-07	-0.02591969	-0.02861362	-1.16114e-05	2.624332e-06	0.0134149	0.009707205
	0.01395781	0.008890652	-1.16114e-05	2.624332e-06	-0.02499085	-0.03024625	-4.547733e-06	9.694583e-07
	-3.689463e-06	1.166484e-07	0.0134149	0.009707205	-4.547733e-06	9.694583e-07	-0.02613121	-0.02865157
4.6e+08	-0.02601021	-0.02990512	-3.096611e-06	4.563157e-07	0.01429978	0.00867522	-3.671338e-06	1.277873e-07
	-3.096611e-06	4.563157e-07	-0.0271269	-0.0284364	-1.149314e-05	2.690167e-06	0.01375333	0.009538353
	0.01429978	0.00867522	-1.149314e-05	2.690167e-06	-0.02620452	-0.03013364	-4.500008e-06	1.00188e-06
	-3.671338e-06	1.277873e-07	0.01375333	0.009538353	-4.500008e-06	1.00188e-06	-0.02734608	-0.02846739
4.7e+08	-0.0272063	-0.02975755	-3.072567e-06	4.675281e-07	0.01462931	0.008443668	-3.653672e-06	1.3949e-07
	-3.072567e-06	4.675281e-07	-0.0283282	-0.02821012	-1.137502e-05	2.755949e-06	0.01408098	0.009354122
