!$
! Info: Touchstone file created by Circ.  Input file=Tx_2in_Rx_93ohms_TxVia_10mils_RxVia_20mils.circ
!$
# Hz S RI R 50
0	0.001960708	2.539971e-26	2.335103e-12	1.102261e-28	2.453257e-05	2.410985e-24	-4.772718e-09	5.844649e-25
	2.336724e-12	1.104155e-28	0.001963585	2.850894e-26	-1.757035e-12	2.077815e-28	2.196021e-05	2.721936e-24
	2.458111e-05	2.412394e-24	-1.80646e-12	2.138097e-28	0.001975744	2.54865e-26	-1.308564e-09	1.602421e-25
	-4.770554e-09	5.841998e-25	2.341893e-05	2.801528e-24	-1.30861e-09	1.602477e-25	0.001969247	2.725003e-26
1e+07	0.002705753	0.0001159882	5.267208e-14	-1.640273e-12	4.583105e-05	0.0004577194	-1.050643e-08	1.574819e-08
	5.275881e-14	-1.640541e-12	0.002859811	0.0001016156	-6.247458e-13	-2.814378e-12	4.574107e-05	0.0004877511
	4.583564e-05	0.0004577167	-6.247971e-13	-2.814124e-12	0.00290848	0.0002260213	-7.967733e-09	1.545356e-08
	-1.050643e-08	1.574819e-08	4.577311e-05	0.0004877397	-7.967733e-09	1.545356e-08	0.002819468	9.766839e-05
2e+07	0.003356598	-0.0003595544	1.295363e-12	-2.499741e-12	8.977343e-05	0.0009283906	-9.024126e-09	1.259201e-08
	1.295232e-12	-2.499927e-12	0.003462781	-0.0004418669	2.023463e-12	-3.612991e-12	6.403988e-05	0.0009812122
	8.977288e-05	0.0009283876	2.023558e-12	-3.612788e-12	0.003618789	-0.000244838	-1.007997e-08	1.102419e-08
	-9.024126e-09	1.259201e-08	6.403678e-05	0.0009811913	-1.007997e-08	1.102419e-08	0.003432696	-0.0004292536
3e+07	0.003809097	-0.001117951	7.450295e-13	-3.749931e-12	0.0001525221	0.001396044	-7.389256e-09	1.101273e-08
	7.449867e-13	-3.749926e-12	0.003875164	-0.001223326	-3.032986e-13	-6.313693e-12	0.000118242	0.001457679
	0.0001525222	0.001396043	-3.032546e-13	-6.313697e-12	0.004117428	-0.001007262	-7.708064e-09	1.1495e-08
	-7.389256e-09	1.101273e-08	0.0001182369	0.001457677	-7.708064e-09	1.1495e-08	0.003853821	-0.001205634
4e+07	0.004139751	-0.001981619	9.642164e-14	-4.546304e-12	0.0002351201	0.001860333	-6.266497e-09	1.007774e-08
	9.645357e-14	-4.546288e-12	0.004168764	-0.00209827	-1.534552e-12	-7.588977e-12	0.0002029844	0.001925818
	0.0002351208	0.001860332	-1.534587e-12	-7.588993e-12	0.004486833	-0.001882776	-6.06139e-09	1.128953e-08
	-6.266497e-09	1.007774e-08	0.000202984	0.001925819	-6.06139e-09	1.128953e-08	0.004155781	-0.002080145
5e+07	0.004376808	-0.002907976	1.763998e-13	-5.896854e-12	0.0003375768	0.002320254	-5.656892e-09	9.788933e-09
	1.764186e-13	-5.896851e-12	0.004370167	-0.003028976	-1.791357e-12	-9.530515e-12	0.0003056845	0.002387089
	0.0003375777	0.002320253	-1.791378e-12	-9.530518e-12	0.004757372	-0.002827077	-5.774098e-09	1.134539e-08
	-5.656892e-09	9.788933e-09	0.000305684	0.002387089	-5.774098e-09	1.134539e-08	0.004363891	-0.003012741
6e+07	0.004534035	-0.003876227	1.154919e-12	-1.101289e-11	0.0004597606	0.002774982	-5.486487e-09	1.065374e-08
	1.154893e-12	-1.101286e-11	0.004492397	-0.003996341	2.322686e-12	-1.374317e-11	0.0004263458	0.002841422
	0.0004597617	0.002774982	2.32272e-12	-1.374319e-11	0.004943742	-0.003818487	-8.223507e-09	1.188755e-08
	-5.486487e-09	1.065374e-08	0.0004263429	0.002841423	-8.223507e-09	1.188755e-08	0.004491851	-0.00398302
7e+07	0.004619446	-0.004873537	-2.476572e-12	-3.518368e-11	0.0006015065	0.003223767	-5.314385e-09	1.595518e-08
	-2.476651e-12	-3.518358e-11	0.004543125	-0.004988191	1.959693e-11	1.932038e-11	0.0005648416	0.003288391
	0.0006015077	0.003223767	1.959706e-11	1.932039e-11	0.005054385	-0.004843821	-1.694437e-08	4.277796e-09
	-5.314384e-09	1.595518e-08	0.0005648369	0.003288394	-1.694437e-08	4.277796e-09	0.004547874	-0.004978856
8e+07	0.004638284	-0.005890868	-6.300887e-10	7.551138e-11	0.000762615	0.003665971	3.622665e-08	6.203438e-10
	-6.300884e-10	7.55115e-11	0.004527471	-0.005995574	-3.629812e-11	-1.263139e-11	0.0007209362	0.003727399
	0.0007626161	0.003665971	-3.629807e-11	-1.263135e-11	0.005094662	-0.005894248	-5.233553e-09	-4.587596e-09
	3.622665e-08	6.203439e-10	0.0007209315	0.003727403	-5.233552e-09	-4.587596e-09	0.004536991	-0.005991646
9e+07	0.004594292	-0.006921113	2.764317e-11	-7.139862e-11	0.0009429013	0.004101313	2.64934e-09	-2.413947e-09
	2.764325e-11	-7.139863e-11	0.004449283	-0.007010778	-1.417724e-11	-2.164186e-11	0.0008943044	0.004157776
	0.000942902	0.004101312	-1.417725e-11	-2.164187e-11	0.005068075	-0.00696391	-9.271597e-10	-1.476647e-09
	2.64934e-09	-2.413947e-09	0.0008943016	0.004157779	-9.271596e-10	-1.476647e-09	0.004462631	-0.007013893
1e+08	0.004490745	-0.007956747	-6.635397e-12	-1.557177e-11	0.001142643	0.004532098	-3.375089e-12	-2.890144e-12
	-6.635397e-12	-1.557177e-11	0.004312925	-0.008021977	-8.771553e-12	-2.149178e-11	0.001084563	0.004578765
	0.001142643	0.004532098	-8.771553e-12	-2.149178e-11	0.004975845	-0.008053266	-7.643381e-12	-1.426696e-11
	-3.375089e-12	-2.890144e-12	0.001084563	0.004578765	-7.643381e-12	-1.426696e-11	0.004328568	-0.008034467
1.1e+08	0.004337758	-0.009006879	-8.096018e-12	-1.620411e-11	0.0013489	0.004954947	-4.014363e-12	-2.813006e-12
	-8.096018e-12	-1.620411e-11	0.004142671	-0.00904933	-1.006512e-11	-2.285571e-11	0.001290601	0.004989565
	0.0013489	0.004954947	-1.006512e-11	-2.285571e-11	0.004801379	-0.009148487	-9.34123e-12	-1.471674e-11
	-4.014363e-12	-2.813006e-12	0.001290601	0.004989564	-9.34123e-12	-1.471674e-11	0.004156904	-0.009069452
1.2e+08	0.00412455	-0.01005775	-9.019376e-12	-1.707357e-11	0.001572042	0.005361437	-4.604714e-12	-2.730094e-12
	-9.019376e-12	-1.707357e-11	0.003909812	-0.01008368	-1.114651e-11	-2.425983e-11	0.001512839	0.005390269
	0.001572042	0.005361437	-1.114651e-11	-2.425983e-11	0.004568555	-0.01023036	-1.055058e-11	-1.537046e-11
	-4.604714e-12	-2.730094e-12	0.001512839	0.005390269	-1.055058e-11	-1.537046e-11	0.003922367	-0.01011021
1.3e+08	0.003854736	-0.01110407	-9.485595e-12	-1.818233e-11	0.001812128	0.00575427	-5.007261e-12	-2.759199e-12
	-9.485595e-12	-1.818233e-11	0.00361864	-0.01111481	-1.194968e-11	-2.574092e-11	0.001750812	0.00577997
	0.001812128	0.00575427	-1.194968e-11	-2.574092e-11	0.004279368	-0.01130235	-1.139612e-11	-1.620024e-11
	-5.007261e-12	-2.759199e-12	0.001750812	0.00577997	-1.139612e-11	-1.620024e-11	0.003629047	-0.01114738
1.4e+08	0.003530814	-0.0121427	-9.993919e-12	-1.923864e-11	0.002068639	0.006133482	-5.432818e-12	-2.759428e-12
	-9.993919e-12	-1.923864e-11	0.003271766	-0.01213844	-1.278956e-11	-2.714465e-11	0.002003983	0.006157902
	0.002068639	0.006133482	-1.278956e-11	-2.714465e-11	0.003935994	-0.01236312	-1.231065e-11	-1.694473e-11
	-5.432818e-12	-2.759428e-12	0.002003983	0.006157902	-1.231065e-11	-1.694473e-11	0.003279516	-0.01217678
1.5e+08	0.003154735	-0.01317098	-1.054322e-11	-2.024223e-11	0.002340977	0.006498728	-5.89084e-12	-2.721248e-12
	-1.054322e-11	-2.024223e-11	0.002871206	-0.01315128	-1.367098e-11	-2.84686e-11	0.002271777	0.006523366
	0.002340977	0.006498728	-1.367098e-11	-2.84686e-11	0.003540287	-0.01341081	-1.326767e-11	-1.761447e-11
	-5.89084e-12	-2.721248e-12	0.002271777	0.006523366	-1.326767e-11	-1.761447e-11	0.002875795	-0.01319513
1.6e+08	0.00272813	-0.01418645	-1.112701e-11	-2.119587e-11	0.002628492	0.006849525	-6.376589e-12	-2.644838e-12
	-1.112701e-11	-2.119587e-11	0.002418662	-0.01415047	-1.458694e-11	-2.971389e-11	0.002553587	0.006875708
	0.002628492	0.006849525	-1.458694e-11	-2.971389e-11	0.003093863	-0.01444342	-1.427746e-11	-1.820193e-11
	-6.376589e-12	-2.644838e-12	0.002553587	0.006875708	-1.427746e-11	-1.820193e-11	0.002419609	-0.01419956
1.7e+08	0.002252447	-0.01518677	-1.174087e-11	-2.210098e-11	0.002930501	0.007185342	-6.886925e-12	-2.530167e-12
	-1.174087e-11	-2.210098e-11	0.001915671	-0.01513335	-1.553201e-11	-3.088108e-11	0.002848781	0.007214316
	0.002930501	0.007185342	-1.553201e-11	-3.088108e-11	0.00259819	-0.0154589	-1.533325e-11	-1.870737e-11
	-6.886925e-12	-2.530167e-12	0.002848781	0.007214316	-1.533325e-11	-1.870737e-11	0.001912522	-0.01518739
1.8e+08	0.001729041	-0.01616969	-1.238141e-11	-2.295829e-11	0.003246286	0.007505632	-7.419153e-12	-2.376933e-12
	-1.238141e-11	-2.295829e-11	0.001363689	-0.01609742	-1.650139e-11	-3.19703e-11	0.003156704	0.007538606
	0.003246286	0.007505632	-1.650139e-11	-3.19703e-11	0.002054657	-0.01645521	-1.642921e-11	-1.913046e-11
	-7.419153e-12	-2.376933e-12	0.003156704	0.007538606	-1.642921e-11	-1.913046e-11	0.001356018	-0.01615612
1.9e+08	0.001159231	-0.017133	-1.304575e-11	-2.376811e-11	0.003575076	0.007809865	-7.970792e-12	-2.184721e-12
	-1.304575e-11	-2.376811e-11	0.0007641517	-0.01704029	-1.749049e-11	-3.298151e-11	0.003476675	0.007848032
	0.003575076	0.007809865	-1.749049e-11	-3.298151e-11	0.001464618	-0.01743032	-1.756002e-11	-1.947065e-11
	-7.970792e-12	-2.184721e-12	0.003476676	0.007848032	-1.756002e-11	-1.947065e-11	0.0007515603	-0.01710334
2e+08	0.0005442688	-0.01807469	-1.373094e-11	-2.453006e-11	0.003927067	0.00809269	-8.539318e-12	-1.952814e-12
	-1.373094e-11	-2.453006e-11	0.0001185048	-0.01795968	-1.849461e-11	-3.391423e-11	0.003807994	0.008142075
	0.003927067	0.00809269	-1.849461e-11	-3.391423e-11	0.0008293563	-0.01838236	-1.872045e-11	-1.972719e-11
	-8.539318e-12	-1.952814e-12	0.003807994	0.008142075	-1.872045e-11	-1.972719e-11	0.0001006189	-0.01802677
2.1e+08	-0.0001144445	-0.01899263	-1.443477e-11	-2.524451e-11	0.004290636	0.008357826	-9.122588e-12	-1.681016e-12
	-1.443477e-11	-2.524451e-11	-0.0005717737	-0.01885341	-1.950952e-11	-3.476878e-11	0.004149935	0.008420249
	0.004290636	0.008357826	-1.950952e-11	-3.476878e-11	0.0001503024	-0.01930928	-1.990557e-11	-1.989959e-11
	-9.122588e-12	-1.681016e-12	0.004149935	0.008420249	-1.990557e-11	-1.989959e-11	-0.000595305	-0.0189242
2.2e+08	-0.00081552	-0.01988482	-1.515481e-11	-2.591141e-11	0.004664296	0.008605098	-9.718262e-12	-1.368942e-12
	-1.515481e-11	-2.591141e-11	-0.001305164	-0.01971938	-2.053075e-11	-3.554528e-11	0.004501753	0.008682101
	0.004664296	0.008605098	-2.053075e-11	-3.554528e-11	-0.0005711299	-0.0202092	-2.111041e-11	-1.998736e-11
	-9.718262e-12	-1.368942e-12	0.004501753	0.008682101	-2.111041e-11	-1.998736e-11	-0.001334669	-0.01979354
2.3e+08	-0.001557528	-0.02074938	-1.588869e-11	-2.653062e-11	0.005047209	0.008834083	-1.032406e-11	-1.016243e-12
	-1.588869e-11	-2.653062e-11	-0.002080094	-0.02055561	-2.155386e-11	-3.624394e-11	0.004862682	0.008927212
	0.005047209	0.008834083	-2.155386e-11	-3.624394e-11	-0.001333487	-0.02108028	-2.233005e-11	-1.999013e-11
	-1.032406e-11	-1.016243e-12	0.004862682	0.008927212	-2.233005e-11	-1.999013e-11	-0.002115883	-0.02063279
2.4e+08	-0.002338992	-0.02158448	-1.663402e-11	-2.710205e-11	0.005438517	0.009044389	-1.093771e-11	-6.226617e-13
	-1.663402e-11	-2.710205e-11	-0.002894944	-0.02136019	-2.257434e-11	-3.686521e-11	0.00523194	0.009155195
	0.005438517	0.009044389	-2.257434e-11	-3.686521e-11	-0.002135273	-0.02192078	-2.355954e-11	-1.990779e-11
	-1.093771e-11	-6.226617e-13	0.00523194	0.009155195	-2.355954e-11	-1.990779e-11	-0.002937309	-0.02144003
2.5e+08	-0.003158385	-0.02238838	-1.738845e-11	-2.762564e-11	0.005837341	0.009235665	-1.155694e-11	-1.880107e-13
	-1.738845e-11	-2.762564e-11	-0.003748043	-0.02213134	-2.35877e-11	-3.740971e-11	0.005608725	0.0093657
	0.005837341	0.009235665	-2.35877e-11	-3.740971e-11	-0.002974941	-0.02272901	-2.479398e-11	-1.974039e-11
	-1.155694e-11	-1.880107e-13	0.005608725	0.0093657	-2.479398e-11	-1.974039e-11	-0.003797254	-0.02221347
2.6e+08	-0.004014131	-0.02315944	-1.814783e-11	-2.810019e-11	0.006242785	0.009407596	-1.217946e-11	2.877926e-13
	-1.814783e-11	-2.810019e-11	-0.00463767	-0.02286735	-2.458774e-11	-3.788087e-11	0.00599222	0.009558415
	0.006242785	0.009407596	-2.458774e-11	-3.788087e-11	-0.003850899	-0.02350336	-2.602839e-11	-1.94881e-11
	-1.217946e-11	2.877926e-13	0.00599222	0.009558415	-2.602839e-11	-1.94881e-11	-0.004693979	-0.0229514
2.7e+08	-0.004904603	-0.0238961	-1.8911e-11	-2.852681e-11	0.006653938	0.009559909	-1.280301e-11	8.047613e-13
	-1.8911e-11	-2.852681e-11	-0.005562051	-0.02356661	-2.557125e-11	-3.82781e-11	0.006381596	0.009733063
	0.006653938	0.009559909	-2.557125e-11	-3.82781e-11	-0.004761499	-0.0242423	-2.725795e-11	-1.91515e-11
	-1.280301e-11	8.047613e-13	0.006381596	0.009733063	-2.725795e-11	-1.91515e-11	-0.005625692	-0.02365219
2.8e+08	-0.005828136	-0.02459687	-1.967587e-11	-2.890588e-11	0.007069874	0.009692371	-1.342536e-11	1.362791e-12
	-1.967587e-11	-2.890588e-11	-0.006519373	-0.02422763	-2.653412e-11	-3.860236e-11	0.006776009	0.009889405
	0.007069874	0.009692371	-2.653412e-11	-3.860236e-11	-0.005705058	-0.02494438	-2.847782e-11	-1.873136e-11
	-1.342536e-11	1.362791e-12	0.006776009	0.009889405	-2.847782e-11	-1.873136e-11	-0.006590561	-0.02431432
2.9e+08	-0.006783021	-0.02526036	-2.044004e-11	-2.923764e-11	0.00748966	0.009804791	-1.404424e-11	1.96168e-12
	-2.044004e-11	-2.923764e-11	-0.007507778	-0.02484898	-2.747198e-11	-3.885525e-11	0.007174607	0.01002724
	0.00748966	0.009804791	-2.747198e-11	-3.885525e-11	-0.006679847	-0.02560825	-2.968321e-11	-1.822865e-11
	-1.404424e-11	1.96168e-12	0.007174607	0.01002724	-2.968321e-11	-1.822865e-11	-0.007586708	-0.02493639
3e+08	-0.007767504	-0.02588527	-2.120112e-11	-2.95224e-11	0.007912351	0.009897021	-1.465744e-11	2.601138e-12
	-2.120112e-11	-2.95224e-11	-0.008525367	-0.02542936	-2.838056e-11	-3.903857e-11	0.007576529	0.01014642
	0.007912351	0.009897021	-2.838056e-11	-3.903857e-11	-0.007684093	-0.02623261	-3.086939e-11	-1.764459e-11
	-1.465744e-11	2.601138e-12	0.007576529	0.01014642	-3.086939e-11	-1.764459e-11	-0.008612215	-0.02551707
3.1e+08	-0.008779801	-0.02647037	-2.195675e-11	-2.976061e-11	0.008336997	0.009968957	-1.526274e-11	3.280754e-12
	-2.195675e-11	-2.976061e-11	-0.009570211	-0.02596755	-2.925569e-11	-3.915443e-11	0.007980907	0.0102468
	0.008336997	0.009968957	-2.925569e-11	-3.915443e-11	-0.008715991	-0.02681627	-3.20317e-11	-1.698065e-11
	-1.526274e-11	3.280754e-12	0.007980907	0.0102468	-3.20317e-11	-1.698065e-11	-0.009665131	-0.02605512
3.2e+08	-0.009818094	-0.02701454	-2.270456e-11	-2.995279e-11	0.008762642	0.01002054	-1.585797e-11	4.000025e-12
	-2.270456e-11	-2.995279e-11	-0.01064034	-0.02646242	-3.009327e-11	-3.92051e-11	0.008386869	0.01032832
	0.008762642	0.01002054	-3.009327e-11	-3.92051e-11	-0.009773699	-0.02735812	-3.316557e-11	-1.623852e-11
	-1.585797e-11	4.000025e-12	0.008386869	0.01032832	-3.316557e-11	-1.623852e-11	-0.01074347	-0.02654942
3.3e+08	-0.01088053	-0.02751674	-2.344218e-11	-3.009954e-11	0.009188331	0.01005174	-1.644096e-11	4.758353e-12
	-2.344218e-11	-3.009954e-11	-0.01173377	-0.02691295	-3.088932e-11	-3.91931e-11	0.00879354	0.01039094
	0.009188331	0.01005174	-3.088932e-11	-3.91931e-11	-0.01085534	-0.02785713	-3.426651e-11	-1.542011e-11
	-1.644096e-11	4.758353e-12	0.00879354	0.01039094	-3.426651e-11	-1.542011e-11	-0.01184521	-0.02699893
3.4e+08	-0.01196523	-0.02797599	-2.416729e-11	-3.02016e-11	0.009613106	0.01006261	-1.700961e-11	5.555026e-12
	-2.416729e-11	-3.02016e-11	-0.01284846	-0.02731819	-3.164002e-11	-3.91212e-11	0.009200044	0.01043464
	0.009613106	0.01006261	-3.164002e-11	-3.91212e-11	-0.01195902	-0.02831236	-3.533015e-11	-1.45276e-11
	-1.700961e-11	5.555026e-12	0.009200044	0.01043464	-3.533015e-11	-1.45276e-11	-0.01296832	-0.02740272
3.5e+08	-0.0130703	-0.02839144	-2.487758e-11	-3.025979e-11	0.01003601	0.01005319	-1.756182e-11	6.389241e-12
	-2.487758e-11	-3.025979e-11	-0.01398239	-0.02767732	-3.234167e-11	-3.899235e-11	0.009605506	0.01045948
	0.01003601	0.01005319	-3.234167e-11	-3.899235e-11	-0.01308281	-0.02872294	-3.635225e-11	-1.356337e-11
	-1.756182e-11	6.389241e-12	0.009605506	0.01045948	-3.635225e-11	-1.356337e-11	-0.01411072	-0.02775993
3.6e+08	-0.01419381	-0.02876228	-2.557078e-11	-3.027505e-11	0.0104561	0.01002362	-1.809557e-11	7.260089e-12
	-2.557078e-11	-3.027505e-11	-0.01513348	-0.02798959	-3.299073e-11	-3.880976e-11	0.01000906	0.01046553
	0.0104561	0.01002362	-3.299073e-11	-3.880976e-11	-0.01422475	-0.02908812	-3.73287e-11	-1.253003e-11
	-1.809557e-11	7.260089e-12	0.01000906	0.01046553	-3.73287e-11	-1.253003e-11	-0.01527033	-0.02806982
3.7e+08	-0.01533381	-0.02908782	-2.624466e-11	-3.024843e-11	0.01087242	0.009974052	-1.860886e-11	8.166569e-12
	-2.624466e-11	-3.024843e-11	-0.01629966	-0.02825434	-3.358384e-11	-3.857679e-11	0.01040982	0.01045292
	0.01087242	0.009974052	-3.358384e-11	-3.857679e-11	-0.01538289	-0.0294072	-3.825551e-11	-1.14304e-11
	-1.860886e-11	8.166569e-12	0.01040982	0.01045292	-3.825551e-11	-1.14304e-11	-0.01644504	-0.02833173
3.8e+08	-0.01648836	-0.02936745	-2.689702e-11	-3.018106e-11	0.01128404	0.009904683	-1.909977e-11	9.107585e-12
	-2.689702e-11	-3.018106e-11	-0.01747884	-0.02847101	-3.411781e-11	-3.829703e-11	0.01080695	0.01042179
	0.01128404	0.009904683	-3.411781e-11	-3.829703e-11	-0.01655523	-0.02967959	-3.912888e-11	-1.026751e-11
	-1.909977e-11	9.107585e-12	0.01080695	0.01042179	-3.912888e-11	-1.026751e-11	-0.01763275	-0.02854509
3.9e+08	-0.01765547	-0.02960062	-2.752572e-11	-3.007419e-11	0.01169004	0.009815761	-1.956642e-11	1.008195e-11
	-2.752572e-11	-3.007419e-11	-0.0186689	-0.02863914	-3.458966e-11	-3.797425e-11	0.01119959	0.01037236
	0.01169004	0.009815761	-3.458966e-11	-3.797425e-11	-0.01773979	-0.02990476	-3.994515e-11	-9.044588e-12
	-1.956642e-11	1.008195e-11	0.01119959	0.01037236	-3.994515e-11	-9.044588e-12	-0.01883131	-0.02870944
4e+08	-0.01883317	-0.0297869	-2.812866e-11	-2.992918e-11	0.01208949	0.009707575	-2.000697e-11	1.108838e-11
	-2.812866e-11	-2.992918e-11	-0.01986774	-0.02875834	-3.499658e-11	-3.761238e-11	0.01158689	0.01030485
	0.01208949	0.009707575	-3.499658e-11	-3.761238e-11	-0.01893455	-0.0300823	-4.070084e-11	-7.765046e-12
	-2.000697e-11	1.108838e-11	0.01158689	0.01030485	-4.070084e-11	-7.765046e-12	-0.0200386	-0.0288244
4.1e+08	-0.02001947	-0.02992592	-2.870381e-11	-2.974749e-11	0.01248151	0.009580455	-2.041969e-11	1.212551e-11
	-2.870381e-11	-2.974749e-11	-0.02107324	-0.02882833	-3.533602e-11	-3.721553e-11	0.01196803	0.01021955
	0.01248151	0.009580455	-3.533602e-11	-3.721553e-11	-0.0201375	-0.03021185	-4.139266e-11	-6.432494e-12
	-2.041969e-11	1.212551e-11	0.01196803	0.01021955	-4.139266e-11	-6.432494e-12	-0.02125249	-0.02888969
4.2e+08	-0.02121238	-0.03001739	-2.92492e-11	-2.953068e-11	0.01286521	0.009434772	-2.08029e-11	1.319189e-11
	-2.92492e-11	-2.953068e-11	-0.0222833	-0.02884892	-3.560562e-11	-3.678796e-11	0.01234219	0.01011677
	0.01286521	0.009434772	-3.560562e-11	-3.678796e-11	-0.02134662	-0.03029316	-4.201752e-11	-5.050714e-12
	-2.08029e-11	1.319189e-11	0.01234219	0.01011677	-4.201752e-11	-5.050714e-12	-0.02247082	-0.0289051
4.3e+08	-0.02240989	-0.03006112	-2.976295e-11	-2.92804e-11	0.01323971	0.009270936	-2.115498e-11	1.428598e-11
	-2.976295e-11	-2.92804e-11	-0.0234958	-0.02881999	-3.580329e-11	-3.633407e-11	0.01270857	0.009996851
	0.01323971	0.009270936	-3.580329e-11	-3.633407e-11	-0.0225599	-0.03032604	-4.257253e-11	-3.623655e-12
	-2.115498e-11	1.428598e-11	0.01270857	0.009996851	-4.257253e-11	-3.623655e-12	-0.02369147	-0.02887055
4.4e+08	-0.02361003	-0.03005699	-3.024323e-11	-2.899842e-11	0.01360419	0.0090894	-2.147441e-11	1.540617e-11
	-3.024323e-11	-2.899842e-11	-0.02470863	-0.02874154	-3.592714e-11	-3.58584e-11	0.0130664	0.00986019
	0.01360419	0.0090894	-3.592714e-11	-3.58584e-11	-0.02377531	-0.03031041	-4.305502e-11	-2.155412e-12
	-2.147441e-11	1.540617e-11	0.0130664	0.00986019	-4.305502e-11	-2.155412e-12	-0.02491231	-0.02878602
4.5e+08	-0.02481079	-0.03000498	-3.068831e-11	-2.868659e-11	0.01395781	0.008890652	-2.175973e-11	1.655079e-11
	-3.068831e-11	-2.868659e-11	-0.02591969	-0.02861362	-3.597556e-11	-3.53656e-11	0.0134149	0.009707205
	0.01395781	0.008890652	-3.597556e-11	-3.53656e-11	-0.02499085	-0.03024625	-4.346254e-11	-6.50225e-13
	-2.175973e-11	1.655079e-11	0.0134149	0.009707205	-4.346254e-11	-6.50225e-13	-0.02613121	-0.02865157
4.6e+08	-0.02601021	-0.02990512	-3.10965e-11	-2.834684e-11	0.01429978	0.00867522	-2.200935e-11	1.77179e-11
	-3.10965e-11	-2.834684e-11	-0.0271269	-0.0284364	-3.594688e-11	-3.485898e-11	0.01375333	0.009538353
	0.01429978	0.00867522	-3.594688e-11	-3.485898e-11	-0.02620452	-0.03013364	-4.379022e-11	8.862951e-13
	-2.200935e-11	1.77179e-11	0.01375333	0.009538353	-4.379022e-11	8.862951e-13	-0.02734608	-0.02846739
