!$
! Info: Touchstone file created by Circ.  Input file=Tx_2in_Rx_85ohms_TxVia_10mils_RxVia_20mils.circ
!$
# Hz S RI R 50
0	0.00173924	2.047096e-26	-1.742579e-11	4.135528e-27	2.238546e-05	1.760382e-24	-2.180606e-08	2.670461e-24
	-1.741149e-11	4.13451e-27	0.001738656	2.856536e-26	1.80734e-11	5.481138e-29	2.199965e-05	2.400289e-24
	2.04956e-05	1.735692e-24	1.803787e-11	5.515185e-29	0.001753562	2.130936e-26	1.761414e-08	7.543152e-27
	-2.18068e-08	2.670552e-24	2.345845e-05	2.470477e-24	1.761467e-08	7.541967e-27	0.001744322	2.730372e-26
1e+07	0.002662588	-0.001606447	4.135606e-11	-3.495456e-11	3.123827e-05	0.0004830402	-8.944865e-09	1.859581e-08
	4.135611e-11	-3.495486e-11	0.002390161	-0.001653887	-9.945759e-13	-7.041254e-11	4.616163e-05	0.000484621
	3.119962e-05	0.0004830651	-9.946603e-13	-7.041224e-11	0.002410911	-0.00168719	-1.089329e-08	1.798203e-08
	-8.944865e-09	1.859581e-08	4.619364e-05	0.0004846095	-1.089329e-08	1.798203e-08	0.00239943	-0.001650853
2e+07	0.003161258	-0.003886832	4.287616e-11	-3.386484e-11	6.447242e-05	0.0009657344	-1.132638e-08	2.173946e-08
	4.287591e-11	-3.386512e-11	0.002905334	-0.003867427	2.753536e-11	-1.710357e-10	8.695361e-05	0.0009564676
	6.44794e-05	0.0009657523	2.753552e-11	-1.710354e-10	0.002901398	-0.003926573	-1.540066e-08	1.652192e-08
	-1.132638e-08	2.173946e-08	8.695043e-05	0.0009564467	-1.540066e-08	1.652192e-08	0.002915249	-0.00385975
3e+07	0.003390084	-0.006395667	5.065968e-11	-8.517898e-11	0.0001313957	0.001435522	-7.190136e-09	1.704719e-08
	5.065962e-11	-8.517896e-11	0.003143101	-0.006355563	-2.338981e-11	-2.107322e-10	0.0001461495	0.001423031
	0.0001313932	0.001435523	-2.338968e-11	-2.107322e-10	0.003123675	-0.006424389	-1.435118e-08	1.878372e-08
	-7.190136e-09	1.704719e-08	0.0001461444	0.001423028	-1.435118e-08	1.878372e-08	0.003154141	-0.006343092
4e+07	0.003423272	-0.008987967	5.260001e-11	-1.232681e-10	0.0002180565	0.001898406	-5.869928e-09	1.455509e-08
	5.260005e-11	-1.232681e-10	0.00317997	-0.008935731	9.939488e-12	-2.548335e-10	0.0002244277	0.001884628
	0.0002180517	0.001898409	9.939551e-12	-2.548336e-10	0.003151257	-0.009009405	-1.019959e-08	1.705499e-08
	-5.869928e-09	1.455509e-08	0.0002244273	0.001884629	-1.019959e-08	1.705499e-08	0.003192733	-0.008920337
5e+07	0.003288722	-0.01162313	6.208641e-11	-1.532004e-10	0.000324556	0.002354558	-5.403207e-09	1.462303e-08
	6.208644e-11	-1.532004e-10	0.003044715	-0.01156226	-1.484159e-11	-3.19505e-10	0.0003216823	0.002340759
	0.0003245548	0.00235456	-1.484159e-11	-3.195049e-10	0.003011708	-0.0116383	-6.645624e-09	1.337957e-08
	-5.403207e-09	1.462303e-08	0.0003216818	0.00234076	-6.645624e-09	1.337957e-08	0.003058179	-0.01154474
6e+07	0.003000518	-0.01427914	8.340159e-11	-1.779935e-10	0.0004507315	0.002803552	-2.324307e-09	1.744366e-08
	8.340157e-11	-1.779935e-10	0.002751877	-0.01421129	-4.956669e-11	-3.651684e-10	0.0004376985	0.002790823
	0.0004507324	0.00280355	-4.956668e-11	-3.651684e-10	0.002718884	-0.01428823	-4.06153e-09	9.513553e-09
	-2.324307e-09	1.744366e-08	0.0004376956	0.002790824	-4.06153e-09	9.513553e-09	0.002765534	-0.01419161
7e+07	0.002567321	-0.01694109	1.143133e-10	-1.934346e-10	0.0005963268	0.003244753	5.251015e-09	1.551781e-08
	1.143133e-10	-1.934345e-10	0.0023104	-0.01686699	-8.140055e-11	-4.1301e-10	0.0005722191	0.003234133
	0.0005963276	0.003244748	-8.140056e-11	-4.130101e-10	0.002281319	-0.01694381	-2.187797e-09	6.046718e-09
	5.251015e-09	1.551781e-08	0.0005722144	0.003234136	-2.187797e-09	6.046718e-09	0.002324206	-0.01684532
8e+07	0.001995216	-0.01959762	1.298251e-10	-1.901087e-10	0.0007610148	0.003677436	7.142779e-09	9.965101e-09
	1.298252e-10	-1.901086e-10	0.001726558	-0.01951746	-1.066137e-10	-4.745767e-10	0.0007249244	0.003669981
	0.0007610145	0.00367743	-1.066137e-10	-4.745768e-10	0.001705065	-0.01959325	-8.433148e-10	3.113365e-09
	7.142779e-09	9.965101e-09	0.0007249197	0.003669985	-8.433148e-10	3.113365e-09	0.00174034	-0.0194944
9e+07	0.001288899	-0.02223937	9.673276e-11	-2.174061e-10	0.0009444066	0.004100865	6.235536e-09	7.122852e-09
	9.67328e-11	-2.174061e-10	0.001005171	-0.02215307	-1.093314e-10	-5.453112e-10	0.0008954442	0.004097741
	0.0009444057	0.004100861	-1.093314e-10	-5.453112e-10	0.0009948931	-0.02222656	2.595083e-11	6.463887e-10
	6.235536e-09	7.122852e-09	0.0008954415	0.004097745	2.595083e-11	6.463886e-10	0.00101835	-0.02212933
1e+08	0.0004522565	-0.0248584	1.271615e-10	-3.277671e-10	0.001146123	0.004514577	5.111578e-09	5.516889e-09
	1.271615e-10	-3.277671e-10	0.0001500606	-0.02476637	-8.657239e-11	-5.976828e-10	0.001083512	0.004517482
	0.001146123	0.004514577	-8.657239e-11	-5.976828e-10	0.0001553117	-0.02483304	5.345721e-10	-1.538428e-09
	5.111578e-09	5.516889e-09	0.001083513	0.004517482	5.345721e-10	-1.538428e-09	0.0001616581	-0.02474256
1.1e+08	-0.0005109441	-0.02745478	1.418225e-10	-3.667285e-10	0.00136686	0.004917016	5.835343e-09	5.77875e-09
	1.418225e-10	-3.667285e-10	-0.0008381947	-0.02735429	-1.012139e-10	-6.520585e-10	0.001291102	0.004926065
	0.00136686	0.004917016	-1.012139e-10	-6.520585e-10	-0.0008003794	-0.02741907	6.402107e-10	-1.726683e-09
	5.835343e-09	5.77875e-09	0.001291102	0.004926065	6.402107e-10	-1.726683e-09	-0.0008285566	-0.02732918
1.2e+08	-0.001599915	-0.03001042	1.567835e-10	-4.067414e-10	0.001604535	0.005306939	6.596403e-09	5.987311e-09
	1.567835e-10	-4.067414e-10	-0.001954167	-0.02989853	-1.164562e-10	-7.055732e-10	0.001514706	0.0053226
	0.001604535	0.005306939	-1.164562e-10	-7.055732e-10	-0.001883496	-0.02996976	7.530255e-10	-1.923695e-09
	6.596403e-09	5.987311e-09	0.001514706	0.0053226	7.530255e-10	-1.923695e-09	-0.001946965	-0.02987215
1.3e+08	-0.002809877	-0.03251989	1.722021e-10	-4.479168e-10	0.00185861	0.005683988	7.392639e-09	6.140528e-09
	1.722021e-10	-4.479168e-10	-0.003193209	-0.0323944	-1.323256e-10	-7.582242e-10	0.001753921	0.005707147
	0.00185861	0.005683989	-1.323256e-10	-7.582242e-10	-0.003088871	-0.03247643	8.726756e-10	-2.130242e-09
	7.392639e-09	6.140528e-09	0.001753921	0.005707147	8.726756e-10	-2.130242e-09	-0.003188983	-0.03236671
1.4e+08	-0.00413667	-0.03497802	1.880747e-10	-4.903258e-10	0.002128467	0.006047518	8.221514e-09	6.236198e-09
	1.880747e-10	-4.903258e-10	-0.00455115	-0.03483676	-1.487909e-10	-8.100238e-10	0.002008177	0.006079133
	0.002128467	0.006047519	-1.487909e-10	-8.100238e-10	-0.004412231	-0.03493301	9.985843e-10	-2.346995e-09
	8.221514e-09	6.236198e-09	0.002008177	0.006079133	9.985843e-10	-2.346995e-09	-0.004550442	-0.03480763
1.5e+08	-0.005576503	-0.03737986	2.043718e-10	-5.340411e-10	0.00241344	0.00639686	9.08013e-09	6.272102e-09
	2.043718e-10	-5.340411e-10	-0.006024138	-0.03722055	-1.658154e-10	-8.609821e-10	0.002276843	0.006437942
	0.00241344	0.00639686	-1.658154e-10	-8.609821e-10	-0.005849682	-0.03733406	1.130105e-09	-2.57457e-09
	9.08013e-09	6.272102e-09	0.002276843	0.006437942	1.130105e-09	-2.57457e-09	-0.006027469	-0.03718976
1.6e+08	-0.007125765	-0.03972064	2.210478e-10	-5.791365e-10	0.002712828	0.006731353	9.965278e-09	6.246102e-09
	2.210478e-10	-5.791365e-10	-0.007608463	-0.03954088	-1.833605e-10	-9.111065e-10	0.002559255	0.006782966
	0.002712828	0.006731353	-1.833605e-10	-9.111065e-10	-0.007397515	-0.03967451	1.266543e-09	-2.81353e-09
	9.965278e-09	6.246102e-09	0.002559255	0.006782967	1.266543e-09	-2.81353e-09	-0.00761632	-0.03950813
1.7e+08	-0.008780904	-0.04199573	2.380454e-10	-6.25686e-10	0.003025889	0.007050357	1.087349e-08	6.156212e-09
	2.380454e-10	-6.25686e-10	-0.009300451	-0.04179298	-2.013859e-10	-9.604028e-10	0.002854718	0.007113626
	0.003025889	0.007050358	-2.013859e-10	-9.604028e-10	-0.009052088	-0.04194952	1.407168e-09	-3.064389e-09
	1.087349e-08	6.156212e-09	0.002854718	0.007113626	1.407168e-09	-3.064389e-09	-0.00931328	-0.04175795
1.8e+08	-0.01053835	-0.04420066	2.552979e-10	-6.737625e-10	0.003351851	0.007353264	1.180107e-08	6.000634e-09
	2.552979e-10	-6.737625e-10	-0.01109639	-0.04397223	-2.198495e-10	-1.008876e-09	0.003162511	0.007429368
	0.003351851	0.007353264	-2.198495e-10	-1.008876e-09	-0.01080975	-0.04415446	1.551222e-09	-3.327608e-09
	1.180107e-08	6.000634e-09	0.003162511	0.007429368	1.551222e-09	-3.327608e-09	-0.0111146	-0.04393453
1.9e+08	-0.01239448	-0.04633109	2.7273e-10	-7.23437e-10	0.003689906	0.007639497	1.274416e-08	5.77779e-09
	2.7273e-10	-7.23437e-10	-0.01299249	-0.04607417	-2.38708e-10	-1.056532e-09	0.003481888	0.00772967
	0.003689906	0.007639497	-2.38708e-10	-1.056532e-09	-0.0126668	-0.04628489	1.697921e-09	-3.603603e-09
	1.274416e-08	5.77779e-09	0.003481888	0.00772967	1.697921e-09	-3.603603e-09	-0.01301643	-0.04603338
2e+08	-0.01434555	-0.04838286	2.902591e-10	-7.747783e-10	0.004039218	0.007908517	1.369877e-08	5.486329e-09
	2.902591e-10	-7.747783e-10	-0.01498483	-0.0480945	-2.579165e-10	-1.103377e-09	0.003812082	0.008014047
	0.004039218	0.007908517	-2.579165e-10	-1.103377e-09	-0.01461945	-0.04833655	1.846457e-09	-3.892743e-09
	1.369877e-08	5.486329e-09	0.003812082	0.008014047	1.846457e-09	-3.892743e-09	-0.01501484	-0.04805019
2.1e+08	-0.01638773	-0.05035197	3.077952e-10	-8.278518e-10	0.004398924	0.008159826	1.466078e-08	5.125142e-09
	3.077952e-10	-8.278518e-10	-0.01706939	-0.05002911	-2.77429e-10	-1.14942e-09	0.004152303	0.008282045
	0.004398924	0.008159826	-2.77429e-10	-1.14942e-09	-0.0166638	-0.05030538	1.996007e-09	-4.195347e-09
	1.466078e-08	5.125142e-09	0.004152303	0.008282045	1.996007e-09	-4.195347e-09	-0.01710577	-0.04998082
2.2e+08	-0.01851706	-0.0522346	3.252417e-10	-8.827199e-10	0.004768137	0.008392968	1.562601e-08	4.693365e-09
	3.252417e-10	-8.827199e-10	-0.01924202	-0.05187408	-2.971985e-10	-1.194672e-09	0.004501743	0.00853325
	0.004768137	0.008392968	-2.971985e-10	-1.194672e-09	-0.01879584	-0.05218749	2.145729e-09	-4.511692e-09
	1.562601e-08	4.693365e-09	0.004501743	0.00853325	2.145729e-09	-4.511692e-09	-0.01928501	-0.05182134
2.3e+08	-0.02072944	-0.0540271	3.424956e-10	-9.394404e-10	0.005145947	0.008607531	1.659018e-08	4.190376e-09
	3.424956e-10	-9.394404e-10	-0.02149842	-0.0536257	-3.171781e-10	-1.239146e-09	0.004859574	0.008767285
	0.005145947	0.008607531	-3.171781e-10	-1.239146e-09	-0.02101144	-0.05397921	2.294767e-09	-4.842005e-09
	1.659018e-08	4.190376e-09	0.004859574	0.008767285	2.294767e-09	-4.842005e-09	-0.02154825	-0.053568
2.4e+08	-0.02302069	-0.05572604	3.594474e-10	-9.980672e-10	0.005531428	0.00880315	1.754901e-08	3.615801e-09
	3.594474e-10	-9.980672e-10	-0.0238342	-0.05528045	-3.373206e-10	-1.282859e-09	0.005224955	0.008983813
	0.005531428	0.00880315	-3.373206e-10	-1.282859e-09	-0.02330636	-0.05567705	2.442249e-09	-5.186471e-09
	1.754901e-08	3.615801e-09	0.005224955	0.008983813	2.442249e-09	-5.186471e-09	-0.02389106	-0.05521728
2.5e+08	-0.02538648	-0.05732817	3.759817e-10	-1.058649e-09	0.005923635	0.008979503	1.849817e-08	2.96951e-09
	3.759817e-10	-1.058649e-09	-0.02624483	-0.05683503	-3.575791e-10	-1.325831e-09	0.005597027	0.009182538
	0.005923635	0.008979503	-3.575791e-10	-1.325831e-09	-0.02567625	-0.05727773	2.587294e-09	-5.545224e-09
	1.849817e-08	2.96951e-09	0.005597027	0.009182538	2.587294e-09	-5.545224e-09	-0.02630887	-0.05676587
2.6e+08	-0.02782239	-0.05883047	3.919768e-10	-1.12123e-09	0.00632161	0.009136319	1.94333e-08	2.251618e-09
	3.919768e-10	-1.12123e-09	-0.02872568	-0.05828636	-3.77908e-10	-1.368085e-09	0.005974923	0.009363206
	0.00632161	0.009136319	-3.77908e-10	-1.368085e-09	-0.02811666	-0.05877818	2.729012e-09	-5.918354e-09
	1.94333e-08	2.251618e-09	0.005974923	0.009363206	2.729012e-09	-5.918354e-09	-0.02879701	-0.05821068
2.7e+08	-0.0303239	-0.06023011	4.073053e-10	-1.185846e-09	0.006724387	0.009273372	2.035009e-08	1.462479e-09
	4.073053e-10	-1.185846e-09	-0.031272	-0.05963159	-3.982625e-10	-1.409647e-09	0.006357765	0.009525602
	0.006724387	0.009273372	-3.982625e-10	-1.409647e-09	-0.03062301	-0.06017553	2.866501e-09	-6.305902e-09
	2.035009e-08	1.462479e-09	0.006357765	0.009525602	2.866501e-09	-6.305902e-09	-0.03135073	-0.05954884
2.8e+08	-0.0328864	-0.06152446	4.218343e-10	-1.252529e-09	0.007130989	0.009390486	2.124419e-08	6.026902e-10
	4.218343e-10	-1.252529e-09	-0.03387898	-0.06086808	-4.185994e-10	-1.450546e-09	0.006744667	0.009669557
	0.007130989	0.009390486	-4.185994e-10	-1.450546e-09	-0.03319066	-0.06146716	2.998857e-09	-6.707864e-09
	2.124419e-08	6.026902e-10	0.006744667	0.009669557	2.998857e-09	-6.707864e-09	-0.03396516	-0.06077771
2.9e+08	-0.03550519	-0.06271114	4.354251e-10	-1.321302e-09	0.007540435	0.009487533	2.211132e-08	-3.269167e-10
	4.354251e-10	-1.321302e-09	-0.03654169	-0.06199343	-4.388775e-10	-1.490816e-09	0.007134739	0.009794944
	0.007540435	0.009487533	-4.388775e-10	-1.490816e-09	-0.03581487	-0.06265061	3.125169e-09	-7.124183e-09
	2.211132e-08	-3.269167e-10	0.007134739	0.009794944	3.125169e-09	-7.124183e-09	-0.03663535	-0.06189487
3e+08	-0.0381755	-0.06378795	4.479344e-10	-1.392182e-09	0.007951741	0.009564433	2.294722e-08	-1.325273e-09
	4.479344e-10	-1.392182e-09	-0.03925517	-0.06300546	-4.590579e-10	-1.530491e-09	0.007527089	0.009901679
	0.007951741	0.009564433	-4.590579e-10	-1.530491e-09	-0.03849084	-0.0637237	3.244526e-09	-7.554756e-09
	2.294722e-08	-1.325273e-09	0.007527089	0.009901679	3.244526e-09	-7.554756e-09	-0.03935628	-0.06289814
3.1e+08	-0.0408925	-0.06475293	4.592143e-10	-1.465176e-09	0.008363921	0.009621155	2.374768e-08	-2.391078e-09
	4.592143e-10	-1.465176e-09	-0.04201435	-0.06390222	-4.791031e-10	-1.569609e-09	0.007920822	0.00998972
	0.008363921	0.009621155	-4.791031e-10	-1.569609e-09	-0.04121368	-0.06468442	3.356014e-09	-7.99943e-09
	2.374768e-08	-2.391078e-09	0.007920822	0.00998972	3.356014e-09	-7.99943e-09	-0.04212288	-0.06378557
3.2e+08	-0.04365128	-0.06560433	4.691127e-10	-1.540282e-09	0.008775996	0.009657716	2.450857e-08	-3.522804e-09
	4.691127e-10	-1.540282e-09	-0.04481414	-0.06468198	-4.989779e-10	-1.608211e-09	0.008315047	0.01005907
	0.008775996	0.009657716	-4.989779e-10	-1.608211e-09	-0.04397847	-0.06553102	3.458725e-09	-8.458003e-09
	2.450857e-08	-3.522804e-09	0.008315047	0.01005907	3.458725e-09	-8.458003e-09	-0.04493	-0.06455544
3.3e+08	-0.04644692	-0.06634062	4.774751e-10	-1.617486e-09	0.009186985	0.009674178	2.522582e-08	-4.718692e-09
	4.774751e-10	-1.617486e-09	-0.04764938	-0.06534327	-5.186535e-10	-1.64634e-09	0.008708875	0.01010977
	0.009186985	0.009674178	-5.186535e-10	-1.64634e-09	-0.04678022	-0.06626193	3.551756e-09	-8.930215e-09
	2.522582e-08	-4.718692e-09	0.008708875	0.01010977	3.551756e-09	-8.930215e-09	-0.04777247	-0.06520624
3.4e+08	-0.04927443	-0.06696049	4.8267e-10	-1.698559e-09	0.00959592	0.009670655	2.589441e-08	-5.977213e-09
	4.8267e-10	-1.698559e-09	-0.0505149	-0.06588481	-5.381233e-10	-1.684009e-09	0.009101425	0.01014191
	0.00959592	0.009670655	-5.381233e-10	-1.684009e-09	-0.04961392	-0.06687584	3.632762e-09	-9.417556e-09
	2.589441e-08	-5.977213e-09	0.009101425	0.01014191	3.632762e-09	-9.417556e-09	-0.05064505	-0.06573674
3.5e+08	-0.05212881	-0.06746283	4.856544e-10	-1.781965e-09	0.01000184	0.009647304	2.651127e-08	-7.295739e-09
	4.856544e-10	-1.781965e-09	-0.05340547	-0.06630558	-5.573451e-10	-1.721289e-09	0.009491824	0.01015562
	0.01000184	0.009647304	-5.573451e-10	-1.721289e-09	-0.05247451	-0.06737163	3.701954e-09	-9.918169e-09
	2.651127e-08	-7.295739e-09	0.009491824	0.01015562	3.701954e-09	-9.918169e-09	-0.05354252	-0.06614589
3.6e+08	-0.05500503	-0.06784678	4.864725e-10	-1.867391e-09	0.01040379	0.009604328	2.70728e-08	-8.671789e-09
	4.864725e-10	-1.867391e-09	-0.05631588	-0.06660478	-5.762944e-10	-1.758233e-09	0.009879206	0.01015107
	0.01040379	0.009604328	-5.762944e-10	-1.758233e-09	-0.05535691	-0.06774843	3.758662e-09	-1.043138e-08
	2.70728e-08	-8.671789e-09	0.009879206	0.01015107	3.758662e-09	-1.043138e-08	-0.05645959	-0.06643289
3.7e+08	-0.05789805	-0.06811168	4.849576e-10	-1.954774e-09	0.01080084	0.009541976	2.757534e-08	-1.010275e-08
	4.849576e-10	-1.954774e-09	-0.05924087	-0.06678181	-5.949533e-10	-1.79489e-09	0.01026272	0.01012845
	0.01080084	0.009541976	-5.949533e-10	-1.79489e-09	-0.05825606	-0.06800556	3.802025e-09	-1.095672e-08
	2.757534e-08	-1.010275e-08	0.01026272	0.01012845	3.802025e-09	-1.095672e-08	-0.059391	-0.06659719
3.8e+08	-0.06080282	-0.06825706	4.809427e-10	-2.044039e-09	0.01119207	0.00946054	2.801537e-08	-1.158579e-08
	4.809427e-10	-2.044039e-09	-0.06217523	-0.06683635	-6.133076e-10	-1.831313e-09	0.01064153	0.01008804
	0.01119207	0.00946054	-6.133076e-10	-1.831313e-09	-0.06116686	-0.06814257	3.831199e-09	-1.149367e-08
	2.801537e-08	-1.158579e-08	0.01064153	0.01008804	3.831199e-09	-1.149367e-08	-0.06233148	-0.06663843
3.9e+08	-0.06371431	-0.06828271	4.742615e-10	-2.135101e-09	0.01157658	0.009360355	2.838951e-08	-1.311792e-08
	4.742615e-10	-2.135101e-09	-0.06511372	-0.06676825	-6.313467e-10	-1.867552e-09	0.01101481	0.01003009
	0.01157658	0.009360355	-6.313467e-10	-1.867552e-09	-0.06408423	-0.06815924	3.845361e-09	-1.204168e-08
	2.838951e-08	-1.311792e-08	0.01101481	0.01003009	3.845361e-09	-1.204168e-08	-0.06527577	-0.0665565
4e+08	-0.06662748	-0.06818859	4.647496e-10	-2.227859e-09	0.01195348	0.009241797	2.869453e-08	-1.469592e-08
	4.647496e-10	-2.227859e-09	-0.06805112	-0.06657762	-6.490637e-10	-1.90366e-09	0.01138176	0.009954956
	0.01195348	0.009241797	-6.490637e-10	-1.90366e-09	-0.06700309	-0.06805554	3.843712e-09	-1.260012e-08
	2.869453e-08	-1.469592e-08	0.01138176	0.009954956	3.843712e-09	-1.260012e-08	-0.06821862	-0.06635151
4.1e+08	-0.06953734	-0.06797491	4.52245e-10	-2.322202e-09	0.01232192	0.009105283	2.892736e-08	-1.631643e-08
	4.52245e-10	-2.322202e-09	-0.07098227	-0.06626476	-6.664555e-10	-1.93969e-09	0.0117416	0.009862978
	0.01232192	0.009105283	-6.664555e-10	-1.93969e-09	-0.06991841	-0.06783166	3.825481e-09	-1.316834e-08
	2.892736e-08	-1.631643e-08	0.0117416	0.009862978	3.825481e-09	-1.316834e-08	-0.07115483	-0.06602378
4.2e+08	-0.07243891	-0.06764204	4.365895e-10	-2.418005e-09	0.01268105	0.008951268	2.908508e-08	-1.797589e-08
	4.365895e-10	-2.418005e-09	-0.07390201	-0.06583021	-6.835227e-10	-1.975694e-09	0.01209355	0.009754555
	0.01268105	0.008951268	-6.835227e-10	-1.975694e-09	-0.07282516	-0.06748802	3.789924e-09	-1.374564e-08
	2.908508e-08	-1.797589e-08	0.01209355	0.009754555	3.789924e-09	-1.374564e-08	-0.07407921	-0.06557387
4.3e+08	-0.07532725	-0.0671906	4.176295e-10	-2.515132e-09	0.01303007	0.008780246	2.916498e-08	-1.967059e-08
	4.176295e-10	-2.515132e-09	-0.07680525	-0.06527471	-7.002696e-10	-2.011726e-09	0.01243687	0.009630116
	0.01303007	0.008780246	-7.002696e-10	-2.011726e-09	-0.07571837	-0.06702521	3.736332e-09	-1.433124e-08
	2.916498e-08	-1.967059e-08	0.01243687	0.009630116	3.736332e-09	-1.433124e-08	-0.07698662	-0.06500253
4.4e+08	-0.07819747	-0.06662138	3.952169e-10	-2.613431e-09	0.01336819	0.008592746	2.916451e-08	-2.139668e-08
	3.952169e-10	-2.613431e-09	-0.07968693	-0.06459922	-7.16704e-10	-2.047836e-09	0.01277086	0.009490119
	0.01336819	0.008592746	-7.16704e-10	-2.047836e-09	-0.0785931	-0.06644407	3.664029e-09	-1.492437e-08
	2.916451e-08	-2.139668e-08	0.01277086	0.009490119	3.664029e-09	-1.492437e-08	-0.07987201	-0.06431075
4.5e+08	-0.08104473	-0.06593538	3.692108e-10	-2.712739e-09	0.01369465	0.008389332	2.908133e-08	-2.315013e-08
	3.692108e-10	-2.712739e-09	-0.08254206	-0.06380491	-7.328374e-10	-2.084076e-09	0.0130948	0.009335056
	0.01369465	0.008389332	-7.328374e-10	-2.084076e-09	-0.08144448	-0.06574559	3.572377e-09	-1.552416e-08
	2.908133e-08	-2.315013e-08	0.0130948	0.009335056	3.572377e-09	-1.552416e-08	-0.08273033	-0.0634997
4.6e+08	-0.08386425	-0.06513381	3.394777e-10	-2.812882e-09	0.01400873	0.008170601	2.891327e-08	-2.492681e-08
	3.394777e-10	-2.812882e-09	-0.08536573	-0.06289313	-7.486848e-10	-2.120496e-09	0.01340804	0.009165446
	0.01400873	0.008170601	-7.486848e-10	-2.120496e-09	-0.08426768	-0.064931	3.46078e-09	-1.612974e-08
	2.891327e-08	-2.492681e-08	0.01340804	0.009165446	3.46078e-09	-1.612974e-08	-0.08555665	-0.06257078
4.7e+08	-0.08665131	-0.06421804	3.05893e-10	-2.913672e-09	0.01430973	0.007937181	2.865841e-08	-2.672244e-08
	3.05893e-10	-2.913672e-09	-0.08815309	-0.06186545	-7.642644e-10	-2.157146e-09	0.01370993	0.008981838
