!$
! Info: Touchstone file created by Circ.  Input file=Tx_2in_Rx_85ohms_TxVia_10mils_RxVia_20mils.circ
!$
# Hz S RI R 50
0	0.001739044	2.445147e-26	3.266855e-09	7.326753e-28	2.257392e-05	1.729809e-24	-3.577909e-09	4.71665e-25
	3.266847e-09	7.328683e-28	0.001738656	2.856536e-26	-2.923721e-09	4.070204e-25	2.199965e-05	2.400289e-24
	2.484781e-05	1.733942e-24	-2.92176e-09	4.067778e-25	0.001731901	2.127332e-26	1.250812e-08	9.90746e-30
	-3.575147e-09	4.71325e-25	2.345845e-05	2.470477e-24	1.250821e-08	9.746358e-30	0.001744322	2.730372e-26
1e+07	0.002391665	-0.001653684	4.670842e-09	8.529893e-09	4.685623e-05	0.0004844906	3.18962e-09	5.816754e-08
	4.670842e-09	8.529894e-09	0.002390161	-0.001653887	4.73361e-10	5.853519e-08	4.616163e-05	0.000484621
	4.690393e-05	0.000484464	4.733611e-10	5.853519e-08	0.002400918	-0.001650628	-1.255455e-08	4.511943e-08
	3.189621e-09	5.816754e-08	4.619364e-05	0.0004846095	-1.255455e-08	4.511943e-08	0.00239943	-0.001650853
2e+07	0.002911318	-0.003867129	6.385581e-09	1.535409e-08	8.970942e-05	0.0009560401	1.115054e-08	8.130588e-08
	6.385581e-09	1.535409e-08	0.002905334	-0.003867427	4.041691e-09	8.233806e-08	8.695361e-05	0.0009564676
	8.97012e-05	0.0009560153	4.041692e-09	8.233806e-08	0.002921074	-0.003859442	-1.021999e-08	4.675104e-08
	1.115054e-08	8.130588e-08	8.695043e-05	0.0009564467	-1.021999e-08	4.675104e-08	0.002915249	-0.00385975
3e+07	0.003156639	-0.006355521	8.126735e-09	2.194429e-08	0.0001522681	0.001422097	2.597382e-08	1.06611e-07
	8.126735e-09	2.194429e-08	0.003143101	-0.006355563	1.108312e-08	1.097035e-07	0.0001461495	0.001423031
	0.0001522686	0.001422093	1.108312e-08	1.097035e-07	0.003167237	-0.006343094	-8.540283e-09	5.548156e-08
	2.597382e-08	1.06611e-07	0.0001461444	0.001423028	-8.540283e-09	5.548156e-08	0.003154141	-0.006343092
4e+07	0.003204117	-0.008936528	1.00196e-08	2.824261e-08	0.0002352041	0.001882874	4.097066e-08	1.29899e-07
	1.00196e-08	2.824262e-08	0.00317997	-0.008935731	1.643586e-08	1.359587e-07	0.0002244277	0.001884628
	0.0002352082	0.00188287	1.643586e-08	1.359587e-07	0.003216066	-0.008921103	-5.391582e-09	6.387974e-08
	4.097066e-08	1.29899e-07	0.0002244273	0.001884629	-5.391582e-09	6.387974e-08	0.003192733	-0.008920337
5e+07	0.003082478	-0.01156471	1.207166e-08	3.429758e-08	0.0003383723	0.002337783	5.664606e-08	1.522562e-07
	1.207166e-08	3.429758e-08	0.003044715	-0.01156226	2.029136e-08	1.621126e-07	0.0003216823	0.002340759
	0.0003383735	0.00233778	2.029136e-08	1.621126e-07	0.003094761	-0.01154712	-6.288875e-10	7.08577e-08
	5.664606e-08	1.522562e-07	0.0003216818	0.00234076	-6.288877e-10	7.08577e-08	0.003058179	-0.01154474
6e+07	0.00280619	-0.01421642	1.429323e-08	4.014122e-08	0.0004615174	0.00278614	7.367343e-08	1.737245e-07
	1.429323e-08	4.014122e-08	0.002751877	-0.01421129	2.32652e-08	1.884243e-07	0.0004376985	0.002790823
	0.0004615174	0.002786141	2.32652e-08	1.884243e-07	0.002818164	-0.01419668	5.440829e-09	7.626623e-08
	7.367343e-08	1.737245e-07	0.0004376956	0.002790824	5.440829e-09	7.626623e-08	0.002765534	-0.01419161
7e+07	0.002384112	-0.01687602	1.669448e-08	4.57851e-08	0.0006043419	0.003227186	9.237352e-08	1.940672e-07
	1.669448e-08	4.57851e-08	0.0023104	-0.01686699	2.575519e-08	2.148747e-07	0.0005722191	0.003234133
	0.0006043429	0.00322719	2.575519e-08	2.148747e-07	0.002395569	-0.01685424	1.237734e-08	8.01616e-08
	9.237352e-08	1.940672e-07	0.0005722144	0.003234136	1.237734e-08	8.01616e-08	0.002324206	-0.01684532
8e+07	0.00182244	-0.01953176	1.928098e-08	5.122721e-08	0.0007664913	0.003660145	1.128391e-07	2.130139e-07
	1.928098e-08	5.122721e-08	0.001726558	-0.01951746	2.799005e-08	2.413884e-07	0.0007249244	0.003669981
	0.0007664936	0.003660149	2.799005e-08	2.413884e-07	0.001833163	-0.01950839	1.974552e-08	8.266216e-08
	1.128391e-07	2.130139e-07	0.0007249197	0.003669985	1.974552e-08	8.266216e-08	0.00174034	-0.0194944
9e+07	0.001125916	-0.02217421	2.205276e-08	5.645794e-08	0.0009475653	0.004084317	1.35034e-07	2.303208e-07
	2.205276e-08	5.645794e-08	0.001005171	-0.02215307	3.008098e-08	2.678921e-07	0.0008954442	0.004097741
	0.0009475677	0.00408432	3.008098e-08	2.678921e-07	0.001135428	-0.02214986	2.716193e-08	8.391605e-08
	1.35034e-07	2.303208e-07	0.0008954415	0.004097745	2.716193e-08	8.391605e-08	0.00101835	-0.02212933
1e+08	0.000298286	-0.02479608	2.500464e-08	6.146402e-08	0.001147266	0.004499696	1.588466e-07	2.457835e-07
	2.500464e-08	6.146402e-08	0.0001500606	-0.02476637	3.209468e-08	2.943209e-07	0.001083512	0.004517482
	0.001147266	0.004499696	3.209468e-08	2.943209e-07	0.0003057994	-0.02477138	3.430201e-08	8.407769e-08
	1.588466e-07	2.457835e-07	0.001083513	0.004517482	3.430201e-08	8.407769e-08	0.0001616581	-0.02474256
1.1e+08	-0.0006593778	-0.02739523	2.808691e-08	6.625615e-08	0.001368052	0.004903589	1.831337e-07	2.615036e-07
	2.808691e-08	6.625615e-08	-0.0008381947	-0.02735429	3.215272e-08	3.22193e-07	0.001291102	0.004926065
	0.001368052	0.004903589	3.215272e-08	3.22193e-07	-0.0006542166	-0.02736852	3.843985e-08	9.062961e-08
	1.831337e-07	2.615036e-07	0.001291102	0.004926065	3.843985e-08	9.062961e-08	-0.0008285566	-0.02732918
1.2e+08	-0.001742812	-0.02995269	3.130473e-08	7.083304e-08	0.00160565	0.005294116	2.088379e-07	2.754841e-07
	3.130473e-08	7.083304e-08	-0.001954167	-0.02989853	3.192468e-08	3.501292e-07	0.001514706	0.0053226
	0.00160565	0.005294116	3.192468e-08	3.501292e-07	-0.001740604	-0.0299243	4.275434e-08	9.68953e-08
	2.088379e-07	2.754841e-07	0.001514706	0.0053226	4.275434e-08	9.68953e-08	-0.001946965	-0.02987215
1.3e+08	-0.002947344	-0.03246388	3.46523e-08	7.51896e-08	0.001859588	0.005671481	2.358771e-07	2.876461e-07
	3.46523e-08	7.51896e-08	-0.003193209	-0.0323944	3.144001e-08	3.781616e-07	0.001753921	0.005707147
	0.001859588	0.005671481	3.144001e-08	3.781616e-07	-0.002948815	-0.03243393	4.723831e-08	1.028682e-07
	2.358771e-07	2.876461e-07	0.001753921	0.005707147	4.723831e-08	1.028682e-07	-0.003188983	-0.03236671
1.4e+08	-0.004268821	-0.03492378	3.812189e-08	7.931929e-08	0.002129262	0.00603517	2.641594e-07	2.979087e-07
	3.812189e-08	7.931929e-08	-0.00455115	-0.03483676	3.072492e-08	4.063153e-07	0.002008177	0.006079133
	0.002129262	0.00603517	3.072492e-08	4.063153e-07	-0.004274708	-0.03489216	5.18819e-08	1.085396e-07
	2.641594e-07	2.979087e-07	0.002008177	0.006079133	5.18819e-08	1.085396e-07	-0.004550442	-0.03480763
1.5e+08	-0.005703449	-0.03732751	4.170415e-08	8.32149e-08	0.002414022	0.006384579	2.935835e-07	3.06192e-07
	4.170415e-08	8.32149e-08	-0.006024138	-0.03722055	2.980252e-08	4.346104e-07	0.002276843	0.006437942
	0.002414022	0.006384579	2.980252e-08	4.346104e-07	-0.005714446	-0.03729396	5.66729e-08	1.139e-07
	2.935835e-07	3.06192e-07	0.002276843	0.006437942	5.66729e-08	1.139e-07	-0.006027469	-0.03718976
1.6e+08	-0.007247612	-0.03967032	4.538825e-08	8.686904e-08	0.002713173	0.006719083	3.240393e-07	3.124198e-07
	4.538825e-08	8.686904e-08	-0.007608463	-0.03954088	2.869342e-08	4.630642e-07	0.002559255	0.006782966
	0.002713173	0.006719083	2.869342e-08	4.630642e-07	-0.007264349	-0.03963448	6.159705e-08	1.189398e-07
	3.240393e-07	3.124198e-07	0.002559255	0.006782967	6.159705e-08	1.189398e-07	-0.00761632	-0.03950813
1.7e+08	-0.008897759	-0.0419476	4.916213e-08	9.027459e-08	0.003025983	0.007038063	3.554097e-07	3.165211e-07
	4.916213e-08	9.027459e-08	-0.009300451	-0.04179298	2.741636e-08	4.916921e-07	0.002854718	0.007113626
	0.003025983	0.007038063	2.741636e-08	4.916921e-07	-0.008920789	-0.04190902	6.663835e-08	1.236496e-07
	3.554097e-07	3.165211e-07	0.002854718	0.007113626	6.663835e-08	1.236496e-07	-0.00931328	-0.04175795
1.8e+08	-0.01065032	-0.0441549	5.301263e-08	9.342493e-08	0.003351683	0.007340923	3.875711e-07	3.184313e-07
	5.301263e-08	9.342493e-08	-0.01109639	-0.04397223	2.598879e-08	5.205082e-07	0.003162511	0.007429368
	0.003351683	0.007340923	2.598879e-08	5.205082e-07	-0.01068013	-0.04411306	7.177937e-08	1.28021e-07
	3.875711e-07	3.184313e-07	0.003162511	0.007429368	7.177937e-08	1.28021e-07	-0.0111146	-0.04393453
1.9e+08	-0.01250166	-0.04628786	5.692574e-08	9.631409e-08	0.003689473	0.007627093	4.203944e-07	3.180927e-07
	5.692574e-08	9.631409e-08	-0.01299249	-0.04607417	2.442734e-08	5.495252e-07	0.003481888	0.00772967
	0.003689473	0.007627093	2.442734e-08	5.495252e-07	-0.01253867	-0.04624224	7.70015e-08	1.320461e-07
	4.203944e-07	3.180927e-07	0.003481888	0.00772967	7.70015e-08	1.320461e-07	-0.01301643	-0.04603338
2e+08	-0.01444806	-0.04834234	6.088669e-08	9.89369e-08	0.004038517	0.007896041	4.537464e-07	3.154552e-07
	6.088669e-08	9.89369e-08	-0.01498483	-0.0480945	2.274819e-08	5.787556e-07	0.003812082	0.008014047
	0.004038517	0.007896041	2.274819e-08	5.787556e-07	-0.01449263	-0.04829237	8.228517e-08	1.357186e-07
	4.537464e-07	3.154552e-07	0.003812082	0.008014047	8.228517e-08	1.357186e-07	-0.01501484	-0.04805019
2.1e+08	-0.01648567	-0.05031432	6.488015e-08	1.01289e-07	0.004397956	0.008147272	4.8749e-07	3.104763e-07
	6.488015e-08	1.01289e-07	-0.01706939	-0.05002911	2.09673e-08	6.082108e-07	0.004152303	0.008282045
	0.004397956	0.008147272	2.09673e-08	6.082108e-07	-0.01653811	-0.05025944	8.761007e-08	1.390331e-07
	4.8749e-07	3.104763e-07	0.004152303	0.008282045	8.761007e-08	1.390331e-07	-0.01710577	-0.04998082
2.2e+08	-0.01861053	-0.05219998	6.889028e-08	1.03367e-07	0.004766902	0.008380332	5.214853e-07	3.031215e-07
	6.889028e-08	1.03367e-07	-0.01924202	-0.05187408	1.910067e-08	6.379017e-07	0.004501743	0.00853325
	0.004766902	0.008380332	1.910067e-08	6.379017e-07	-0.01867112	-0.05213959	9.295527e-08	1.419852e-07
	5.214853e-07	3.031215e-07	0.004501743	0.00853325	9.295527e-08	1.419852e-07	-0.01928501	-0.05182134
2.3e+08	-0.02081856	-0.05399568	7.290087e-08	1.051683e-07	0.005144448	0.008594811	5.5559e-07	2.933642e-07
	7.290087e-08	1.051683e-07	-0.02149842	-0.0536257	1.716445e-08	6.678386e-07	0.004859574	0.008767285
	0.005144448	0.008594811	1.716445e-08	6.678386e-07	-0.02088752	-0.05392919	9.829941e-08	1.445721e-07
	5.5559e-07	2.933642e-07	0.004859574	0.008767285	9.829941e-08	1.445721e-07	-0.02154825	-0.053568
2.4e+08	-0.02310556	-0.05569797	7.689542e-08	1.066914e-07	0.005529667	0.008790344	5.896601e-07	2.811861e-07
	7.689542e-08	1.066914e-07	-0.0238342	-0.05528045	1.517506e-08	6.980308e-07	0.005224955	0.008983813
	0.005529667	0.008790344	1.517506e-08	6.980308e-07	-0.02318308	-0.05562477	1.036207e-07	1.467921e-07
	5.896601e-07	2.811861e-07	0.005224955	0.008983813	1.036207e-07	1.467921e-07	-0.02389106	-0.05521728
2.5e+08	-0.02546722	-0.05730361	8.085721e-08	1.079356e-07	0.005921614	0.008966613	6.235503e-07	2.665769e-07
	8.085721e-08	1.079356e-07	-0.02624483	-0.05683503	1.314921e-08	7.284873e-07	0.005597027	0.009182538
	0.005921614	0.008966613	1.314921e-08	7.284873e-07	-0.02555345	-0.05722309	1.088973e-07	1.486447e-07
	6.235503e-07	2.665769e-07	0.005597027	0.009182538	1.088973e-07	1.486447e-07	-0.02630887	-0.05676587
2.6e+08	-0.02789912	-0.05880955	8.476936e-08	1.089012e-07	0.006319333	0.009123345	6.571145e-07	2.495344e-07
	8.476936e-08	1.089012e-07	-0.02872568	-0.05828636	1.110399e-08	7.592161e-07	0.005974923	0.009363206
	0.006319333	0.009123345	1.110399e-08	7.592161e-07	-0.02799419	-0.05872109	1.14107e-07	1.501308e-07
	6.571145e-07	2.495344e-07	0.005974923	0.009363206	1.14107e-07	1.501308e-07	-0.02879701	-0.05821068
2.7e+08	-0.03039674	-0.06021296	8.86149e-08	1.095896e-07	0.006721856	0.009260317	6.902064e-07	2.300648e-07
	8.86149e-08	1.095896e-07	-0.031272	-0.05963159	9.056838e-09	7.902243e-07	0.006357765	0.009525602
	0.006721855	0.009260316	9.056838e-09	7.902243e-07	-0.03050072	-0.06011593	1.192276e-07	1.512524e-07
	6.902064e-07	2.300648e-07	0.006357765	0.009525602	1.192276e-07	1.512524e-07	-0.03135073	-0.05954884
2.8e+08	-0.03295546	-0.06151123	9.237686e-08	1.10003e-07	0.007128206	0.009377352	7.226799e-07	2.081821e-07
	9.237686e-08	1.10003e-07	-0.03387898	-0.06086808	7.025579e-09	8.215184e-07	0.006744667	0.009669557
	0.007128206	0.009377352	7.025579e-09	8.215184e-07	-0.03306841	-0.06140499	1.24237e-07	1.520129e-07
	7.226799e-07	2.081821e-07	0.006744667	0.009669557	1.24237e-07	1.520129e-07	-0.03396516	-0.06077771
2.9e+08	-0.0355706	-0.06270194	9.603827e-08	1.101446e-07	0.007537404	0.009474325	7.543895e-07	1.839085e-07
	9.603827e-08	1.101446e-07	-0.03654169	-0.06199343	5.028379e-09	8.531039e-07	0.007134739	0.009794944
	0.007537404	0.009474325	5.028379e-09	8.531039e-07	-0.03569252	-0.06258584	1.29113e-07	1.52417e-07
	7.543895e-07	1.839085e-07	0.007134739	0.009794944	1.29113e-07	1.52417e-07	-0.03663535	-0.06189487
3e+08	-0.03823737	-0.06378292	9.958225e-08	1.100186e-07	0.007948465	0.009551155	7.851907e-07	1.572744e-07
	9.958225e-08	1.100186e-07	-0.03925517	-0.06300546	3.083743e-09	8.849852e-07	0.007527089	0.009901679
	0.007948465	0.009551155	3.083743e-09	8.849852e-07	-0.03836826	-0.06365631	1.338338e-07	1.524704e-07
	7.851907e-07	1.572744e-07	0.007527089	0.009901679	1.338338e-07	1.524704e-07	-0.03935628	-0.06289814
3.1e+08	-0.04095095	-0.06475217	1.02992e-07	1.096302e-07	0.008360404	0.009607812	8.149403e-07	1.283178e-07
	1.02992e-07	1.096302e-07	-0.04201435	-0.06390222	1.210474e-09	9.17166e-07	0.007920822	0.00998972
	0.008360404	0.009607812	1.210474e-09	9.17166e-07	-0.04109075	-0.06461439	1.383776e-07	1.521803e-07
	8.149403e-07	1.283178e-07	0.007920822	0.00998972	1.383776e-07	1.521803e-07	-0.04212288	-0.06378557
3.2e+08	-0.04370645	-0.06560795	1.062511e-07	1.089854e-07	0.008772241	0.009644313	8.434974e-07	9.708472e-08
	1.062511e-07	1.089854e-07	-0.04481414	-0.06468198	-5.723571e-10	9.496489e-07	0.008315047	0.01005907
	0.008772241	0.009644313	-5.723571e-10	9.496489e-07	-0.04385506	-0.06545835	1.427231e-07	1.515551e-07
	8.434974e-07	9.708472e-08	0.008315047	0.01005907	1.427231e-07	1.515551e-07	-0.04493	-0.06455544
3.3e+08	-0.04649893	-0.06634873	1.093431e-07	1.080914e-07	0.009182998	0.009660723	8.707231e-07	6.362892e-08
	1.093431e-07	1.080914e-07	-0.04764938	-0.06534327	-2.245441e-09	9.824355e-07	0.008708875	0.01010977
	0.009182998	0.009660723	-2.245441e-09	9.824355e-07	-0.04665621	-0.06618664	1.468492e-07	1.506042e-07
	8.707231e-07	6.362892e-08	0.008708875	0.01010977	1.468492e-07	1.506042e-07	-0.04777247	-0.06520624
3.4e+08	-0.0493234	-0.06697318	1.122521e-07	1.069562e-07	0.009591705	0.009657153	8.96481e-07	2.801173e-08
	1.122521e-07	1.069562e-07	-0.0505149	-0.06588481	-3.78929e-09	1.015526e-06	0.009101425	0.01014191
	0.009591705	0.009657153	-3.78929e-09	1.015526e-06	-0.0494892	-0.06679794	1.507352e-07	1.493384e-07
	8.96481e-07	2.801173e-08	0.009101425	0.01014191	1.507352e-07	1.493384e-07	-0.05064505	-0.06573674
3.5e+08	-0.05217487	-0.06748019	1.149625e-07	1.055888e-07	0.009997401	0.009633763	9.206382e-07	-9.698069e-09
	1.149625e-07	1.055888e-07	-0.05340547	-0.06630558	-5.184277e-09	1.048921e-06	0.009491824	0.01015562
	0.009997401	0.009633763	-5.184277e-09	1.048921e-06	-0.05234897	-0.06729115	1.543611e-07	1.477698e-07
	9.206382e-07	-9.698069e-09	0.009491824	0.01015562	1.543611e-07	1.477698e-07	-0.05354252	-0.06614589
3.6e+08	-0.05504831	-0.0678689	1.174591e-07	1.03999e-07	0.01039914	0.009590754	9.43065e-07	-4.942438e-08
	1.174591e-07	1.03999e-07	-0.05631588	-0.06660478	-6.410691e-09	1.082618e-06	0.009879206	0.01015107
	0.01039914	0.009590754	-6.410691e-09	1.082618e-06	-0.05523046	-0.0676654	1.577073e-07	1.459114e-07
	9.43065e-07	-4.942438e-08	0.009879206	0.01015107	1.577073e-07	1.459114e-07	-0.05645959	-0.06643289
3.7e+08	-0.05793867	-0.06813863	1.197271e-07	1.021977e-07	0.01079598	0.009528377	9.636354e-07	-9.108403e-08
	1.197271e-07	1.021977e-07	-0.05924087	-0.06678181	-7.448783e-09	1.116614e-06	0.01026272	0.01012845
	0.01079598	0.009528377	-7.448783e-09	1.116614e-06	-0.05812859	-0.06792002	1.607551e-07	1.437774e-07
	9.636354e-07	-9.108403e-08	0.01026272	0.01012845	1.607551e-07	1.437774e-07	-0.059391	-0.06659719
3.8e+08	-0.06084092	-0.06828893	1.217522e-07	1.001965e-07	0.01118701	0.009446922	9.822279e-07	-1.345869e-07
	1.217522e-07	1.001965e-07	-0.06217523	-0.06683635	-8.278817e-09	1.150905e-06	0.01064153	0.01008804
	0.01118701	0.009446922	-8.278817e-09	1.150905e-06	-0.06103828	-0.06805457	1.634861e-07	1.413833e-07
	9.822279e-07	-1.345869e-07	0.01064153	0.01008804	1.634861e-07	1.413833e-07	-0.06233148	-0.06663843
3.9e+08	-0.06375001	-0.06831955	1.235207e-07	9.800789e-08	0.01157132	0.009346725	9.987253e-07	-1.798363e-07
	1.235207e-07	9.800789e-08	-0.06511372	-0.06676825	-8.881142e-09	1.185488e-06	0.01101481	0.01003009
	0.01157132	0.009346725	-8.881142e-09	1.185488e-06	-0.06395446	-0.06806883	1.658828e-07	1.387454e-07
	9.987253e-07	-1.798363e-07	0.01101481	0.01003009	1.658828e-07	1.387454e-07	-0.06527577	-0.0665565
4e+08	-0.06666091	-0.06823048	1.250197e-07	9.564529e-08	0.01194803	0.009228163	1.013015e-06	-2.267289e-07
	1.250197e-07	9.564529e-08	-0.06805112	-0.06657762	-9.236229e-09	1.220355e-06	0.01138176	0.009954956
	0.01194803	0.009228163	-9.236229e-09	1.220355e-06	-0.06687204	-0.06796277	1.679288e-07	1.358813e-07
	1.013015e-06	-2.267289e-07	0.01138176	0.009954956	1.679288e-07	1.358813e-07	-0.06821862	-0.06635151
4.1e+08	-0.06956864	-0.0680219	1.262366e-07	9.312284e-08	0.01231629	0.009091651	1.024991e-06	-2.751553e-07
	1.262366e-07	9.312284e-08	-0.07098227	-0.06626476	-9.324747e-09	1.255499e-06	0.0117416	0.009862978
	0.01231629	0.009091651	-9.324747e-09	1.255499e-06	-0.069786	-0.06773661	1.696082e-07	1.328092e-07
	1.024991e-06	-2.751553e-07	0.0117416	0.009862978	1.696082e-07	1.328092e-07	-0.07115483	-0.06602378
4.2e+08	-0.0724682	-0.06769419	1.271599e-07	9.045548e-08	0.01267525	0.008937644	1.034551e-06	-3.250002e-07
	1.271599e-07	9.045548e-08	-0.07390201	-0.06583021	-9.127622e-09	1.290913e-06	0.01209355	0.009754555
	0.01267525	0.008937644	-9.127622e-09	1.290913e-06	-0.07269132	-0.06739074	1.709062e-07	1.295488e-07
	1.034551e-06	-3.250002e-07	0.01209355	0.009754555	1.709062e-07	1.295488e-07	-0.07407921	-0.06557387
4.3e+08	-0.07535467	-0.06724795	1.277785e-07	8.765888e-08	0.01302411	0.008766637	1.0416e-06	-3.761427e-07
	1.277785e-07	8.765888e-08	-0.07680525	-0.06527471	-8.626085e-09	1.326586e-06	0.01243687	0.009630116
	0.01302411	0.008766637	-8.626085e-09	1.326586e-06	-0.07558303	-0.06692578	1.718089e-07	1.261201e-07
	1.0416e-06	-3.761427e-07	0.01243687	0.009630116	1.718089e-07	1.261201e-07	-0.07698662	-0.06500253
4.4e+08	-0.07822315	-0.06668398	1.280824e-07	8.474942e-08	0.01336208	0.008579158	1.046047e-06	-4.284564e-07
	1.280824e-07	8.474942e-08	-0.07968693	-0.06459922	-7.801756e-09	1.362509e-06	0.01277086	0.009490119
	0.01336208	0.008579158	-7.801756e-09	1.362509e-06	-0.0784562	-0.06634255	1.723036e-07	1.225446e-07
	1.046047e-06	-4.284564e-07	0.01277086	0.009490119	1.723036e-07	1.225446e-07	-0.07987201	-0.06431075
4.5e+08	-0.08106879	-0.06600327	1.280623e-07	8.174413e-08	0.0136884	0.008375769	1.04781e-06	-4.818099e-07
	1.280623e-07	8.174413e-08	-0.08254206	-0.06380491	-6.636686e-09	1.398669e-06	0.0130948	0.009335056
	0.0136884	0.008375769	-6.636686e-09	1.398669e-06	-0.08130595	-0.06564207	1.723786e-07	1.18844e-07
	1.04781e-06	-4.818099e-07	0.0130948	0.009335056	1.723786e-07	1.18844e-07	-0.08273033	-0.0634997
4.6e+08	-0.08388682	-0.06520702	1.277098e-07	7.866064e-08	0.01400235	0.008157069	1.046813e-06	-5.360673e-07
	1.277098e-07	7.866064e-08	-0.08536573	-0.06289313	-5.113434e-09	1.435053e-06	0.01340804	0.009165446
	0.01400235	0.008157069	-5.113434e-09	1.435053e-06	-0.08412747	-0.06482555	1.720234e-07	1.15041e-07
	1.046813e-06	-5.360673e-07	0.01340804	0.009165446	1.720234e-07	1.15041e-07	-0.08555665	-0.06257078
4.7e+08	-0.08667253	-0.06429659	1.270175e-07	7.551716e-08	0.01430323	0.007923685	1.042984e-06	-5.910881e-07
	1.270175e-07	7.551716e-08	-0.08815309	-0.06186545	-3.21513e-09	1.471649e-06	0.01370993	0.008981838
	0.01430323	0.007923685	-3.21513e-09	1.471649e-06	-0.08691603	-0.06389441	1.712285e-07	1.111592e-07
	1.042984e-06	-5.910881e-07	0.01370993	0.008981838	1.712285e-07	1.111592e-07	-0.08834609	-0.06152558
4.8e+08	-0.08942128	-0.06327358	1.259788e-07	7.233242e-08	0.01459037	0.007676273	1.036263e-06	-6.46728e-07
	1.259788e-07	7.233242e-08	-0.09089938	-0.06072363	-9.255356e-10	1.508441e-06	0.01399986	0.008784807
