!$
! Info: Touchstone file created by Circ.  Input file=Tx_2in_Rx_100ohms_TxVia_10mils_RxVia_20mils.circ
!$
# Hz S RI R 50
0	0.002205804	2.190148e-26	-1.095108e-05	2.183398e-25	2.388897e-05	2.297356e-24	-1.097708e-05	3.035154e-24
	-1.095108e-05	2.186163e-25	0.002206491	2.852791e-26	-1.09443e-05	1.054307e-25	2.197168e-05	3.06929e-24
	2.258707e-05	2.238506e-24	-1.09443e-05	1.054547e-25	0.002221262	2.297751e-26	-1.095431e-05	4.07181e-25
	-1.097707e-05	3.034641e-24	2.34303e-05	3.159039e-24	-1.09543e-05	4.067e-25	0.002212151	2.726815e-26
1e+07	0.003090312	0.001644935	-3.904688e-05	6.543018e-07	0.0001116377	0.0004964096	-1.475522e-05	-2.319684e-06
	-3.904688e-05	6.543012e-07	0.003122248	0.001644352	-4.545941e-06	2.416315e-05	0.0001109426	0.0004952876
	0.0001115938	0.0004964129	-4.545941e-06	2.416315e-05	0.003138108	0.001648508	-3.906896e-05	6.179109e-07
	-1.475522e-05	-2.319684e-06	0.0001109747	0.0004952762	-3.906896e-05	6.179112e-07	0.003106687	0.00164742
2e+07	0.003851318	0.002640883	-2.93428e-05	-1.643686e-05	0.0001122736	0.001021587	-1.133218e-05	-4.288055e-06
	-2.93428e-05	-1.643686e-05	0.003875214	0.002627685	-1.629678e-05	3.846971e-05	0.0001097471	0.001019491
	0.0001122637	0.001021615	-1.629678e-05	3.846971e-05	0.003893807	0.00263522	-2.936834e-05	-1.652178e-05
	-1.133218e-05	-4.288055e-06	0.0001097441	0.00101947	-2.936834e-05	-1.652178e-05	0.003866422	0.002644803
3e+07	0.004475983	0.003355413	-2.210471e-05	-2.231315e-05	0.0001424327	0.00151076	-8.844971e-06	-6.463216e-06
	-2.210471e-05	-2.231315e-05	0.004492086	0.003337294	-3.323415e-05	4.160081e-05	0.0001369254	0.001507924
	0.0001424334	0.001510764	-3.323415e-05	4.160081e-05	0.004514977	0.003347938	-2.214043e-05	-2.244127e-05
	-8.844971e-06	-6.463216e-06	0.0001369203	0.001507922	-2.214043e-05	-2.244127e-05	0.004490024	0.003362441
4e+07	0.00504101	0.003955539	-1.618158e-05	-2.555057e-05	0.0002037314	0.001987572	-6.789476e-06	-7.575815e-06
	-1.618158e-05	-2.555057e-05	0.00504886	0.003934477	-4.767737e-05	4.12662e-05	0.0001940878	0.001984246
	0.0002037275	0.00198757	-4.767737e-05	4.12662e-05	0.005077645	0.003947751	-1.622573e-05	-2.572446e-05
	-6.789476e-06	-7.575815e-06	0.0001940873	0.001984248	-1.622573e-05	-2.572446e-05	0.005054155	0.003964191
5e+07	0.0055743	0.004480842	-1.107898e-05	-2.747736e-05	0.000325021	0.00245102	-4.997863e-06	-8.186703e-06
	-1.107898e-05	-2.747736e-05	0.005573205	0.004458079	-6.070522e-05	3.894172e-05	0.0003100927	0.002447518
	0.0003250194	0.002451019	-6.070522e-05	3.894172e-05	0.005609388	0.004473317	-1.11309e-05	-2.769892e-05
	-4.997863e-06	-8.186703e-06	0.0003100922	0.002447518	-1.11309e-05	-2.769892e-05	0.005585042	0.004490585
6e+07	0.006089134	0.004949829	-6.533878e-06	-2.85522e-05	0.000463901	0.002904839	-3.381272e-06	-8.487932e-06
	-6.533878e-06	-2.85522e-05	0.006078319	0.004926388	-7.290283e-05	3.516518e-05	0.0004425934	0.002901588
	0.0004639063	0.002904837	-7.290283e-05	3.516518e-05	0.006123274	0.004942818	-6.592934e-06	-2.88234e-05
	-3.381272e-06	-8.487932e-06	0.0004425904	0.002901588	-6.592934e-06	-2.88234e-05	0.006096464	0.004960968
7e+07	0.006592922	0.005373101	-7.926198e-06	-2.806829e-05	0.0006204004	0.003348956	-1.874121e-06	-8.533996e-06
	-7.926199e-06	-2.806829e-05	0.006571584	0.005349939	-8.464863e-05	3.012578e-05	0.0005916592	0.003346431
	0.0006204108	0.00334895	-8.464863e-05	3.012578e-05	0.006626574	0.005366731	-7.992342e-06	-2.838726e-05
	-1.874121e-06	-8.533996e-06	0.0005916545	0.003346434	-7.992342e-06	-2.838726e-05	0.006596299	0.00538571
8e+07	0.007090222	0.005757593	-1.312138e-05	-2.603838e-05	0.0007943453	0.003782848	-2.793192e-06	-7.913118e-06
	-1.312138e-05	-2.603838e-05	0.007057556	0.005735686	-9.625398e-05	2.371646e-05	0.0007571348	0.003781571
	0.000794356	0.003782838	-9.625398e-05	2.371646e-05	0.00712376	0.005751965	-1.319171e-05	-2.640366e-05
	-2.793192e-06	-7.913118e-06	0.0007571301	0.003781575	-1.319171e-05	-2.640366e-05	0.007088983	0.00577136
9e+07	0.007584071	0.006108635	-1.779503e-05	-2.293555e-05	0.0009853655	0.004205563	-4.270387e-06	-6.811771e-06
	-1.779503e-05	-2.293555e-05	0.007539299	0.006089062	-0.0001080778	1.536753e-05	0.0009386584	0.004206116
	0.0009853718	0.004205554	-0.0001080778	1.536753e-05	0.00761783	0.006103915	-1.786833e-05	-2.334847e-05
	-4.270387e-06	-6.811771e-06	0.0009386556	0.00420612	-1.786833e-05	-2.334847e-05	0.007577153	0.006123141
1e+08	0.008077539	0.006434188	-2.167608e-05	-1.772328e-05	0.001192508	0.004614211	-5.447759e-06	-5.010711e-06
	-2.167608e-05	-1.772328e-05	0.008020048	0.006418599	-0.0001210637	1.689769e-06	0.001135283	0.004617252
	0.001192508	0.004614211	-0.0001210637	1.689769e-06	0.008111952	0.006431066	-2.174998e-05	-1.818607e-05
	-5.447759e-06	-5.010711e-06	0.001135284	0.004617251	-2.174998e-05	-1.818607e-05	0.00806351	0.006449201
1.1e+08	0.008588641	0.006715429	-2.115499e-05	-1.347152e-05	0.001407735	0.005014471	-5.13208e-06	-3.548257e-06
	-2.115499e-05	-1.347152e-05	0.008519062	0.00670492	-0.0001215688	-1.427246e-05	0.001338637	0.005020335
	0.001407735	0.005014471	-0.0001215688	-1.427246e-05	0.008626574	0.006713807	-2.123227e-05	-1.398517e-05
	-5.13208e-06	-3.548257e-06	0.001338637	0.005020335	-2.123227e-05	-1.398517e-05	0.008566363	0.006733225
1.2e+08	0.009093762	0.00696192	-2.094682e-05	-1.10158e-05	0.001640476	0.005407379	-4.922706e-06	-2.69362e-06
	-2.094682e-05	-1.10158e-05	0.009011405	0.006956153	-0.000121396	-2.43653e-05	0.001558769	0.005417191
	0.001640476	0.005407379	-0.000121396	-2.43653e-05	0.00913489	0.00696002	-2.103008e-05	-1.158119e-05
	-4.922706e-06	-2.69362e-06	0.001558769	0.005417191	-2.103008e-05	-1.158119e-05	0.009062611	0.006982497
1.3e+08	0.009595809	0.007179833	-2.084875e-05	-9.15868e-06	0.001889803	0.005789741	-4.744172e-06	-2.048304e-06
	-2.084875e-05	-9.15868e-06	0.00949996	0.007179099	-0.0001212867	-3.230638e-05	0.001794799	0.005804513
	0.001889803	0.005789741	-0.0001212867	-3.230638e-05	0.009639785	0.007176748	-2.093962e-05	-9.777121e-06
	-4.744172e-06	-2.048304e-06	0.001794799	0.005804513	-2.093962e-05	-9.777121e-06	0.009554979	0.007203341
1.4e+08	0.01009607	0.007370864	-2.08184e-05	-7.641481e-06	0.00215509	0.006160329	-4.58121e-06	-1.527438e-06
	-2.08184e-05	-7.641481e-06	0.009985955	0.007375653	-0.0001213341	-3.891228e-05	0.002046124	0.006181027
	0.00215509	0.006160329	-0.0001213341	-3.891228e-05	0.01014254	0.007366015	-2.091851e-05	-8.314406e-06
	-4.58121e-06	-1.527438e-06	0.002046124	0.006181027	-2.091851e-05	-8.314406e-06	0.01004466	0.007397616
1.5e+08	0.01059515	0.007535959	-2.083677e-05	-6.342624e-06	0.002435725	0.006518218	-4.427909e-06	-1.091359e-06
	-2.083677e-05	-6.342624e-06	0.01046995	0.00754691	-0.0001215621	-4.456673e-05	0.002312152	0.006545801
	0.002435725	0.006518218	-0.0001215621	-4.456673e-05	0.01064376	0.007528965	-2.094788e-05	-7.071515e-06
	-4.427909e-06	-1.091359e-06	0.002312152	0.006545801	-2.094788e-05	-7.071515e-06	0.0105322	0.007566424
1.6e+08	0.0110932	0.007675779	-2.089249e-05	-5.192107e-06	0.002731077	0.006862606	-4.281227e-06	-7.174969e-07
	-2.089249e-05	-5.192107e-06	0.01095211	0.007693659	-0.0001219727	-4.949016e-05	0.00259228	0.006898054
	0.002731077	0.006862606	-0.0001219727	-4.949016e-05	0.01114366	0.007666383	-2.101651e-05	-5.978471e-06
	-4.281227e-06	-7.174969e-07	0.00259228	0.006898054	-2.101651e-05	-5.978471e-06	0.01101778	0.007710564
1.7e+08	0.01159012	0.007790856	-2.097749e-05	-4.144954e-06	0.003040494	0.007192766	-4.139392e-06	-3.915375e-07
	-2.097749e-05	-4.144954e-06	0.01143235	0.007816547	-0.00012256	-5.382369e-05	0.002885885	0.007237091
	0.003040494	0.007192766	-0.00012256	-5.382369e-05	0.01164217	0.007778877	-2.111653e-05	-4.9903e-06
	-4.139392e-06	-3.915375e-07	0.002885885	0.007237091	-2.111653e-05	-4.9903e-06	0.01150132	0.007830688
1.8e+08	0.01208563	0.007881668	-2.108539e-05	-3.170282e-06	0.003363293	0.007508022	-4.001291e-06	-1.037543e-07
	-2.108539e-05	-3.170282e-06	0.01191044	0.00791615	-0.0001233141	-5.766371e-05	0.003192328	0.007562276
	0.003363293	0.007508022	-0.0001233141	-5.766371e-05	0.01213906	0.007866969	-2.124177e-05	-4.076103e-06
	-4.001291e-06	-1.037544e-07	0.003192328	0.007562276	-2.124177e-05	-4.076103e-06	0.0119826	0.007927377
1.9e+08	0.01257933	0.007948668	-2.121078e-05	-2.245847e-06	0.003698764	0.007807748	-3.866182e-06	1.527928e-07
	-2.121078e-05	-2.245847e-06	0.01238602	0.007993008	-0.0001242239	-6.107947e-05	0.003510947	0.007873022
	0.003698764	0.007807748	-0.0001242239	-6.107947e-05	0.01263394	0.007931134	-2.1387e-05	-3.213598e-06
	-3.866182e-06	1.527928e-07	0.003510947	0.007873022	-2.1387e-05	-3.213598e-06	0.01246129	0.008001169
2e+08	0.01307075	0.007992289	-2.134879e-05	-1.355114e-06	0.004046172	0.008091353	-3.73355e-06	3.832453e-07
	-2.134879e-05	-1.355114e-06	0.01285871	0.008047631	-0.0001252773	-6.412252e-05	0.003841062	0.008168783
	0.004046172	0.008091353	-0.0001252773	-6.412252e-05	0.01312639	0.00797182	-2.154758e-05	-2.386193e-06
	-3.73355e-06	3.832453e-07	0.003841062	0.008168783	-2.154758e-05	-2.386193e-06	0.01293697	0.008052575
2.1e+08	0.01355937	0.008012956	-2.149489e-05	-4.854595e-07	0.004404753	0.008358292	-3.603028e-06	5.915185e-07
	-2.149489e-05	-4.854595e-07	0.01332807	0.008080507	-0.0001264626	-6.683256e-05	0.004181969	0.008449047
	0.004404753	0.008358292	-0.0001264626	-6.683256e-05	0.01361588	0.007989456	-2.171919e-05	-1.581186e-06
	-3.603028e-06	5.915185e-07	0.004181969	0.008449047	-2.171919e-05	-1.581186e-06	0.01340922	0.008082078
2.2e+08	0.01404465	0.008011089	-2.164478e-05	3.728582e-07	0.004773721	0.008608053	-3.474344e-06	7.806662e-07
	-2.164478e-05	3.728582e-07	0.01379362	0.00809211	-0.0001277681	-6.924077e-05	0.004532948	0.008713341
	0.004773721	0.008608053	-0.0001277681	-6.924077e-05	0.01410189	0.007984461	-2.189775e-05	-7.887408e-07
	-3.474344e-06	7.806662e-07	0.004532948	0.008713341	-2.189775e-05	-7.887408e-07	0.01387756	0.00809015
2.3e+08	0.01452604	0.007987106	-2.179439e-05	1.227378e-06	0.005152267	0.008840169	-3.347295e-06	9.531189e-07
	-2.179439e-05	1.227378e-06	0.01425489	0.008082905	-0.0001291821	-7.137228e-05	0.004893258	0.008961226
	0.005152267	0.008840169	-0.0001291821	-7.137228e-05	0.01458386	0.007957255	-2.207938e-05	-1.199443e-09
	-3.347295e-06	9.531189e-07	0.004893258	0.008961226	-2.207938e-05	-1.199443e-09	0.01434151	0.008077256
2.4e+08	0.01500295	0.007941418	-2.19397e-05	2.084077e-06	0.005539561	0.009054208	-3.221727e-06	1.110836e-06
	-2.19397e-05	2.084077e-06	0.01471138	0.008053334	-0.0001306939	-7.32479e-05	0.005262138	0.009192297
	0.005539561	0.009054208	-0.0001306939	-7.32479e-05	0.01506121	0.007908249	-2.226029e-05	7.875513e-07
	-3.221727e-06	1.110836e-06	0.005262138	0.009192297	-2.226029e-05	7.875513e-07	0.01480058	0.008043839
2.5e+08	0.01547482	0.007874435	-2.207685e-05	2.947536e-06	0.005934754	0.00924978	-3.097522e-06	1.255427e-06
	-2.207685e-05	2.947536e-06	0.01516261	0.00800384	-0.0001322928	-7.4885e-05	0.005638814	0.009406187
	0.005934754	0.00924978	-0.0001322928	-7.4885e-05	0.01553335	0.007837856	-2.243682e-05	1.582249e-06
	-3.097522e-06	1.255427e-06	0.005638814	0.009406187	-2.243682e-05	1.582249e-06	0.01525425	0.007990344
2.6e+08	0.01594104	0.007786562	-2.220207e-05	3.821298e-06	0.006336979	0.009426535	-2.974586e-06	1.388224e-06
	-2.220207e-05	3.821298e-06	0.01560808	0.007934855	-0.0001339688	-7.62985e-05	0.006022492	0.009602563
	0.006336979	0.009426535	-0.0001339688	-7.62985e-05	0.01599971	0.007746486	-2.260537e-05	2.386612e-06
	-2.974586e-06	1.388224e-06	0.006022492	0.009602563	-2.260537e-05	2.386612e-06	0.01570204	0.007917202
2.7e+08	0.01640106	0.007678212	-2.231169e-05	4.70795e-06	0.006745354	0.009584163	-2.852842e-06	1.51035e-06
	-2.231169e-05	4.70795e-06	0.01604729	0.007846802	-0.0001357117	-7.750141e-05	0.006412366	0.009781129
	0.006745354	0.009584163	-0.0001357117	-7.750141e-05	0.01645968	0.007634552	-2.276248e-05	3.203423e-06
	-2.852842e-06	1.51035e-06	0.006412366	0.00978113	-2.276248e-05	3.203423e-06	0.01614342	0.007824841
2.8e+08	0.01685427	0.007549795	-2.240214e-05	5.609373e-06	0.007158985	0.009722397	-2.732235e-06	1.622747e-06
	-2.240214e-05	5.609373e-06	0.01647975	0.007740104	-0.0001375127	-7.850522e-05	0.006807619	0.009941626
	0.007158985	0.009722397	-0.0001375127	-7.850522e-05	0.01691268	0.007502477	-2.290474e-05	4.034777e-06
	-2.732235e-06	1.622747e-06	0.006807619	0.009941626	-2.290474e-05	4.034777e-06	0.01657791	0.007713696
2.9e+08	0.0173001	0.007401728	-2.246995e-05	6.526785e-06	0.007576964	0.00984101	-2.612719e-06	1.726224e-06
	-2.246995e-05	6.526785e-06	0.01690494	0.007615185	-0.0001393628	-7.932028e-05	0.00720742	0.01008383
	0.007576964	0.00984101	-0.0001393628	-7.932028e-05	0.01735811	0.007350682	-2.302884e-05	4.88212e-06
	-2.612719e-06	1.726224e-06	0.00720742	0.01008383	-2.302884e-05	4.88212e-06	0.01700498	0.007584187
3e+08	0.01773797	0.007234428	-2.251179e-05	7.460788e-06	0.007998376	0.009939819	-2.494255e-06	1.821476e-06
	-2.251179e-05	7.460788e-06	0.01732239	0.007472465	-0.0001412535	-7.995611e-05	0.00761093	0.01020756
	0.007998376	0.009939819	-0.0001412535	-7.995611e-05	0.01779539	0.007179599	-2.31316e-05	5.746303e-06
	-2.494255e-06	1.821476e-06	0.00761093	0.01020756	-2.31316e-05	5.746303e-06	0.01742413	0.007436747
3.1e+08	0.0181673	0.007048329	-2.252441e-05	8.411532e-06	0.008422296	0.01001868	-2.376818e-06	1.909101e-06
	-2.252441e-05	8.411532e-06	0.0177316	0.007312371	-0.0001431771	-8.042138e-05	0.008017303	0.01031268
	0.008422296	0.01001868	-0.0001431771	-8.042138e-05	0.01822394	0.006989666	-2.320993e-05	6.627738e-06
	-2.376818e-06	1.909101e-06	0.008017303	0.01031268	-2.320993e-05	6.627738e-06	0.01783488	0.007271809
3.2e+08	0.01858751	0.006843864	-2.250474e-05	9.37869e-06	0.008847796	0.0100775	-2.260386e-06	1.989621e-06
	-2.250474e-05	9.37869e-06	0.01813207	0.007135329	-0.0001451259	-8.072425e-05	0.008425687	0.01039906
	0.008847796	0.0100775	-0.0001451259	-8.072425e-05	0.01864317	0.006781331	-2.326084e-05	7.526376e-06
	-2.260386e-06	1.989621e-06	0.008425687	0.01039906	-2.326084e-05	7.526376e-06	0.01823671	0.00708981
3.3e+08	0.01899805	0.00662148	-2.244984e-05	1.03615e-05	0.009273941	0.01011621	-2.144938e-06	2.063496e-06
	-2.244984e-05	1.03615e-05	0.01852332	0.006941777	-0.0001470928	-8.087261e-05	0.008835223	0.01046665
	0.009273941	0.01011621	-0.0001470928	-8.087261e-05	0.01905252	0.006555052	-2.328151e-05	8.441749e-06
	-2.144938e-06	2.063496e-06	0.008835223	0.01046665	-2.328151e-05	8.441749e-06	0.01862914	0.00689119
3.4e+08	0.01939835	0.00638164	-2.235692e-05	1.135888e-05	0.009699796	0.01013482	-2.030466e-06	2.131126e-06
	-2.235692e-05	1.135888e-05	0.01890488	0.006732157	-0.0001490711	-8.087378e-05	0.009245055	0.01051541
	0.009699796	0.01013482	-0.0001490711	-8.087378e-05	0.01945143	0.006311301	-2.326923e-05	9.373078e-06
	-2.030466e-06	2.131126e-06	0.009245055	0.01051541	-2.326923e-05	9.373078e-06	0.01901169	0.006676406
3.5e+08	0.01978786	0.006124811	-2.222336e-05	1.236939e-05	0.01012443	0.01013333	-1.916962e-06	2.192864e-06
	-2.222336e-05	1.236939e-05	0.01927628	0.00650692	-0.0001510545	-8.073496e-05	0.009654321	0.01054536
	0.01012443	0.01013333	-0.0001510545	-8.073496e-05	0.01983933	0.006050563	-2.322144e-05	1.031924e-05
	-1.916962e-06	2.192864e-06	0.009654321	0.01054536	-2.322144e-05	1.031924e-05	0.01938387	0.006445915
3.6e+08	0.02016603	0.005851479	-2.204672e-05	1.339131e-05	0.0105469	0.01011184	-1.804423e-06	2.249025e-06
	-2.204672e-05	1.339131e-05	0.01963704	0.006266525	-0.0001530373	-8.046293e-05	0.01006216	0.01055653
	0.0105469	0.01011184	-0.0001530373	-8.046293e-05	0.02021568	0.005773331	-2.313575e-05	1.127883e-05
	-1.804423e-06	2.249025e-06	0.01006216	0.01055653	-2.313575e-05	1.127883e-05	0.01974522	0.006200188
3.7e+08	0.02053233	0.005562141	-2.182476e-05	1.442263e-05	0.01096629	0.01007045	-1.69285e-06	2.299889e-06
	-2.182476e-05	1.442263e-05	0.01998671	0.006011442	-0.0001550141	-8.006439e-05	0.01046773	0.01054903
	0.01096629	0.01007045	-0.0001550141	-8.006439e-05	0.02057995	0.005480119	-2.300993e-05	1.225018e-05
	-1.69285e-06	2.299889e-06	0.01046773	0.01054903	-2.300993e-05	1.225018e-05	0.02009528	0.005939704
3.8e+08	0.02088623	0.005257314	-2.155542e-05	1.54611e-05	0.01138166	0.01000931	-1.582247e-06	2.345704e-06
	-2.155542e-05	1.54611e-05	0.02032484	0.005742153	-0.0001569798	-7.954592e-05	0.01087016	0.01052297
	0.01138166	0.01000931	-0.0001569798	-7.954592e-05	0.02093161	0.005171451	-2.284193e-05	1.323139e-05
	-1.582247e-06	2.345704e-06	0.01087016	0.01052297	-2.284193e-05	1.323139e-05	0.02043359	0.005664954
3.9e+08	0.02122723	0.004937526	-2.123685e-05	1.650425e-05	0.01179211	0.009928643	-1.47262e-06	2.386694e-06
	-2.123685e-05	1.650425e-05	0.02065101	0.005459149	-0.0001589298	-7.891389e-05	0.01126862	0.01047852
	0.01179211	0.009928643	-0.0001589298	-7.891389e-05	0.02127015	0.00484787	-2.262988e-05	1.422033e-05
	-1.47262e-06	2.386694e-06	0.01126862	0.01047852	-2.262988e-05	1.422033e-05	0.02075972	0.005376441
4e+08	0.02155483	0.004603316	-2.086745e-05	1.75494e-05	0.01219673	0.009828675	-1.363979e-06	2.423059e-06
	-2.086745e-05	1.75494e-05	0.02096477	0.005162936	-0.0001608598	-7.817471e-05	0.01166227	0.01041588
	0.01219673	0.009828675	-0.0001608598	-7.817471e-05	0.02159507	0.004509927	-2.23721e-05	1.521466e-05
	-1.363979e-06	2.423059e-06	0.01166227	0.01041588	-2.23721e-05	1.521466e-05	0.02107324	0.005074678
4.1e+08	0.02186853	0.00425525	-2.044579e-05	1.859371e-05	0.01259463	0.009709691	-1.256337e-06	2.45498e-06
	-2.044579e-05	1.859371e-05	0.02126573	0.004854029	-0.000162766	-7.733459e-05	0.01205028	0.01033529
	0.01259463	0.009709691	-0.000162766	-7.733459e-05	0.02190589	0.004158201	-2.206713e-05	1.621192e-05
	-1.256337e-06	2.45498e-06	0.01205028	0.01033529	-2.206713e-05	1.621192e-05	0.02137374	0.004760195
4.2e+08	0.02216788	0.003893903	-1.997072e-05	1.963418e-05	0.01298492	0.009572017	-1.149711e-06	2.48262e-06
	-1.997072e-05	1.963418e-05	0.02155348	0.004532957	-0.0001646451	-7.639947e-05	0.01243183	0.01023702
	0.01298492	0.009572017	-0.0001646451	-7.639947e-05	0.02220215	0.003793271	-2.17137e-05	1.720945e-05
	-1.149711e-06	2.48262e-06	0.01243183	0.01023702	-2.17137e-05	1.720945e-05	0.02166081	0.004433525
4.3e+08	0.02245242	0.003519862	-1.944128e-05	2.06677e-05	0.01336674	0.009416015	-1.04412e-06	2.506126e-06
	-1.944128e-05	2.06677e-05	0.02182764	0.004200257	-0.0001664941	-7.537529e-05	0.01280613	0.0101214
	0.01336674	0.009416015	-0.0001664941	-7.537529e-05	0.0224834	0.003415746	-2.131075e-05	1.820447e-05
	-1.04412e-06	2.506126e-06	0.01280613	0.0101214	-2.131075e-05	1.820447e-05	0.02193407	0.004095221
4.4e+08	0.02272172	0.003133738	-1.88568e-05	2.1691e-05	0.01373925	0.009242089	-9.395856e-07	2.525632e-06
	-1.88568e-05	2.1691e-05	0.02208784	0.003856483	-0.0001683103	-7.426788e-05	0.01317239	0.009988761
	0.01373925	0.009242089	-0.0001683103	-7.426788e-05	0.0227492	0.003026239	-2.085745e-05	1.919411e-05
	-9.395856e-07	2.525632e-06	0.01317239	0.009988761	-2.085745e-05	1.919411e-05	0.02219316	0.003745844
4.5e+08	0.02297535	0.002736148	-1.821683e-05	2.270076e-05	0.01410161	0.009050679	-8.361329e-07	2.541262e-06
	-1.821683e-05	2.270076e-05	0.02233373	0.003502196	-0.0001700915	-7.308317e-05	0.01352984	0.009839497
	0.01410161	0.009050679	-0.0001700915	-7.308317e-05	0.02299915	0.002625383	-2.035319e-05	2.017536e-05
	-8.361329e-07	2.541262e-06	0.01352984	0.009839497	-2.035319e-05	2.017536e-05	0.02243771	0.003385968
4.6e+08	0.02321294	0.002327731	-1.752117e-05	2.369356e-05	0.01445301	0.008842265	-7.337837e-07	2.553124e-06
	-1.752117e-05	2.369356e-05	0.02256497	0.003137971	-0.000171836	-7.182644e-05	0.01387771	0.009674025
	0.01445301	0.008842265	-0.000171836	-7.182644e-05	0.02323285	0.002213824	-1.979758e-05	2.114517e-05
	-7.337837e-07	2.553124e-06	0.01387771	0.009674025	-1.979758e-05	2.114517e-05	0.0226674	0.003016178
4.7e+08	0.02343408	0.001909133	-1.676986e-05	2.466594e-05	0.01479267	0.008617363	-6.32514e-07	2.561287e-06
	-1.676986e-05	2.466594e-05	0.02278125	0.002764394	-0.000173542	-7.050366e-05	0.01421529	0.009492798
	0.01479267	0.008617363	-0.000173542	-7.050366e-05	0.02344994	0.001792225	-1.919043e-05	2.210038e-05
