!$
! Info: Touchstone file created by Circ.  Input file=Tx_2in_Rx_93ohms_TxVia_10mils_RxVia_20mils.circ
!$
# Hz S RI R 50
0	0.001963973	2.440843e-26	0.9979049	-2.054959e-26	2.253391e-05	1.960333e-24	-2.096394e-05	1.232877e-21
	0.9979049	-2.080932e-26	0.001963585	2.850894e-26	-2.083275e-05	1.216852e-21	2.196021e-05	2.721936e-24
	2.480779e-05	1.964993e-24	-2.078051e-05	1.210465e-21	0.001956816	2.123589e-26	0.9978748	-1.792987e-26
	-2.13758e-05	1.283325e-21	2.341893e-05	2.801528e-24	0.9978748	-1.892646e-26	0.001969247	2.725003e-26
1e+07	0.002860773	0.0001019738	0.9968064	-0.02284026	4.637892e-05	0.0004876265	-3.492365e-05	-5.488478e-05
	0.9968064	-0.02284026	0.002859811	0.0001016156	-3.494756e-05	-5.486169e-05	4.574107e-05	0.0004877511
	4.642668e-05	0.0004876	-3.490842e-05	-5.48815e-05	0.002820423	9.803647e-05	0.9968453	-0.02293432
	-3.488451e-05	-5.49046e-05	4.577311e-05	0.0004877397	0.9968453	-0.02293432	0.002819468	9.766839e-05
2e+07	0.003466677	-0.0004411767	0.9953527	-0.04495425	6.656247e-05	0.0009807992	-2.329415e-05	-0.0001176291
	0.9953527	-0.04495425	0.003462781	-0.0004418669	-2.328938e-05	-0.0001176025	6.403988e-05	0.0009812122
	6.655437e-05	0.0009807744	-2.328767e-05	-0.0001176311	0.003436443	-0.0004285776	0.9953724	-0.04516227
	-2.328257e-05	-0.000117664	6.403678e-05	0.0009811913	0.9953724	-0.04516227	0.003432696	-0.0004292536
3e+07	0.00388404	-0.001222505	0.9935779	-0.06677834	0.0001238447	0.001456793	-2.889265e-05	-0.000166056
	0.9935779	-0.06677834	0.003875164	-0.001223326	-2.890148e-05	-0.0001660499	0.000118242	0.001457679
	0.0001238453	0.001456789	-2.890361e-05	-0.0001660544	0.003862275	-0.001204888	0.9935772	-0.06708538
	-2.8894e-05	-0.0001660626	0.0001182369	0.001457677	0.9935772	-0.06708538	0.003853821	-0.001205634
4e+07	0.004184666	-0.002097677	0.9914088	-0.0884541	0.0002128589	0.001924184	-4.63691e-05	-0.0002093011
	0.9914088	-0.0884541	0.004168764	-0.00209827	-4.638973e-05	-0.0002092888	0.0002029844	0.001925818
	0.000212863	0.00192418	-4.638694e-05	-0.0002092874	0.004170907	-0.002079558	0.9913852	-0.08885702
	-4.636605e-05	-0.0002092961	0.000202984	0.001925819	0.9913852	-0.08885702	0.004155781	-0.002080145
5e+07	0.004395112	-0.003029133	0.9888212	-0.1100103	0.0003209873	0.002384347	-6.318512e-05	-0.0002499237
	0.9888212	-0.1100103	0.004370167	-0.003028976	-6.320333e-05	-0.0002499123	0.0003056845	0.002387089
	0.0003209885	0.002384344	-6.320173e-05	-0.0002499119	0.004387726	-0.003012865	0.9887711	-0.1105069
	-6.318261e-05	-0.0002499211	0.000305684	0.002387089	0.9887711	-0.1105069	0.004363891	-0.003012741
6e+07	0.004528351	-0.003997913	0.9858042	-0.1314568	0.0004481981	0.002837138	-7.97396e-05	-0.0002888388
	0.9858042	-0.1314568	0.004492397	-0.003996341	-7.976054e-05	-0.0002888413	0.0004263458	0.002841422
	0.0004481981	0.00283714	-7.976388e-05	-0.0002888412	0.004526237	-0.003984583	0.9857239	-0.1320449
	-7.974463e-05	-0.0002888411	0.0004263429	0.002841423	0.9857239	-0.1320449	0.004491851	-0.00398302
7e+07	0.004591993	-0.004991963	0.9823523	-0.1527958	0.0005943289	0.003282064	-9.62803e-05	-0.000326406
	0.9823523	-0.1527958	0.004543125	-0.004988191	-9.631563e-05	-0.0003264228	0.0005648416	0.003288391
	0.0005943299	0.003282068	-9.632357e-05	-0.0003264211	0.004594565	-0.004982579	0.9822382	-0.1534732
	-9.629426e-05	-0.0003264106	0.0005648369	0.003288394	0.9822382	-0.1534732	0.004547874	-0.004978856
8e+07	0.004591106	-0.006002441	0.9784624	-0.1740257	0.0007591139	0.003718465	-0.0001128496	-0.000362788
	0.9784624	-0.1740257	0.004527471	-0.005995574	-0.0001129039	-0.0003628087	0.0007209362	0.003727399
	0.0007591163	0.00371847	-0.0001129134	-0.0003628054	0.004597804	-0.005998275	0.9783113	-0.1747903
	-0.0001128681	-0.0003627919	0.0007209315	0.003727403	0.9783113	-0.1747903	0.004536991	-0.005991646
9e+07	0.004529487	-0.007021738	0.9741328	-0.1951434	0.0009422025	0.004145607	-0.0001293663	-0.0003981242
	0.9741328	-0.1951434	0.004449283	-0.007010778	-0.0001294326	-0.0003981356	0.0008943044	0.004157776
	0.0009422049	0.00414561	-0.0001294396	-0.0003981322	0.004539481	-0.007024319	0.9739416	-0.195993
	-0.0001293809	-0.0003981259	0.0008943016	0.004157779	0.9739416	-0.195993	0.004462631	-0.007013893
1e+08	0.004411442	-0.008038137	0.9693619	-0.2161497	0.001143187	0.004562662	-0.0001457203	-0.0004325225
	0.9693619	-0.2161497	0.004312925	-0.008021977	-0.0001457814	-0.0004325148	0.001084563	0.004578765
	0.001143187	0.004562662	-0.0001457812	-0.000432515	0.004423398	-0.008049814	0.9691277	-0.2170811
	-0.0001457201	-0.0004325227	0.001084563	0.004578765	0.9691277	-0.2170811	0.004328568	-0.008034467
1.1e+08	0.004261801	-0.009072605	0.9641302	-0.2370196	0.001361436	0.004969269	-0.0001620726	-0.0004664754
	0.9641302	-0.2370196	0.004142671	-0.00904933	-0.0001621692	-0.00046649	0.001290601	0.004989565
	0.001361437	0.004969268	-0.0001621691	-0.0004664902	0.004272006	-0.009091188	0.9638517	-0.2380326
	-0.0001620724	-0.0004664756	0.001290601	0.004989564	0.9638517	-0.2380326	0.004156904	-0.009069452
1.2e+08	0.004050783	-0.01011532	0.9584662	-0.2577414	0.001596615	0.005364554	-0.0001786185	-0.0005004898
	0.9584662	-0.2577414	0.003909812	-0.01008368	-0.0001787493	-0.0005005069	0.001512839	0.005390269
	0.001596615	0.005364553	-0.0001787491	-0.000500507	0.00405888	-0.0101399	0.9581397	-0.258835
	-0.0001786184	-0.0005004899	0.001512839	0.005390269	0.9581397	-0.258835	0.003922367	-0.01011021
1.3e+08	0.003782737	-0.01115612	0.9523708	-0.2783148	0.001848198	0.005747753	-0.0001955084	-0.0005345411
	0.9523708	-0.2783148	0.00361864	-0.01111481	-0.0001956683	-0.0005345493	0.001750812	0.00577997
	0.001848198	0.005747753	-0.0001956682	-0.0005345494	0.003788091	-0.01118649	0.9519929	-0.2794874
	-0.0001955083	-0.0005345412	0.001750812	0.00577997	0.9519929	-0.2794874	0.003629047	-0.01114738
1.4e+08	0.003460301	-0.01219082	0.945846	-0.2987336	0.002115624	0.006118168	-0.0002128518	-0.000568666
	0.945846	-0.2987336	0.003271766	-0.01213844	-0.0002130353	-0.0005686597	0.002003983	0.006157902
	0.002115624	0.006118168	-0.0002130352	-0.0005686597	0.003462228	-0.01222675	0.9454134	-0.2999835
	-0.0002128518	-0.0005686661	0.002003983	0.006157902	0.9454134	-0.2999835	0.003279516	-0.01217678
1.5e+08	0.00308548	-0.01321624	0.9388945	-0.3189906	0.0023983	0.006475114	-0.0002307424	-0.0006029073
	0.9388945	-0.3189906	0.002871206	-0.01315128	-0.000230945	-0.0006028845	0.002271777	0.006523366
	0.0023983	0.006475114	-0.000230945	-0.0006028846	0.003083317	-0.01325744	0.9384039	-0.3203159
	-0.0002307423	-0.0006029074	0.002271777	0.006523366	0.9384039	-0.3203159	0.002875795	-0.01319513
1.6e+08	0.00265994	-0.01422962	0.9315191	-0.3390782	0.002695598	0.006817924	-0.0002492671	-0.0006373076
	0.9315191	-0.3390782	0.002418662	-0.01415047	-0.0002494861	-0.0006372686	0.002553587	0.006875708
	0.002695598	0.006817924	-0.0002494861	-0.0006372687	0.002653069	-0.01427576	0.9309672	-0.3404769
	-0.0002492671	-0.0006373077	0.002553587	0.006875708	0.9309672	-0.3404769	0.002419609	-0.01419956
1.7e+08	0.002185149	-0.01522843	0.9237231	-0.3589884	0.003006858	0.007145951	-0.0002685117	-0.000671907
	0.9237231	-0.3589884	0.001915671	-0.01513335	-0.0002687458	-0.000671853	0.002848781	0.007214316
	0.003006858	0.007145951	-0.0002687457	-0.0006718531	0.002173013	-0.01527913	0.9231067	-0.3604587
	-0.0002685117	-0.0006719071	0.002848781	0.007214316	0.9231067	-0.3604587	0.001912522	-0.01518739
1.8e+08	0.00166248	-0.01621028	0.91551	-0.3787134	0.003331383	0.007458574	-0.000288563	-0.0007067409
	0.91551	-0.3787134	0.001363689	-0.01609742	-0.0002888122	-0.0007066735	0.003156704	0.007538606
	0.003331383	0.007458574	-0.0002888121	-0.0007066735	0.001644576	-0.01626514	0.9148259	-0.380253
	-0.000288563	-0.0007067409	0.003156704	0.007538606	0.9148259	-0.380253	0.001356018	-0.01615612
1.9e+08	0.001093265	-0.0171729	0.9068836	-0.398245	0.003668444	0.007755199	-0.0003095105	-0.0007418388
	0.9068836	-0.398245	0.0007641517	-0.01704029	-0.0003097758	-0.0007417592	0.003476675	0.007848032
	0.003668444	0.007755199	-0.0003097758	-0.0007417593	0.001069141	-0.01723148	0.9061286	-0.3998517
	-0.0003095105	-0.0007418388	0.003476676	0.007848032	0.9061286	-0.3998517	0.0007515603	-0.01710334
2e+08	0.0004788379	-0.01811408	0.897848	-0.4175751	0.004017282	0.008035266	-0.0003314468	-0.0007772227
	0.897848	-0.4175751	0.0001185048	-0.01795968	-0.00033173	-0.0007771319	0.003807994	0.008142075
	0.004017282	0.008035266	-0.00033173	-0.0007771319	0.000448084	-0.01817596	0.8970188	-0.4192466
	-0.0003314468	-0.0007772227	0.003807994	0.008142075	0.8970188	-0.4192466	0.0001006189	-0.01802677
2.1e+08	-0.0001794472	-0.01903173	0.8884072	-0.4366957	0.00437711	0.008298248	-0.0003544673	-0.0008129065
	0.8884072	-0.4366957	-0.0005717737	-0.01885341	-0.0003547708	-0.0008128047	0.004149935	0.008420249
	0.00437711	0.008298248	-0.0003547708	-0.0008128047	-0.0002172023	-0.01909647	0.8875009	-0.4384294
	-0.0003544673	-0.0008129065	0.004149935	0.008420249	0.8875009	-0.4384294	-0.000595305	-0.0189242
2.2e+08	-0.0008802	-0.01992383	0.8785659	-0.4555986	0.004747115	0.008543654	-0.0003786703	-0.0008488951
	0.8785659	-0.4555986	-0.001305164	-0.01971938	-0.0003789965	-0.0008487821	0.004501753	0.008682101
	0.004747115	0.008543654	-0.0003789965	-0.0008487822	-0.0009252958	-0.019991	0.8775794	-0.4573921
	-0.0003786703	-0.0008488951	0.004501753	0.008682101	0.8775794	-0.4573921	-0.001334669	-0.01979354
2.3e+08	-0.001621983	-0.02078844	0.8683285	-0.4742758	0.005126457	0.008771033	-0.000404156	-0.0008851843
	0.8683285	-0.4742758	-0.002080094	-0.02055561	-0.0004045075	-0.0008850594	0.004862682	0.008927212
	0.005126457	0.008771033	-0.0004045075	-0.0008850594	-0.001674733	-0.0208576	0.8672589	-0.4761263
	-0.0004041559	-0.0008851843	0.004862682	0.008927212	0.8672589	-0.4761263	-0.002115883	-0.02063279
2.4e+08	-0.002403315	-0.02162372	0.8577	-0.4927194	0.005514279	0.00897997	-0.0004310258	-0.0009217599
	0.8577	-0.4927194	-0.002894944	-0.02136019	-0.0004314052	-0.0009216217	0.00523194	0.009155195
	0.005514279	0.00897997	-0.0004314052	-0.0009216217	-0.002464011	-0.02169442	0.8565444	-0.4946241
	-0.0004310258	-0.0009217599	0.00523194	0.009155195	0.8565444	-0.4946241	-0.002937309	-0.02144003
2.5e+08	-0.003222664	-0.02242792	0.8466854	-0.5109214	0.0059097	0.009170094	-0.000459382	-0.0009585981
	0.8466854	-0.5109214	-0.003748043	-0.02213134	-0.0004597918	-0.000958445	0.005608725	0.0093657
	0.0059097	0.009170094	-0.0004597918	-0.000958445	-0.003291573	-0.02249971	0.845441	-0.5128774
	-0.000459382	-0.0009585981	0.005608725	0.0093657	0.845441	-0.5128774	-0.003797254	-0.02221347
2.6e+08	-0.004078454	-0.02319938	0.83529	-0.5288739	0.006311826	0.009341073	-0.0004893266	-0.0009956651
	0.83529	-0.5288739	-0.00463767	-0.02286735	-0.0004897689	-0.0009954951	0.00599222	0.009558415
	0.006311826	0.009341073	-0.0004897689	-0.0009954951	-0.004155821	-0.02327178	0.8339542	-0.5308783
	-0.0004893266	-0.0009956651	0.00599222	0.009558415	0.8339542	-0.5308783	-0.004693979	-0.0229514
2.7e+08	-0.004969052	-0.02393649	0.8235192	-0.5465694	0.006719744	0.009492619	-0.0005209608	-0.001032917
	0.8235192	-0.5465694	-0.005562051	-0.02356661	-0.0005214377	-0.001032728	0.006381596	0.009733063
	0.006719744	0.009492619	-0.0005214377	-0.001032728	-0.005055104	-0.02400905	0.8220893	-0.548619
	-0.0005209608	-0.001032917	0.006381596	0.009733063	0.8220893	-0.548619	-0.005625692	-0.02365219
2.8e+08	-0.00589279	-0.02463778	0.8113786	-0.564	0.007132532	0.009624486	-0.0005543841	-0.001070301
	0.8113786	-0.564	-0.006519373	-0.02422763	-0.0005548975	-0.00107009	0.006776009	0.009889405
	0.007132532	0.009624486	-0.0005548975	-0.00107009	-0.005987733	-0.02471001	0.8098521	-0.5660916
	-0.0005543841	-0.001070301	0.006776009	0.009889405	0.8098521	-0.5660916	-0.006590561	-0.02431432
2.9e+08	-0.006847953	-0.02530184	0.798874	-0.5811583	0.007549254	0.009736471	-0.0005896939	-0.001107753
	0.798874	-0.5811583	-0.007507778	-0.02484898	-0.0005902454	-0.001107518	0.007174607	0.01002724
	0.007549254	0.009736471	-0.0005902454	-0.001107518	-0.006951973	-0.02537325	0.7972484	-0.5832887
	-0.0005896939	-0.001107753	0.007174607	0.01002724	0.7972484	-0.5832887	-0.007586708	-0.02493639
3e+08	-0.007832787	-0.02592734	0.7860113	-0.5980368	0.007968968	0.009828415	-0.0006269844	-0.001145201
	0.7860113	-0.5980368	-0.008525367	-0.02542936	-0.0006275754	-0.001144938	0.007576529	0.01014642
	0.007968968	0.009828415	-0.0006275754	-0.001144938	-0.007946049	-0.02599746	0.7842845	-0.6002026
	-0.0006269844	-0.001145201	0.007576529	0.01014642	0.7842845	-0.6002026	-0.008612215	-0.02551707
3.1e+08	-0.008845504	-0.02651308	0.7727967	-0.6146282	0.008390723	0.009900205	-0.0006663462	-0.001182564
	0.7727967	-0.6146282	-0.009570211	-0.02596755	-0.0006669779	-0.00118227	0.007980907	0.0102468
	0.008390723	0.009900205	-0.0006669779	-0.00118227	-0.00896815	-0.02658137	0.7709664	-0.616826
	-0.0006663462	-0.001182564	0.007980907	0.0102468	0.7709664	-0.616826	-0.009665131	-0.02605512
3.2e+08	-0.009884283	-0.02705789	0.7592366	-0.6309254	0.008813567	0.009951771	-0.0007078654	-0.00121975
	0.7592366	-0.6309254	-0.01064034	-0.02646242	-0.0007085389	-0.001219423	0.008386869	0.01032832
	0.008813567	0.009951771	-0.0007085389	-0.001219423	-0.01001643	-0.02712386	0.7573006	-0.6331516
	-0.0007078654	-0.00121975	0.008386869	0.01032832	0.7573006	-0.6331516	-0.01074347	-0.02654942
3.3e+08	-0.01094727	-0.02756073	0.7453372	-0.6469213	0.009236542	0.009983088	-0.0007516234	-0.00125666
	0.7453372	-0.6469213	-0.01173377	-0.02691295	-0.0007523395	-0.001256296	0.00879354	0.01039094
	0.009236542	0.009983088	-0.0007523395	-0.001256296	-0.01108901	-0.02762386	0.7432936	-0.6491723
	-0.0007516234	-0.00125666	0.00879354	0.01039094	0.7432936	-0.6491723	-0.01184521	-0.02699893
3.4e+08	-0.01203258	-0.02802064	0.7311053	-0.6626089	0.009658693	0.009994175	-0.0007976958	-0.001293187
	0.7311053	-0.6626089	-0.01284846	-0.02731819	-0.0007984552	-0.001292783	0.009200044	0.01043464
	0.009658693	0.009994175	-0.0007984552	-0.001292783	-0.01218398	-0.02808039	0.7289522	-0.6648811
	-0.0007976958	-0.001293187	0.009200044	0.01043464	0.7289522	-0.6648811	-0.01296832	-0.02740272
3.5e+08	-0.01313831	-0.02843673	0.7165475	-0.6779816	0.01007907	0.009985096	-0.0008461521	-0.001329215
	0.7165475	-0.6779816	-0.01398239	-0.02767732	-0.0008469553	-0.001328768	0.009605506	0.01045948
	0.01007907	0.009985096	-0.0008469553	-0.001328768	-0.01329942	-0.02849257	0.7142832	-0.6802712
	-0.0008461521	-0.001329215	0.009605506	0.01045948	0.7142832	-0.6802712	-0.01411072	-0.02775993
3.6e+08	-0.01426254	-0.02880822	0.7016709	-0.6930326	0.01049671	0.00995596	-0.0008970552	-0.001364622
	0.7016709	-0.6930326	-0.01513348	-0.02798959	-0.0008979026	-0.001364128	0.01000906	0.01046553
	0.01049671	0.00995596	-0.0008979026	-0.001364128	-0.01443337	-0.0288596	0.6992936	-0.6953359
	-0.0008970552	-0.001364622	0.01000906	0.01046553	0.6992936	-0.6953359	-0.01527033	-0.02806982
3.7e+08	-0.01540331	-0.02913438	0.6864824	-0.7077556	0.01091068	0.009906919	-0.0009504608	-0.001399278
	0.6864824	-0.7077556	-0.01629966	-0.02825434	-0.0009513525	-0.001398733	0.01040982	0.01045292
	0.01091068	0.009906919	-0.0009513525	-0.001398733	-0.01558385	-0.02918076	0.6839906	-0.7100686
	-0.0009504607	-0.001399278	0.01040982	0.01045292	0.6839906	-0.7100686	-0.01644504	-0.02833173
3.8e+08	-0.01655868	-0.02941461	0.6709893	-0.722144	0.01132005	0.00983817	-0.001006417	-0.001433046
	0.6709893	-0.722144	-0.01747884	-0.02847101	-0.001007353	-0.001432448	0.01080695	0.01042179
	0.01132005	0.00983817	-0.001007353	-0.001432448	-0.01674888	-0.02945545	0.6683816	-0.724463
	-0.001006417	-0.001433046	0.01080695	0.01042179	0.6683816	-0.724463	-0.01763275	-0.02854509
3.9e+08	-0.01772665	-0.02964837	0.6551988	-0.7361919	0.01172388	0.009749951	-0.001064963	-0.001465785
	0.6551988	-0.7361919	-0.0186689	-0.02863914	-0.001065943	-0.001465129	0.01119959	0.01037236
	0.01172388	0.009749951	-0.001065943	-0.001465129	-0.01792646	-0.02968311	0.6524739	-0.7385127
	-0.001064963	-0.001465785	0.01119959	0.01037236	0.6524739	-0.7385127	-0.01883131	-0.02870944
4e+08	-0.01890525	-0.02983519	0.6391184	-0.7498932	0.01212127	0.009642546	-0.00112613	-0.001497347
	0.6391184	-0.7498932	-0.01986774	-0.02875834	-0.001127154	-0.001496628	0.01158689	0.01030485
	0.01212127	0.009642546	-0.001127154	-0.001496628	-0.01911456	-0.0298633	0.636275	-0.7522119
	-0.00112613	-0.001497347	0.01158689	0.01030485	0.636275	-0.7522119	-0.0200386	-0.0288244
4.1e+08	-0.02009249	-0.02997472	0.6227556	-0.763242	0.01251132	0.009516278	-0.00118994	-0.001527579
	0.6227556	-0.763242	-0.02107324	-0.02882833	-0.001191008	-0.001526795	0.01196803	0.01021955
	0.01251132	0.009516278	-0.001191008	-0.001526795	-0.02031118	-0.02999565	0.6197927	-0.7655545
	-0.00118994	-0.001527579	0.01196803	0.01021955	0.6197927	-0.7655545	-0.02125249	-0.02888969
4.2e+08	-0.02128636	-0.03006668	0.6061182	-0.7762326	0.01289314	0.009371513	-0.001256407	-0.001556324
	0.6061182	-0.7762326	-0.0222833	-0.02884892	-0.001257518	-0.001555471	0.01234219	0.01011677
	0.01289314	0.009371513	-0.001257518	-0.001555471	-0.02151428	-0.03007988	0.6030349	-0.7785348
	-0.001256407	-0.001556324	0.01234219	0.01011677	0.6030349	-0.7785348	-0.02247082	-0.0289051
4.3e+08	-0.02248489	-0.03011085	0.589214	-0.7888595	0.01326587	0.009208657	-0.001325534	-0.001583423
	0.589214	-0.7888595	-0.0234958	-0.02881999	-0.001326686	-0.001582496	0.01270857	0.009996851
	0.01326587	0.009208657	-0.001326686	-0.001582496	-0.02272184	-0.0301158	0.5860093	-0.7911473
	-0.001325534	-0.001583423	0.01270857	0.009996851	0.5860093	-0.7911473	-0.02369147	-0.02887055
4.4e+08	-0.02368605	-0.03010713	0.5720508	-0.8011175	0.01362866	0.009028158	-0.001397313	-0.001608711
	0.5720508	-0.8011175	-0.02470863	-0.02874154	-0.001398506	-0.001607706	0.0130664	0.00986019
	0.01362866	0.009028158	-0.001398506	-0.001607706	-0.02393184	-0.0301033	0.5687241	-0.8033866
	-0.001397313	-0.001608711	0.0130664	0.00986019	0.5687241	-0.8033866	-0.02491231	-0.02878602
4.5e+08	-0.02488787	-0.03005547	0.5546366	-0.8130012	0.0139807	0.008830498	-0.001471727	-0.001632022
	0.5546366	-0.8130012	-0.02591969	-0.02861362	-0.001472961	-0.001630935	0.0134149	0.009707205
	0.0139807	0.008830498	-0.001472961	-0.001630935	-0.02514225	-0.03004234	0.5511874	-0.8152475
	-0.001471727	-0.001632022	0.0134149	0.009707205	0.5511874	-0.8152475	-0.02613121	-0.02865157
4.6e+08	-0.02608836	-0.02995593	0.5369797	-0.8245057	0.01432118	0.0086162	-0.00154875	-0.00165319
	0.5369797	-0.8245057	-0.0271269	-0.0284364	-0.001550022	-0.001652017	0.01375333	0.009538353
	0.01432118	0.0086162	-0.001550022	-0.001652017	-0.02635108	-0.02993299	0.5334074	-0.8267249
	-0.00154875	-0.00165319	0.01375333	0.009538353	0.5334074	-0.8267249	-0.02734608	-0.02846739
4.7e+08	-0.02728555	-0.02980863	0.5190882	-0.8356262	0.01464932	0.008385823	-0.001628343	-0.001672044
	0.5190882	-0.8356262	-0.0283282	-0.02821012	-0.001629651	-0.00167078	0.01408098	0.009354122
	0.01464932	0.008385823	-0.001629651	-0.00167078	-0.02755631	-0.02977539	0.5153926	-0.837814
	-0.001628343	-0.001672044	0.01408098	0.009354122	0.5153926	-0.837814	-0.02855482	-0.02823372
4.8e+08	-0.02847746	-0.02961377	0.5009704	-0.846358	0.01496439	0.00813996	-0.001710458	-0.001688416
	0.5009704	-0.846358	-0.02952152	-0.02793512	-0.001711801	-0.001687058	0.01439713	0.009155034
	0.01496439	0.00813996	-0.001711801	-0.001687058	-0.02875595	-0.02956974	0.4971512	-0.8485102
	-0.001710458	-0.001688416	0.01439713	0.009155034	0.4971512	-0.8485102	-0.02975534	-0.0279509
4.9e+08	-0.02966216	-0.02937163	0.4826348	-0.8566967	0.01526566	0.00787924	-0.001795036	-0.001702136
	0.4826348	-0.8566967	-0.03070484	-0.02761179	-0.00179641	-0.001700679	0.01470113	0.008941642
	0.01526566	0.00787924	-0.00179641	-0.001700679	-0.02994804	-0.02931634	0.478692	-0.8588088
	-0.001795036	-0.001702136	0.01470113	0.008941642	0.478692	-0.8588088	-0.03094561	-0.02761934
5e+08	-0.03083772	-0.02908259	0.4640898	-0.8666379	0.01555244	0.007604323	-0.001882005	-0.001713037
	0.4640898	-0.8666379	-0.03187616	-0.02724065	-0.00188341	-0.001711477	0.01499233	0.008714528
