!$
! Info: Touchstone file created by Circ.  Input file=Tx_2in_Rx_85ohms_TxVia_10mils_RxVia_20mils.circ
!$
# Hz S RI R 50
0	0.00173924	2.047096e-26	-1.096573e-05	2.140849e-25	2.238546e-05	1.760382e-24	-1.097097e-05	4.774138e-25
	-1.096573e-05	2.14162e-25	0.001738656	2.856536e-26	-1.096675e-05	7.317029e-26	2.199965e-05	2.400289e-24
	2.04956e-05	1.735692e-24	-1.096675e-05	7.325452e-26	0.001753562	2.130936e-26	-1.096588e-05	4.149953e-25
	-1.097096e-05	4.768085e-25	2.345845e-05	2.470477e-24	-1.096588e-05	4.144527e-25	0.001744322	2.730372e-26
1e+07	0.002662588	-0.001606447	-4.722814e-05	-8.774602e-06	3.123827e-05	0.0004830402	-3.387059e-05	1.832571e-05
	-4.722814e-05	-8.774602e-06	0.002390161	-0.001653887	-1.217438e-06	-3.241643e-06	4.616163e-05	0.000484621
	3.119962e-05	0.0004830651	-1.217437e-06	-3.241644e-06	0.002410911	-0.00168719	-9.839473e-06	-3.941107e-06
	-3.387059e-05	1.832571e-05	4.619364e-05	0.0004846095	-9.839473e-06	-3.941106e-06	0.00239943	-0.001650853
2e+07	0.003161258	-0.003886832	-4.290071e-05	-2.793503e-06	6.447242e-05	0.0009657344	-3.487047e-05	1.557017e-05
	-4.290071e-05	-2.793504e-06	0.002905334	-0.003867427	-1.144437e-06	-1.061783e-06	8.695361e-05	0.0009564676
	6.44794e-05	0.0009657523	-1.144437e-06	-1.061783e-06	0.002901398	-0.003926573	-9.014375e-06	-1.061143e-07
	-3.487047e-05	1.557017e-05	8.695043e-05	0.0009564467	-9.014374e-06	-1.061137e-07	0.002915249	-0.00385975
3e+07	0.003390084	-0.006395667	-3.998649e-05	-6.79985e-06	0.0001313957	0.001435522	-3.502963e-05	1.776763e-05
	-3.998649e-05	-6.79985e-06	0.003143101	-0.006355563	-1.09822e-06	-4.981733e-07	0.0001461495	0.001423031
	0.0001313932	0.001435523	-1.09822e-06	-4.981734e-07	0.003123675	-0.006424389	-8.571011e-06	-1.572312e-06
	-3.502963e-05	1.776763e-05	0.0001461444	0.001423028	-8.571011e-06	-1.572312e-06	0.003154141	-0.006343092
4e+07	0.003423272	-0.008987967	-3.764005e-05	-8.98241e-06	0.0002180565	0.001898406	-3.459188e-05	2.047031e-05
	-3.764005e-05	-8.98241e-06	0.00317997	-0.008935731	-1.057458e-06	-1.886614e-07	0.0002244277	0.001884628
	0.0002180517	0.001898409	-1.057457e-06	-1.886614e-07	0.003151257	-0.009009405	-8.264343e-06	-2.493447e-06
	-3.459188e-05	2.047031e-05	0.0002244273	0.001884629	-8.264343e-06	-2.493447e-06	0.003192733	-0.008920337
5e+07	0.003288722	-0.01162313	-3.566343e-05	-1.035844e-05	0.000324556	0.002354558	-3.364417e-05	2.317222e-05
	-3.566343e-05	-1.035844e-05	0.003044715	-0.01156226	-1.019136e-06	2.300202e-08	0.0003216823	0.002340759
	0.0003245548	0.00235456	-1.019136e-06	2.300205e-08	0.003011708	-0.0116383	-8.057433e-06	-3.180902e-06
	-3.364417e-05	2.317222e-05	0.0003216818	0.00234076	-8.057434e-06	-3.180902e-06	0.003058179	-0.01154474
6e+07	0.003000518	-0.01427914	-3.395051e-05	-1.126438e-05	0.0004507315	0.002803552	-3.224225e-05	2.568314e-05
	-3.395051e-05	-1.126438e-05	0.002751877	-0.01421129	-9.818823e-07	1.856116e-07	0.0004376985	0.002790823
	0.0004507324	0.00280355	-9.818823e-07	1.856116e-07	0.002718884	-0.01428823	-7.929631e-06	-3.734187e-06
	-3.224225e-05	2.568314e-05	0.0004376956	0.002790824	-7.929631e-06	-3.734187e-06	0.002765534	-0.01419161
7e+07	0.002567321	-0.01694109	-3.243444e-05	-1.184168e-05	0.0005963268	0.003244753	-3.043355e-05	2.787632e-05
	-3.243444e-05	-1.184168e-05	0.0023104	-0.01686699	-9.639243e-07	1.858329e-07	0.0005722191	0.003234133
	0.0005963276	0.003244748	-9.639244e-07	1.858329e-07	0.002281319	-0.01694381	-7.867898e-06	-4.194799e-06
	-3.043355e-05	2.787632e-05	0.0005722144	0.003234136	-7.867898e-06	-4.1948e-06	0.002324206	-0.01684532
8e+07	0.001995216	-0.01959762	-3.106611e-05	-1.214799e-05	0.0007610148	0.003677436	-2.826932e-05	2.96184e-05
	-3.106611e-05	-1.214799e-05	0.001726558	-0.01951746	-9.577048e-07	1.266009e-07	0.0007249244	0.003669981
	0.0007610145	0.00367743	-9.577048e-07	1.266008e-07	0.001705065	-0.01959325	-7.862832e-06	-4.581513e-06
	-2.826932e-05	2.96184e-05	0.0007249197	0.003669985	-7.862832e-06	-4.581514e-06	0.00174034	-0.0194944
9e+07	0.001288899	-0.02223937	-2.980145e-05	-1.217816e-05	0.0009444066	0.004100865	-2.582218e-05	3.069484e-05
	-2.980145e-05	-1.217816e-05	0.001005171	-0.02215307	-9.538126e-07	7.639503e-08	0.0008954442	0.004097741
	0.0009444057	0.004100861	-9.538127e-07	7.639497e-08	0.0009948931	-0.02222656	-7.907039e-06	-4.89984e-06
	-2.582218e-05	3.069484e-05	0.0008954415	0.004097745	-7.907039e-06	-4.899841e-06	0.00101835	-0.02212933
1e+08	0.0004522565	-0.0248584	-2.856369e-05	-1.169658e-05	0.001146123	0.004514577	-2.329975e-05	3.021148e-05
	-2.856369e-05	-1.169658e-05	0.0001500606	-0.02476637	-9.52115e-07	2.778311e-08	0.001083512	0.004517482
	0.001146123	0.004514577	-9.52115e-07	2.778311e-08	0.0001553117	-0.02483304	-7.991914e-06	-5.125873e-06
	-2.329975e-05	3.021148e-05	0.001083513	0.004517482	-7.991914e-06	-5.125873e-06	0.0001616581	-0.02474256
1.1e+08	-0.0005109441	-0.02745478	-2.836628e-05	-1.098253e-05	0.00136686	0.004917016	-1.739669e-05	2.895467e-05
	-2.836628e-05	-1.098253e-05	-0.0008381947	-0.02735429	-9.369959e-07	-1.462194e-08	0.001291102	0.004926065
	0.00136686	0.004917016	-9.369959e-07	-1.462195e-08	-0.0008003794	-0.02741907	-8.227717e-06	-5.288153e-06
	-1.739669e-05	2.895467e-05	0.001291102	0.004926065	-8.227717e-06	-5.288153e-06	-0.0008285566	-0.02732918
1.2e+08	-0.001599915	-0.03001042	-2.828824e-05	-1.063464e-05	0.001604535	0.005306939	-1.105014e-05	2.87981e-05
	-2.828824e-05	-1.063464e-05	-0.001954167	-0.02989853	-9.237144e-07	-4.542052e-08	0.001514706	0.0053226
	0.001604535	0.005306939	-9.237143e-07	-4.542053e-08	-0.001883496	-0.02996976	-8.501943e-06	-5.456608e-06
	-1.105014e-05	2.87981e-05	0.001514706	0.0053226	-8.501943e-06	-5.456608e-06	-0.001946965	-0.02987215
1.3e+08	-0.002809877	-0.03251989	-2.827224e-05	-1.037792e-05	0.00185861	0.005683988	-4.439927e-06	2.879337e-05
	-2.827224e-05	-1.037792e-05	-0.003193209	-0.0323944	-9.122034e-07	-6.994057e-08	0.001753921	0.005707147
	0.00185861	0.005683989	-9.122034e-07	-6.994057e-08	-0.003088871	-0.03247643	-8.8071e-06	-5.600334e-06
	-4.439927e-06	2.879337e-05	0.001753921	0.005707147	-8.8071e-06	-5.600334e-06	-0.003188983	-0.03236671
1.4e+08	-0.00413667	-0.03497802	-2.830477e-05	-1.015526e-05	0.002128467	0.006047518	2.39308e-06	2.870666e-05
	-2.830477e-05	-1.015526e-05	-0.00455115	-0.03483676	-9.022784e-07	-8.981776e-08	0.002008177	0.006079133
	0.002128467	0.006047519	-9.022784e-07	-8.981776e-08	-0.004412231	-0.03493301	-9.139122e-06	-5.712631e-06
	2.39308e-06	2.870666e-05	0.002008177	0.006079133	-9.139122e-06	-5.712631e-06	-0.004550442	-0.03480763
1.5e+08	-0.005576503	-0.03737986	-2.837759e-05	-9.940891e-06	0.00241344	0.00639686	9.419834e-06	2.841361e-05
	-2.837759e-05	-9.940891e-06	-0.006024138	-0.03722055	-8.937705e-07	-1.059993e-07	0.002276843	0.006437942
	0.00241344	0.00639686	-8.937705e-07	-1.059993e-07	-0.005849682	-0.03733406	-9.494342e-06	-5.790193e-06
	9.419834e-06	2.841361e-05	0.002276843	0.006437942	-9.494342e-06	-5.790193e-06	-0.006027469	-0.03718976
1.6e+08	-0.007125765	-0.03972064	-2.848437e-05	-9.720504e-06	0.002712828	0.006731353	1.661339e-05	2.783306e-05
	-2.848437e-05	-9.720504e-06	-0.007608463	-0.03954088	-8.865279e-07	-1.191119e-07	0.002559255	0.006782966
	0.002712828	0.006731353	-8.865279e-07	-1.191119e-07	-0.007397515	-0.03967451	-9.869235e-06	-5.830969e-06
	1.661339e-05	2.783306e-05	0.002559255	0.006782967	-9.869235e-06	-5.830969e-06	-0.00761632	-0.03950813
1.7e+08	-0.008780904	-0.04199573	-2.861973e-05	-9.485228e-06	0.003025889	0.007050357	2.394627e-05	2.690634e-05
	-2.861973e-05	-9.485228e-06	-0.009300451	-0.04179298	-8.804131e-07	-1.296007e-07	0.002854718	0.007113626
	0.003025889	0.007050358	-8.804131e-07	-1.296007e-07	-0.009052088	-0.04194952	-1.026034e-05	-5.833552e-06
	2.394627e-05	2.690634e-05	0.002854718	0.007113626	-1.026034e-05	-5.833552e-06	-0.00931328	-0.04175795
1.8e+08	-0.01053835	-0.04420066	-2.877883e-05	-9.229203e-06	0.003351851	0.007353264	3.138981e-05	2.558861e-05
	-2.877883e-05	-9.229203e-06	-0.01109639	-0.04397223	-8.752992e-07	-1.37793e-07	0.003162511	0.007429368
	0.003351851	0.007353264	-8.752992e-07	-1.37793e-07	-0.01080975	-0.04415446	-1.066424e-05	-5.796955e-06
	3.138981e-05	2.558861e-05	0.003162511	0.007429368	-1.066424e-05	-5.796955e-06	-0.0111146	-0.04393453
1.9e+08	-0.01239448	-0.04633109	-2.895721e-05	-8.948405e-06	0.003689906	0.007639497	3.891393e-05	2.384454e-05
	-2.895721e-05	-8.948405e-06	-0.01299249	-0.04607417	-8.71068e-07	-1.439367e-07	0.003481888	0.00772967
	0.003689906	0.007639497	-8.71068e-07	-1.439367e-07	-0.0126668	-0.04628489	-1.107754e-05	-5.720512e-06
	3.891393e-05	2.384454e-05	0.003481888	0.00772967	-1.107754e-05	-5.720512e-06	-0.01301643	-0.04603338
2e+08	-0.01434555	-0.04838286	-2.915067e-05	-8.640031e-06	0.004039218	0.007908517	4.64873e-05	2.16459e-05
	-2.915067e-05	-8.640031e-06	-0.01498483	-0.0480945	-8.67607e-07	-1.482239e-07	0.003812082	0.008014047
	0.004039218	0.007908517	-8.67607e-07	-1.482239e-07	-0.01461945	-0.04833655	-1.149688e-05	-5.60383e-06
	4.64873e-05	2.16459e-05	0.003812082	0.008014047	-1.149688e-05	-5.60383e-06	-0.01501484	-0.04805019
2.1e+08	-0.01638773	-0.05035197	-2.935523e-05	-8.302132e-06	0.004398924	0.008159826	5.407724e-05	1.897016e-05
	-2.935523e-05	-8.302132e-06	-0.01706939	-0.05002911	-8.648098e-07	-1.508067e-07	0.004152303	0.008282045
	0.004398924	0.008159826	-8.648098e-07	-1.508067e-07	-0.0166638	-0.05030538	-1.191893e-05	-5.446759e-06
	5.407724e-05	1.897016e-05	0.004152303	0.008282045	-1.191893e-05	-5.446759e-06	-0.01710577	-0.04998082
2.2e+08	-0.01851706	-0.0522346	-2.956706e-05	-7.933417e-06	0.004768137	0.008392968	6.165003e-05	1.579964e-05
	-2.956706e-05	-7.933417e-06	-0.01924202	-0.05187408	-8.625733e-07	-1.518074e-07	0.004501743	0.00853325
	0.004768137	0.008392968	-8.625733e-07	-1.518074e-07	-0.01879584	-0.05218749	-1.234041e-05	-5.249386e-06
	6.165003e-05	1.579964e-05	0.004501743	0.00853325	-1.234041e-05	-5.249386e-06	-0.01928501	-0.05182134
2.3e+08	-0.02072944	-0.0540271	-2.978248e-05	-7.533132e-06	0.005145947	0.008607531	6.917129e-05	1.212076e-05
	-2.978248e-05	-7.533132e-06	-0.02149842	-0.0536257	-8.607961e-07	-1.513268e-07	0.004859574	0.008767285
	0.005145947	0.008607531	-8.607961e-07	-1.513268e-07	-0.02101144	-0.05397921	-1.275807e-05	-5.012028e-06
	6.917129e-05	1.212076e-05	0.004859574	0.008767285	-1.275807e-05	-5.012028e-06	-0.02154825	-0.053568
2.4e+08	-0.02302069	-0.05572604	-2.999799e-05	-7.100903e-06	0.005531428	0.00880315	7.660556e-05	7.923924e-06
	-2.999799e-05	-7.100903e-06	-0.0238342	-0.05528045	-8.593819e-07	-1.494499e-07	0.005224955	0.008983813
	0.005531428	0.00880315	-8.593819e-07	-1.494499e-07	-0.02330636	-0.05567705	-1.316874e-05	-4.73521e-06
	7.660556e-05	7.923924e-06	0.005224955	0.008983813	-1.316874e-05	-4.73521e-06	-0.02389106	-0.05521728
2.5e+08	-0.02538648	-0.05732817	-3.021017e-05	-6.636745e-06	0.005923635	0.008979503	8.391713e-05	3.202949e-06
	-3.021017e-05	-6.636745e-06	-0.02624483	-0.05683503	-8.582343e-07	-1.462503e-07	0.005597027	0.009182538
	0.005923635	0.008979503	-8.582343e-07	-1.462503e-07	-0.02567625	-0.05727773	-1.356932e-05	-4.419675e-06
	8.391713e-05	3.202949e-06	0.005597027	0.009182538	-1.356932e-05	-4.419675e-06	-0.02630887	-0.05676587
2.6e+08	-0.02782239	-0.05883047	-3.041577e-05	-6.140967e-06	0.00632161	0.009136319	9.106976e-05	-2.044922e-06
	-3.041577e-05	-6.140967e-06	-0.02872568	-0.05828636	-8.572597e-07	-1.417934e-07	0.005974923	0.009363206
	0.00632161	0.009136319	-8.572597e-07	-1.417934e-07	-0.02811666	-0.05877818	-1.39568e-05	-4.066369e-06
	9.106976e-05	-2.044922e-06	0.005974923	0.009363206	-1.39568e-05	-4.066369e-06	-0.02879701	-0.05821068
2.7e+08	-0.0303239	-0.06023011	-3.061165e-05	-5.614178e-06	0.006724387	0.009273372	9.802754e-05	-7.819505e-06
	-3.061165e-05	-5.614178e-06	-0.031272	-0.05963159	-8.563637e-07	-1.361398e-07	0.006357765	0.009525602
	0.006724387	0.009273372	-8.563637e-07	-1.361398e-07	-0.03062301	-0.06017553	-1.432824e-05	-3.676444e-06
	9.802754e-05	-7.819505e-06	0.006357765	0.009525602	-1.432824e-05	-3.676444e-06	-0.03135073	-0.05954884
2.8e+08	-0.0328864	-0.06152446	-3.079483e-05	-5.057214e-06	0.007130989	0.009390486	0.0001047541	-1.41174e-05
	-3.079483e-05	-5.057214e-06	-0.03387898	-0.06086808	-8.554562e-07	-1.293461e-07	0.006744667	0.009669557
	0.007130989	0.009390486	-8.554562e-07	-1.293461e-07	-0.03319066	-0.06146716	-1.468083e-05	-3.251234e-06
	0.0001047541	-1.41174e-05	0.006744667	0.009669557	-1.468083e-05	-3.251234e-06	-0.03396516	-0.06077771
2.9e+08	-0.03550519	-0.06271114	-3.096246e-05	-4.471135e-06	0.007540435	0.009487533	0.0001112132	-2.093229e-05
	-3.096246e-05	-4.471135e-06	-0.03654169	-0.06199343	-8.544478e-07	-1.214675e-07	0.007134739	0.009794944
	0.007540435	0.009487533	-8.544478e-07	-1.214675e-07	-0.03581487	-0.06265061	-1.501189e-05	-2.792258e-06
	0.0001112132	-2.093229e-05	0.007134739	0.009794944	-1.501189e-05	-2.792258e-06	-0.03663535	-0.06189487
3e+08	-0.0381755	-0.06378795	-3.111183e-05	-3.857231e-06	0.007951741	0.009564433	0.0001173699	-2.825543e-05
	-3.111183e-05	-3.857231e-06	-0.03925517	-0.06300546	-8.532488e-07	-1.125596e-07	0.007527089	0.009901679
	0.007951741	0.009564433	-8.532488e-07	-1.125596e-07	-0.03849084	-0.0637237	-1.531884e-05	-2.301216e-06
	0.0001173699	-2.825543e-05	0.007527089	0.009901679	-1.531884e-05	-2.301216e-06	-0.03935628	-0.06289814
3.1e+08	-0.0408925	-0.06475293	-3.124041e-05	-3.216953e-06	0.008363921	0.009621155	0.0001231887	-3.607488e-05
	-3.124041e-05	-3.216953e-06	-0.04201435	-0.06390222	-8.517745e-07	-1.026779e-07	0.007920822	0.00998972
	0.008363921	0.009621155	-8.517745e-07	-1.026779e-07	-0.04121368	-0.06468442	-1.559928e-05	-1.779961e-06
	0.0001231887	-3.607488e-05	0.007920822	0.00998972	-1.559928e-05	-1.779961e-06	-0.04212288	-0.06378557
3.2e+08	-0.04365128	-0.06560433	-3.134578e-05	-2.551931e-06	0.008775996	0.009657716	0.0001286349	-4.437608e-05
	-3.134578e-05	-2.551931e-06	-0.04481414	-0.06468198	-8.499401e-07	-9.188028e-08	0.008315047	0.01005907
	0.008775996	0.009657716	-8.499401e-07	-9.188028e-08	-0.04397847	-0.06553102	-1.585092e-05	-1.230502e-06
	0.0001286349	-4.437608e-05	0.008315047	0.01005907	-1.585092e-05	-1.230502e-06	-0.04493	-0.06455544
3.3e+08	-0.04644692	-0.06634062	-3.142577e-05	-1.863987e-06	0.009186985	0.009674178	0.0001336804	-5.314626e-05
	-3.142577e-05	-1.863987e-06	-0.04764938	-0.06534327	-8.476635e-07	-8.022703e-08	0.008708875	0.01010977
	0.009186985	0.009674178	-8.476635e-07	-8.022703e-08	-0.04678022	-0.06626193	-1.607168e-05	-6.550204e-07
	0.0001336804	-5.314626e-05	0.008708875	0.01010977	-1.607168e-05	-6.550204e-07	-0.04777247	-0.06520624
3.4e+08	-0.04927443	-0.06696049	-3.146121e-05	-1.146442e-06	0.00959592	0.009670655	0.0001362535	-6.074124e-05
	-3.146121e-05	-1.146442e-06	-0.0505149	-0.06588481	-8.448399e-07	-6.791493e-08	0.009101425	0.01014191
	0.00959592	0.009670655	-8.448399e-07	-6.791493e-08	-0.04961392	-0.06687584	-1.624174e-05	-4.782345e-08
	0.0001362535	-6.074124e-05	0.009101425	0.01014191	-1.624174e-05	-4.782345e-08	-0.05064505	-0.06573674
3.5e+08	-0.05212881	-0.06746283	-3.146352e-05	-4.094594e-07	0.01000184	0.009647304	0.0001381472	-6.845002e-05
	-3.146352e-05	-4.094594e-07	-0.05340547	-0.06630558	-8.414252e-07	-5.491383e-08	0.009491824	0.01015562
	0.01000184	0.009647304	-8.414252e-07	-5.491383e-08	-0.05247451	-0.06737163	-1.637328e-05	5.80975e-07
	0.0001381472	-6.845002e-05	0.009491824	0.01015562	-1.637328e-05	5.80975e-07	-0.05354252	-0.06614589
3.6e+08	-0.05500503	-0.06784678	-3.143349e-05	3.43365e-07	0.01040379	0.009604328	0.0001396424	-7.648851e-05
	-3.143349e-05	3.43365e-07	-0.05631588	-0.06660478	-8.373554e-07	-4.127439e-08	0.009879206	0.01015107
	0.01040379	0.009604328	-8.373554e-07	-4.127439e-08	-0.05535691	-0.06774843	-1.646735e-05	1.227517e-06
	0.0001396424	-7.648851e-05	0.009879206	0.01015107	-1.646735e-05	1.227517e-06	-0.05645959	-0.06643289
3.7e+08	-0.05789805	-0.06811168	-3.136965e-05	1.109665e-06	0.01080084	0.009541976	0.0001407112	-8.483339e-05
	-3.136965e-05	1.109665e-06	-0.05924087	-0.06678181	-8.325648e-07	-2.707036e-08	0.01026272	0.01012845
	0.01080084	0.009541976	-8.325648e-07	-2.707036e-08	-0.05825606	-0.06800556	-1.652264e-05	1.889102e-06
	0.0001407112	-8.483339e-05	0.01026272	0.01012845	-1.652264e-05	1.889102e-06	-0.059391	-0.06659719
3.8e+08	-0.06080282	-0.06825706	-3.127072e-05	1.886991e-06	0.01119207	0.00946054	0.0001413276	-9.345944e-05
	-3.127072e-05	1.886991e-06	-0.06217523	-0.06683635	-8.269925e-07	-1.237942e-08	0.01064153	0.01008804
	0.01119207	0.00946054	-8.269925e-07	-1.237942e-08	-0.06116686	-0.06814257	-1.6538e-05	2.562955e-06
	0.0001413276	-9.345944e-05	0.01064153	0.01008804	-1.6538e-05	2.562955e-06	-0.06233148	-0.06663843
3.9e+08	-0.06371431	-0.06828271	-3.11356e-05	2.672832e-06	0.01157658	0.009360355	0.000141467	-0.0001023395
	-3.11356e-05	2.672832e-06	-0.06511372	-0.06676825	-8.205829e-07	2.717505e-09	0.01101481	0.01003009
	0.01157658	0.009360355	-8.205829e-07	2.717505e-09	-0.06408423	-0.06815924	-1.65125e-05	3.246244e-06
	0.000141467	-0.0001023395	0.01101481	0.01003009	-1.65125e-05	3.246244e-06	-0.06527577	-0.0665565
4e+08	-0.06662748	-0.06818859	-3.096337e-05	3.464612e-06	0.01195348	0.009241797	0.0001411068	-0.0001114449
	-3.096337e-05	3.464612e-06	-0.06805112	-0.06657762	-8.13285e-07	1.813492e-08	0.01138176	0.009954956
	0.01195348	0.009241797	-8.13285e-07	1.813492e-08	-0.06700309	-0.06805554	-1.644541e-05	3.936085e-06
	0.0001411068	-0.0001114449	0.01138176	0.009954956	-1.644541e-05	3.936085e-06	-0.06821862	-0.06635151
4.1e+08	-0.06953734	-0.06797491	-3.075331e-05	4.259723e-06	0.01232192	0.009105283	0.0001402263	-0.0001207454
	-3.075331e-05	4.259723e-06	-0.07098227	-0.06626476	-8.050546e-07	3.378462e-08	0.0117416	0.009862978
	0.01232192	0.009105283	-8.050546e-07	3.378462e-08	-0.06991841	-0.06783166	-1.633618e-05	4.629566e-06
	0.0001402263	-0.0001207454	0.0117416	0.009862978	-1.633618e-05	4.629566e-06	-0.07115483	-0.06602378
4.2e+08	-0.07243891	-0.06764204	-3.050492e-05	5.055536e-06	0.01268105	0.008951268	0.0001388068	-0.0001302092
	-3.050492e-05	5.055536e-06	-0.07390201	-0.06583021	-7.958546e-07	4.957604e-08	0.01209355	0.009754555
	0.01268105	0.008951268	-7.958546e-07	4.957604e-08	-0.07282516	-0.06748802	-1.618451e-05	5.323764e-06
	0.0001388068	-0.0001302092	0.01209355	0.009754555	-1.618451e-05	5.323764e-06	-0.07407921	-0.06557387
4.3e+08	-0.07532725	-0.0671906	-3.021784e-05	5.849402e-06	0.01303007	0.008780246	0.0001368318	-0.0001398035
	-3.021784e-05	5.849402e-06	-0.07680525	-0.06527471	-7.856542e-07	6.54154e-08	0.01243687	0.009630116
	0.01303007	0.008780246	-7.856542e-07	6.54154e-08	-0.07571837	-0.06702521	-1.599026e-05	6.015743e-06
	0.0001368318	-0.0001398035	0.01243687	0.009630116	-1.599026e-05	6.015743e-06	-0.07698662	-0.06500253
4.4e+08	-0.07819747	-0.06662138	-2.989192e-05	6.638667e-06	0.01336819	0.008592746	0.0001342868	-0.0001494942
	-2.989192e-05	6.638667e-06	-0.07968693	-0.06459922	-7.744291e-07	8.120631e-08	0.01277086	0.009490119
	0.01336819	0.008592746	-7.744291e-07	8.120631e-08	-0.0785931	-0.06644407	-1.575351e-05	6.702579e-06
	0.0001342868	-0.0001494942	0.01277086	0.009490119	-1.575351e-05	6.702579e-06	-0.07987201	-0.06431075
4.5e+08	-0.08104473	-0.06593538	-2.952721e-05	7.420685e-06	0.01369465	0.008389332	0.0001311596	-0.0001592465
	-2.952721e-05	7.420685e-06	-0.08254206	-0.06380491	-7.621624e-07	9.684977e-08	0.0130948	0.009335056
	0.01369465	0.008389332	-7.621624e-07	9.684977e-08	-0.08144448	-0.06574559	-1.547454e-05	7.381368e-06
	0.0001311596	-0.0001592465	0.0130948	0.009335056	-1.547454e-05	7.381368e-06	-0.08273033	-0.0634997
4.6e+08	-0.08386425	-0.06513381	-2.912391e-05	8.192843e-06	0.01400873	0.008170601	0.0001274402	-0.0001690245
	-2.912391e-05	8.192843e-06	-0.08536573	-0.06289313	-7.488464e-07	1.122476e-07	0.01340804	0.009165446
	0.01400873	0.008170601	-7.488464e-07	1.122476e-07	-0.08426768	-0.064931	-1.515381e-05	8.049247e-06
	0.0001274402	-0.0001690245	0.01340804	0.009165446	-1.515381e-05	8.049247e-06	-0.08555665	-0.06257078
4.7e+08	-0.08665131	-0.06421804	-2.868241e-05	8.952541e-06	0.01430973	0.007937181	0.0001231211	-0.0001787919
