!$
! Info: Touchstone file created by Circ.  Input file=Tx_2in_Rx_100ohms_TxVia_10mils_RxVia_20mils.circ
!$
# Hz S RI R 50
0	0.002203615	2.541567e-26	-1.095205e-05	-1.511268e-26	2.454395e-05	2.717258e-24	-1.09654e-05	1.60127e-24
	-1.095205e-05	-1.490769e-26	0.002206491	2.852791e-26	-1.095208e-05	-5.488384e-27	2.197168e-05	3.06929e-24
	2.459246e-05	2.718846e-24	-1.095207e-05	-5.701161e-27	0.002218644	2.550246e-26	-1.095381e-05	2.02735e-25
	-1.09654e-05	1.601116e-24	2.34303e-05	3.159039e-24	-1.095381e-05	2.024591e-25	0.002212151	2.726815e-26
1e+07	0.003028937	0.001629871	-3.768891e-07	-2.180653e-06	3.993671e-05	0.0004812	-2.206382e-07	-2.985971e-06
	-3.76889e-07	-2.180653e-06	0.003122248	0.001644352	-2.589242e-07	-6.458398e-07	0.0001109426	0.0004952876
	3.99413e-05	0.0004811972	-2.589242e-07	-6.458398e-07	0.002926633	0.00168341	-6.520818e-07	-8.705672e-07
	-2.206382e-07	-2.985971e-06	0.0001109747	0.0004952762	-6.520818e-07	-8.705672e-07	0.003106687	0.00164742
2e+07	0.003792561	0.00263737	-1.008326e-06	-1.175284e-07	7.142239e-05	0.0009684936	-2.134275e-07	-1.123496e-06
	-1.008326e-06	-1.175284e-07	0.003875214	0.002627685	-3.262263e-06	-5.081182e-06	0.0001097471	0.001019491
	7.142184e-05	0.0009684906	-3.262263e-06	-5.081182e-06	0.003763147	0.002771253	-4.166689e-06	-5.129244e-06
	-2.134275e-07	-1.123496e-06	0.0001097441	0.00101947	-4.166689e-06	-5.129244e-06	0.003866422	0.002644803
3e+07	0.004419133	0.0033539	-1.57313e-06	-6.429032e-07	0.0001249556	0.001446432	-2.181948e-07	-6.805737e-07
	-1.57313e-06	-6.429032e-07	0.004492086	0.003337294	-5.967783e-06	-6.130093e-06	0.0001369254	0.001507924
	0.0001249556	0.001446432	-5.967783e-06	-6.130093e-06	0.004447193	0.003513171	-6.886247e-06	-6.108102e-06
	-2.181948e-07	-6.805737e-07	0.0001369203	0.001507922	-6.886247e-06	-6.108102e-06	0.004490024	0.003362441
4e+07	0.004985667	0.003954312	-2.048786e-06	-8.169076e-07	0.0002000306	0.001919009	-2.214159e-07	-4.550671e-07
	-2.048786e-06	-8.169076e-07	0.00504886	0.003934477	-8.251458e-06	-6.295669e-06	0.0001940878	0.001984246
	0.0002000313	0.001919009	-8.251458e-06	-6.295669e-06	0.005063192	0.004122781	-9.179531e-06	-6.215501e-06
	-2.214159e-07	-4.550671e-07	0.0001940873	0.001984248	-9.179531e-06	-6.215501e-06	0.005054155	0.003964191
5e+07	0.005520209	0.00447926	-2.462514e-06	-8.231234e-07	0.0002960259	0.002386068	-2.227736e-07	-3.109781e-07
	-2.462514e-06	-8.231234e-07	0.005573205	0.004458079	-1.024219e-05	-5.959045e-06	0.0003100927	0.002447518
	0.0002960268	0.002386067	-1.024219e-05	-5.959045e-06	0.005641752	0.0046471	-1.117726e-05	-5.823585e-06
	-2.227736e-07	-3.109781e-07	0.0003100922	0.002447518	-1.117726e-05	-5.823585e-06	0.005585042	0.004490585
6e+07	0.006036088	0.004947487	-2.826827e-06	-7.226563e-07	0.0004124743	0.00284711	-2.223422e-07	-2.064922e-07
	-2.826827e-06	-7.226563e-07	0.006078319	0.004926388	-1.200049e-05	-5.259491e-06	0.0004425934	0.002901588
	0.0004124754	0.00284711	-1.200049e-05	-5.259491e-06	0.006197331	0.005107293	-1.294121e-05	-5.068786e-06
	-2.223422e-07	-2.064922e-07	0.0004425904	0.002901588	-1.294121e-05	-5.068786e-06	0.006096464	0.004960968
7e+07	0.006540735	0.005369721	-3.147604e-06	-5.406503e-07	0.0005530569	0.003300859	-2.202227e-07	-1.246742e-07
	-3.147604e-06	-5.406503e-07	0.006571584	0.005349939	-1.355504e-05	-4.252903e-06	0.0005916592	0.003346431
	0.0005530582	0.003300859	-1.355503e-05	-4.252903e-06	0.0067379	0.005515134	-1.450308e-05	-4.00942e-06
	-2.202227e-07	-1.246742e-07	0.0005916545	0.003346434	-1.450308e-05	-4.00942e-06	0.006596299	0.00538571
8e+07	0.007038728	0.005752991	-3.426791e-06	-2.853162e-07	0.0007133338	0.003747122	-2.155493e-07	-5.91785e-08
	-3.426792e-06	-2.853162e-07	0.007057556	0.005735686	-1.491681e-05	-2.948465e-06	0.0007571348	0.003781571
	0.0007133349	0.003747122	-1.491681e-05	-2.948465e-06	0.007268216	0.005877836	-1.585983e-05	-2.659826e-06
	-2.155493e-07	-5.917849e-08	0.0007571301	0.003781575	-1.585983e-05	-2.659826e-06	0.007088983	0.00577136
9e+07	0.007533124	0.006102676	-3.662299e-06	4.998679e-08	0.000892671	0.004185425	-2.016705e-07	-2.959163e-09
	-3.662299e-06	4.99868e-08	0.007539299	0.006089062	-1.607499e-05	-1.295807e-06	0.0009386584	0.004206116
	0.0008926717	0.004185425	-1.607499e-05	-1.295807e-06	0.007791127	0.006199825	-1.700631e-05	-9.417997e-07
	-2.016705e-07	-2.959157e-09	0.0009386556	0.00420612	-1.700631e-05	-9.417997e-07	0.007577153	0.006123141
1e+08	0.008027023	0.006426755	-3.829813e-06	5.456704e-07	0.001091039	0.004616431	-1.841014e-07	5.362962e-08
	-3.829813e-06	5.456704e-07	0.008020048	0.006418599	-1.692071e-05	1.097725e-06	0.001135283	0.004617252
	0.001091039	0.004616431	-1.692071e-05	1.097725e-06	0.008307708	0.006481688	-1.784203e-05	1.531279e-06
	-1.841014e-07	5.362962e-08	0.001135284	0.004617251	-1.784203e-05	1.531279e-06	0.00806351	0.006449201
1.1e+08	0.00853836	0.00670637	-3.646142e-06	9.577535e-07	0.00131286	0.005035695	-1.755038e-07	9.846649e-08
	-3.646142e-06	9.577535e-07	0.008519062	0.00670492	-1.610267e-05	3.091054e-06	0.001338637	0.005020335
	0.00131286	0.005035694	-1.610267e-05	3.091054e-06	0.008810856	0.006726793	-1.697642e-05	3.592033e-06
	-1.755038e-07	9.846649e-08	0.001338637	0.005020335	-1.697642e-05	3.592033e-06	0.008566363	0.006733225
1.2e+08	0.009043546	0.00695119	-3.595665e-06	8.309771e-07	0.001551268	0.005441084	-1.836809e-07	9.425029e-08
	-3.595665e-06	8.309771e-07	0.009011405	0.006956153	-1.543857e-05	4.265186e-06	0.001558769	0.005417191
	0.001551268	0.005441084	-1.543857e-05	4.265186e-06	0.009309921	0.006949597	-1.644476e-05	4.149542e-06
	-1.836809e-07	9.425029e-08	0.001558769	0.005417191	-1.644476e-05	4.149542e-06	0.009062611	0.006982497
1.3e+08	0.009545508	0.007167392	-3.551309e-06	7.374936e-07	0.001806025	0.005833529	-1.990018e-07	7.91162e-08
	-3.551309e-06	7.374936e-07	0.00949996	0.007179099	-1.525087e-05	3.730253e-06	0.001794799	0.005804513
	0.001806025	0.005833529	-1.525087e-05	3.730253e-06	0.009806209	0.007148031	-1.624448e-05	3.596142e-06
	-1.990018e-07	7.91162e-08	0.001794799	0.005804513	-1.624448e-05	3.596142e-06	0.009554979	0.007203341
1.4e+08	0.01004555	0.007356686	-3.506086e-06	6.717663e-07	0.00207664	0.006212703	-2.13601e-07	6.725919e-08
	-3.506086e-06	6.717663e-07	0.009985955	0.007375653	-1.505965e-05	3.336788e-06	0.002046124	0.006181027
	0.00207664	0.006212703	-1.505965e-05	3.336788e-06	0.01030069	0.00732215	-1.604189e-05	3.186756e-06
	-2.13601e-07	6.725919e-08	0.002046124	0.006181027	-1.604189e-05	3.186756e-06	0.01004466	0.007397616
1.5e+08	0.01054425	0.00752003	-3.461009e-06	6.245173e-07	0.002362558	0.006578104	-2.276115e-07	5.805134e-08
	-3.461009e-06	6.245173e-07	0.01046995	0.00754691	-1.486992e-05	3.037813e-06	0.002312152	0.006545801
	0.002362558	0.006578104	-1.486992e-05	3.037813e-06	0.01079385	0.007472178	-1.584168e-05	2.874578e-06
	-2.276115e-07	5.805134e-08	0.002312152	0.006545801	-1.584168e-05	2.874578e-06	0.0105322	0.007566424
1.6e+08	0.0110418	0.007658093	-3.416478e-06	5.904834e-07	0.002663179	0.006929172	-2.411059e-07	5.104341e-08
	-3.416478e-06	5.904834e-07	0.01095211	0.007693659	-1.46835e-05	2.807236e-06	0.00259228	0.006898054
	0.002663179	0.006929172	-1.46835e-05	2.807236e-06	0.01128585	0.007598373	-1.564563e-05	2.632837e-06
	-2.411059e-07	5.104341e-08	0.00259228	0.006898054	-1.564563e-05	2.632837e-06	0.01101778	0.007710564
1.7e+08	0.01153808	0.00777142	-3.372656e-06	5.663239e-07	0.002977866	0.007265334	-2.541307e-07	4.589664e-08
	-3.372656e-06	5.663239e-07	0.01143235	0.007816547	-1.450112e-05	2.628353e-06	0.002885885	0.007237091
	0.002977866	0.007265334	-1.450112e-05	2.628353e-06	0.01177657	0.007701004	-1.545444e-05	2.444389e-06
	-2.541307e-07	4.589664e-08	0.002885885	0.007237091	-1.545444e-05	2.444389e-06	0.01150132	0.007830688
1.8e+08	0.01203282	0.007860498	-3.329589e-06	5.497751e-07	0.003305948	0.007586018	-2.667164e-07	4.234986e-08
	-3.329589e-06	5.497751e-07	0.01191044	0.00791615	-1.432296e-05	2.48978e-06	0.003192328	0.007562276
	0.003305948	0.007586018	-1.432296e-05	2.48978e-06	0.01226576	0.007780363	-1.526826e-05	2.297536e-06
	-2.667164e-07	4.234986e-08	0.003192328	0.007562276	-1.526826e-05	2.297536e-06	0.0119826	0.007927377
1.9e+08	0.01252562	0.007925786	-3.287336e-06	5.392837e-07	0.003646718	0.007890671	-2.788859e-07	4.01996e-08
	-3.287336e-06	5.392837e-07	0.01238602	0.007993008	-1.414899e-05	2.383345e-06	0.003510947	0.007873022
	0.003646718	0.007890671	-1.414899e-05	2.383345e-06	0.01275304	0.007836755	-1.508699e-05	2.183883e-06
	-2.788859e-07	4.01996e-08	0.003510947	0.007873022	-1.508699e-05	2.183883e-06	0.01246129	0.008001169
2e+08	0.01301602	0.007967729	-3.24585e-06	5.336497e-07	0.003999444	0.008178759	-2.906541e-07	3.927718e-08
	-3.24585e-06	5.336497e-07	0.01285871	0.008047631	-1.397902e-05	2.302984e-06	0.003841062	0.008168783
	0.003999444	0.008178759	-1.397902e-05	2.302984e-06	0.01323796	0.007870505	-1.491042e-05	2.097196e-06
	-2.906541e-07	3.927718e-08	0.003841062	0.008168783	-1.491042e-05	2.097196e-06	0.01293697	0.008052575
2.1e+08	0.01350351	0.007986757	-3.205032e-06	5.319099e-07	0.004363362	0.008449775	-3.020332e-07	3.944243e-08
	-3.205032e-06	5.319099e-07	0.01332807	0.008080507	-1.381283e-05	2.244049e-06	0.004181969	0.008449047
	0.004363362	0.008449775	-1.381283e-05	2.244049e-06	0.01372001	0.007881941	-1.473829e-05	2.032697e-06
	-3.020332e-07	3.944243e-08	0.004181969	0.008449047	-1.473829e-05	2.032697e-06	0.01340922	0.008082078
2.2e+08	0.01398754	0.007983296	-3.164836e-06	5.333555e-07	0.004737685	0.008703244	-3.130328e-07	4.058136e-08
	-3.164836e-06	5.333555e-07	0.01379362	0.00809211	-1.365017e-05	2.202918e-06	0.004532948	0.008713341
	0.004737685	0.008703244	-1.365017e-05	2.202918e-06	0.01419866	0.00787141	-1.457032e-05	1.986662e-06
	-3.130328e-07	4.058136e-08	0.004532948	0.008713341	-1.457032e-05	1.986662e-06	0.01387756	0.00809015
2.3e+08	0.01446756	0.007957774	-3.125206e-06	5.374259e-07	0.0051216	0.008938722	-3.236601e-07	4.259854e-08
	-3.125206e-06	5.374259e-07	0.01425489	0.008082905	-1.349076e-05	2.176725e-06	0.004893258	0.008961226
	0.0051216	0.008938722	-1.349076e-05	2.176725e-06	0.01467335	0.007839268	-1.440619e-05	1.956144e-06
	-3.236601e-07	4.259854e-08	0.004893258	0.008961226	-1.440619e-05	1.956144e-06	0.01434151	0.008077256
2.4e+08	0.014943	0.007910603	-3.086101e-06	5.43664e-07	0.005514273	0.009155798	-3.339218e-07	4.541161e-08
	-3.086101e-06	5.43664e-07	0.01471138	0.008053334	-1.333438e-05	2.163124e-06	0.005262138	0.009192297
	0.005514273	0.009155798	-1.333438e-05	2.163124e-06	0.01514351	0.007785874	-1.424565e-05	1.938731e-06
	-3.339218e-07	4.541161e-08	0.005262138	0.009192297	-1.424565e-05	1.938731e-06	0.01480058	0.008043839
2.5e+08	0.01541329	0.007842203	-3.047472e-06	5.516986e-07	0.005914851	0.009354101	-3.438227e-07	4.895046e-08
	-3.047472e-06	5.516986e-07	0.01516261	0.00800384	-1.318078e-05	2.160212e-06	0.005638814	0.009406187
	0.005914851	0.009354101	-1.318078e-05	2.160212e-06	0.01560855	0.007711598	-1.408844e-05	1.932468e-06
	-3.438227e-07	4.895046e-08	0.005638814	0.009406187	-1.408844e-05	1.932468e-06	0.01525425	0.007990344
2.6e+08	0.01587784	0.007752983	-3.009282e-06	5.612211e-07	0.006322464	0.009533294	-3.533672e-07	5.315386e-08
	-3.009282e-06	5.612211e-07	0.01560808	0.007934855	-1.302974e-05	2.166402e-06	0.006022492	0.009602563
	0.006322464	0.009533294	-1.302974e-05	2.166402e-06	0.01606789	0.007616813	-1.39343e-05	1.935726e-06
	-3.533672e-07	5.315386e-08	0.006022492	0.009602563	-1.39343e-05	1.935726e-06	0.01570204	0.007917202
2.7e+08	0.01633608	0.007643359	-2.971488e-06	5.719741e-07	0.006736225	0.009693082	-3.625589e-07	5.796871e-08
	-2.971488e-06	5.719741e-07	0.01604729	0.007846802	-1.288104e-05	2.180374e-06	0.006412366	0.009781129
	0.006736225	0.009693082	-1.288104e-05	2.180374e-06	0.01652095	0.007501905	-1.3783e-05	1.94715e-06
	-3.625589e-07	5.796871e-08	0.006412366	0.00978113	-1.3783e-05	1.94715e-06	0.01614342	0.007824841
2.8e+08	0.01678743	0.007513749	-2.934058e-06	5.837392e-07	0.007155234	0.009833206	-3.714009e-07	6.334761e-08
	-2.934058e-06	5.837392e-07	0.01647975	0.007740104	-1.273449e-05	2.201006e-06	0.006807619	0.009941626
	0.007155234	0.009833206	-1.273449e-05	2.201006e-06	0.01696713	0.007367265	-1.363434e-05	1.965589e-06
	-3.714009e-07	6.334761e-08	0.006807619	0.009941626	-1.363434e-05	1.965589e-06	0.01657791	0.007713696
2.9e+08	0.01723132	0.007364573	-2.896962e-06	5.963306e-07	0.007578579	0.009953452	-3.798963e-07	6.924861e-08
	-2.896962e-06	5.963306e-07	0.01690494	0.007615185	-1.258993e-05	2.22734e-06	0.00720742	0.01008383
	0.007578579	0.009953452	-1.258993e-05	2.22734e-06	0.01740586	0.007213291	-1.348812e-05	1.990062e-06
	-3.798963e-07	6.924861e-08	0.00720742	0.01008383	-1.348812e-05	1.990062e-06	0.01700498	0.007584187
3e+08	0.01766716	0.007196252	-2.860171e-06	6.095891e-07	0.008005339	0.01005364	-3.880473e-07	7.563446e-08
	-2.860171e-06	6.095891e-07	0.01732239	0.007472465	-1.244718e-05	2.258557e-06	0.00761093	0.01020756
	0.008005339	0.01005364	-1.244718e-05	2.258557e-06	0.01783655	0.007040392	-1.334415e-05	2.019732e-06
	-3.880473e-07	7.563446e-08	0.00761093	0.01020756	-1.334415e-05	2.019732e-06	0.01742413	0.007436747
3.1e+08	0.01809438	0.007009222	-2.823663e-06	6.233772e-07	0.008434584	0.01013365	-3.958564e-07	8.247126e-08
	-2.823663e-06	6.233772e-07	0.0177316	0.007312371	-1.23061e-05	2.293948e-06	0.008017303	0.01031268
	0.008434584	0.01013365	-1.23061e-05	2.293948e-06	0.01825862	0.006848991	-1.320229e-05	2.053875e-06
	-3.958564e-07	8.247126e-08	0.008017303	0.01031268	-1.320229e-05	2.053875e-06	0.01783488	0.007271809
3.2e+08	0.01851243	0.006803923	-2.787416e-06	6.375754e-07	0.00886538	0.01019337	-4.033258e-07	8.972858e-08
	-2.787416e-06	6.375754e-07	0.01813207	0.007135329	-1.216656e-05	2.332895e-06	0.008425687	0.01039906
	0.00886538	0.01019337	-1.216656e-05	2.332895e-06	0.0186715	0.006639512	-1.306238e-05	2.091861e-06
	-4.033258e-07	8.972858e-08	0.008425687	0.01039906	-1.306238e-05	2.091861e-06	0.01823671	0.00708981
3.3e+08	0.01892072	0.006580804	-2.751408e-06	6.520793e-07	0.009296788	0.01023276	-4.104573e-07	9.737893e-08
	-2.751408e-06	6.520793e-07	0.01852332	0.006941777	-1.202841e-05	2.374858e-06	0.008835223	0.01046665
	0.009296788	0.01023276	-1.202841e-05	2.374858e-06	0.01907463	0.006412404	-1.292427e-05	2.133139e-06
	-4.104573e-07	9.737893e-08	0.008835223	0.01046665	-1.292427e-05	2.133139e-06	0.01862914	0.00689119
3.4e+08	0.01931872	0.006340331	-2.715626e-06	6.667976e-07	0.009727868	0.01025182	-4.172529e-07	1.053969e-07
	-2.715626e-06	6.667976e-07	0.01890488	0.006732157	-1.189157e-05	2.419364e-06	0.009245055	0.01051541
	0.009727868	0.01025182	-1.189157e-05	2.419364e-06	0.01946744	0.006168118	-1.278784e-05	2.177231e-06
	-4.172529e-07	1.053969e-07	0.009245055	0.01051541	-1.278784e-05	2.177231e-06	0.01901169	0.006676406
3.5e+08	0.01970587	0.006082972	-2.680053e-06	6.816497e-07	0.01015768	0.01025058	-4.237144e-07	1.137595e-07
	-2.680053e-06	6.816497e-07	0.01927628	0.00650692	-1.17559e-05	2.46599e-06	0.009654321	0.01054536
	0.01015768	0.01025058	-1.17559e-05	2.46599e-06	0.01984938	0.005907127	-1.265298e-05	2.223708e-06
	-4.237144e-07	1.137595e-07	0.009654321	0.01054536	-1.265298e-05	2.223708e-06	0.01938387	0.006445915
3.6e+08	0.02008163	0.005809218	-2.644676e-06	6.965625e-07	0.01058528	0.01022911	-4.298433e-07	1.224449e-07
	-2.644676e-06	6.965625e-07	0.01963704	0.006266525	-1.162134e-05	2.514366e-06	0.01006216	0.01055653
	0.01058528	0.01022911	-1.162134e-05	2.514366e-06	0.02021992	0.005629909	-1.251958e-05	2.272196e-06
	-4.298433e-07	1.224449e-07	0.01006216	0.01055653	-1.251958e-05	2.272196e-06	0.01974522	0.006200188
3.7e+08	0.02044548	0.005519571	-2.609487e-06	7.114749e-07	0.01100975	0.01018755	-4.356415e-07	1.314339e-07
	-2.609487e-06	7.114749e-07	0.01998671	0.006011442	-1.14878e-05	2.564158e-06	0.01046773	0.01054903
	0.01100975	0.01018755	-1.14878e-05	2.564158e-06	0.02057852	0.005336968	-1.238755e-05	2.322361e-06
	-4.356415e-07	1.314339e-07	0.01046773	0.01054903	-1.238755e-05	2.322361e-06	0.02009528	0.005939704
3.8e+08	0.02079689	0.005214544	-2.574477e-06	7.263307e-07	0.01143014	0.01012604	-4.411105e-07	1.407084e-07
	-2.574477e-06	7.263307e-07	0.02032484	0.005742153	-1.135518e-05	2.615069e-06	0.01087016	0.01052297
	0.01143014	0.01012604	-1.135518e-05	2.615069e-06	0.02092466	0.005028814	-1.225679e-05	2.373904e-06
	-4.411105e-07	1.407084e-07	0.01087016	0.01052297	-1.225679e-05	2.373904e-06	0.02043359	0.005664954
3.9e+08	0.02113536	0.00489467	-2.539639e-06	7.410803e-07	0.01184555	0.01004481	-4.46252e-07	1.502515e-07
	-2.539639e-06	7.410803e-07	0.02065101	0.005459149	-1.122344e-05	2.666832e-06	0.01126862	0.01047852
	0.01184555	0.01004481	-1.122344e-05	2.666832e-06	0.02125784	0.004705977	-1.212723e-05	2.426557e-06
	-4.46252e-07	1.502515e-07	0.01126862	0.01047852	-1.212723e-05	2.426557e-06	0.02075972	0.005376441
4e+08	0.02146039	0.00456049	-2.504966e-06	7.556786e-07	0.01225505	0.009944084	-4.510675e-07	1.600475e-07
	-2.504966e-06	7.556786e-07	0.02096477	0.005162936	-1.109249e-05	2.719204e-06	0.01166227	0.01041588
	0.01225505	0.009944084	-1.109249e-05	2.719204e-06	0.02157756	0.004369	-1.199879e-05	2.48008e-06
	-4.510675e-07	1.600475e-07	0.01166227	0.01041588	-1.199879e-05	2.48008e-06	0.02107324	0.005074678
4.1e+08	0.02177151	0.004212573	-2.470453e-06	7.700862e-07	0.01265776	0.009824162	-4.555582e-07	1.700818e-07
	-2.470453e-06	7.700862e-07	0.02126573	0.004854029	-1.096228e-05	2.771966e-06	0.01205028	0.01033529
	0.01265776	0.009824162	-1.096228e-05	2.771966e-06	0.02188335	0.004018446	-1.187141e-05	2.534257e-06
	-4.555582e-07	1.700818e-07	0.01205028	0.01033529	-1.187141e-05	2.534257e-06	0.02137374	0.004760195
4.2e+08	0.02206825	0.003851488	-2.436099e-06	7.842674e-07	0.01305279	0.009685371	-4.597257e-07	1.803407e-07
	-2.436099e-06	7.842674e-07	0.02155348	0.004532957	-1.083277e-05	2.824923e-06	0.01243183	0.01023702
	0.01305279	0.009685371	-1.083277e-05	2.824923e-06	0.02217474	0.003654889	-1.174501e-05	2.588893e-06
	-4.597257e-07	1.803407e-07	0.01243183	0.01023702	-1.174501e-05	2.588893e-06	0.02166081	0.004433525
4.3e+08	0.02235017	0.003477833	-2.401899e-06	7.981909e-07	0.01343926	0.009528078	-4.635711e-07	1.908113e-07
	-2.401899e-06	7.981909e-07	0.02182764	0.004200257	-1.07039e-05	2.877893e-06	0.01280613	0.0101214
	0.01343926	0.009528078	-1.07039e-05	2.877893e-06	0.0224513	0.00327892	-1.161956e-05	2.643812e-06
	-4.635711e-07	1.908113e-07	0.01280613	0.0101214	-1.161956e-05	2.643812e-06	0.02193407	0.004095221
4.4e+08	0.02261683	0.003092209	-2.367853e-06	8.118276e-07	0.01381632	0.009352691	-4.670958e-07	2.014817e-07
	-2.367853e-06	8.118276e-07	0.02208784	0.003856483	-1.057565e-05	2.930713e-06	0.01317239	0.009988761
	0.01381632	0.009352691	-1.057565e-05	2.930713e-06	0.02271258	0.002891147	-1.149499e-05	2.698854e-06
	-4.670958e-07	2.014817e-07	0.01317239	0.009988761	-1.149499e-05	2.698854e-06	0.02219316	0.003745844
4.5e+08	0.02286784	0.002695245	-2.333958e-06	8.251521e-07	0.01418315	0.009159658	-4.703008e-07	2.123403e-07
	-2.333958e-06	8.251521e-07	0.02233373	0.003502196	-1.044796e-05	2.98323e-06	0.01352984	0.009839497
	0.01418315	0.009159658	-1.044796e-05	2.98323e-06	0.02295819	0.002492192	-1.137125e-05	2.75387e-06
	-4.703008e-07	2.123403e-07	0.01352984	0.009839497	-1.137125e-05	2.75387e-06	0.02243771	0.003385968
4.6e+08	0.0231028	0.002287574	-2.300217e-06	8.381417e-07	0.01453893	0.008949463	-4.731873e-07	2.233766e-07
	-2.300217e-06	8.381417e-07	0.02256497	0.003137971	-1.03208e-05	3.035292e-06	0.01387771	0.009674025
	0.01453893	0.008949463	-1.03208e-05	3.035292e-06	0.02318774	0.002082691	-1.124832e-05	2.808729e-06
	-4.731873e-07	2.233766e-07	0.01387771	0.009674025	-1.124832e-05	2.808729e-06	0.0226674	0.003016178
4.7e+08	0.02332134	0.001869843	-2.266628e-06	8.507754e-07	0.01488286	0.008722625	-4.757535e-07	2.345787e-07
	-2.266628e-06	8.507754e-07	0.02278125	0.002764394	-1.01941e-05	3.086704e-06	0.01421529	0.009492798
	0.01488286	0.008722625	-1.01941e-05	3.086704e-06	0.02340085	0.001663291	-1.112612e-05	2.863287e-06
	-4.757535e-07	2.345787e-07	0.01421529	0.009492798	-1.112612e-05	2.863287e-06	0.0228819	0.002637065
