!$
! Info: Touchstone file created by Circ.  Input file=Tx_4in_Rx_85ohms_TxVia_10mils_RxVia_20mils.circ
!$
# Hz S RI R 50
0	0.003337443	3.312874e-26	1.117403e-10	7.006736e-29	3.47659e-05	3.503952e-24	-5.09621e-09	6.243354e-25
	1.117523e-10	7.026088e-29	0.003338125	4.461298e-26	5.50609e-10	2.470572e-27	3.284984e-05	4.687431e-24
	3.34642e-05	3.414167e-24	5.50547e-10	2.477806e-27	0.003352865	3.472314e-26	-9.246602e-09	1.146319e-24
	-5.095318e-09	6.242262e-25	3.430804e-05	4.824494e-24	-9.246798e-09	1.146343e-24	0.003343772	4.259121e-26
1e+07	0.004515363	-0.003495879	5.190055e-11	-1.622209e-11	9.637007e-05	0.0008221525	-8.77089e-09	1.645856e-08
	5.19006e-11	-1.622238e-11	0.00452615	-0.003497835	6.851017e-10	1.10808e-09	9.497269e-05	0.000823565
	9.632621e-05	0.000822156	6.851016e-10	1.10808e-09	0.004544363	-0.003486918	-1.015145e-08	1.609214e-08
	-8.77089e-09	1.645856e-08	9.500484e-05	0.0008235535	-1.015145e-08	1.609214e-08	0.00452874	-0.003494268
2e+07	0.005252731	-0.008089984	4.501608e-11	-1.601577e-11	0.0002206153	0.001615024	-8.558475e-09	1.259415e-08
	4.50159e-11	-1.60159e-11	0.00525162	-0.008098151	8.499513e-10	1.961207e-09	0.00021533	0.001618292
	0.0002206056	0.001615052	8.499514e-10	1.961207e-09	0.005279405	-0.008077863	-1.024877e-08	1.280504e-08
	-8.558475e-09	1.259415e-08	0.0002153269	0.001618271	-1.024877e-08	1.280504e-08	0.005256056	-0.008087079
3e+07	0.005224583	-0.01320455	6.118143e-11	-3.802934e-11	0.0004092193	0.002387635	-6.085225e-09	1.216456e-08
	6.118139e-11	-3.802931e-11	0.005206073	-0.01321426	9.161058e-10	2.764663e-09	0.0003976552	0.002393531
	0.00040922	0.00238764	9.161059e-10	2.764663e-09	0.005249366	-0.01318624	-7.447346e-09	1.300811e-08
	-6.085225e-09	1.216456e-08	0.0003976501	0.002393528	-7.447346e-09	1.300811e-08	0.005212397	-0.01319724
4e+07	0.004582391	-0.01844272	6.756546e-11	-6.314355e-11	0.0006617075	0.003136575	-4.008657e-09	1.153829e-08
	6.756544e-11	-6.314358e-11	0.004540893	-0.0184509	9.41133e-10	3.576209e-09	0.0006415682	0.003146131
	0.0006617034	0.003136573	9.41133e-10	3.576209e-09	0.00460541	-0.01841766	-5.130405e-09	1.263591e-08
	-4.008657e-09	1.153829e-08	0.0006415679	0.003146132	-5.130405e-09	1.263591e-08	0.004549088	-0.01843028
5e+07	0.003387939	-0.02368306	7.355693e-11	-8.106205e-11	0.0009759088	0.003856879	-2.751155e-09	1.098175e-08
	7.35569e-11	-8.106207e-11	0.003318099	-0.02368622	9.496648e-10	4.384879e-09	0.0009450438	0.003871463
	0.0009759071	0.003856878	9.496648e-10	4.384879e-09	0.003409135	-0.02365102	-3.793025e-09	1.21523e-08
	-2.751155e-09	1.098175e-08	0.0009450433	0.003871463	-3.793025e-09	1.21523e-08	0.003326621	-0.02366282
6e+07	0.001679087	-0.02884958	9.099299e-11	-8.306549e-11	0.001348961	0.004543592	-2.479797e-09	1.080466e-08
	9.099307e-11	-8.306547e-11	0.001575923	-0.02884367	9.564084e-10	5.179711e-09	0.001305439	0.004564843
	0.001348967	0.00454359	9.564084e-10	5.179711e-09	0.001698261	-0.0288104	-3.583534e-09	1.182704e-08
	-2.479798e-09	1.080466e-08	0.001305436	0.004564843	-3.583534e-09	1.182704e-08	0.001583907	-0.02881735
7e+07	-0.0005142062	-0.03388396	1.576242e-10	1.183735e-11	0.001777531	0.005191926	-4.216872e-09	1.100143e-08
	1.576245e-10	1.183727e-11	-0.0006552058	-0.03386435	1.021765e-09	5.96737e-09	0.001719641	0.005221703
	0.001777542	0.005191919	1.021765e-09	5.96737e-09	-0.0004973354	-0.03383743	-5.138599e-09	1.129291e-08
	-4.216872e-09	1.100143e-08	0.001719636	0.005221706	-5.138599e-09	1.129291e-08	-0.000648199	-0.03383525
8e+07	-0.003164452	-0.03873735	7.815236e-10	-1.322278e-09	0.002257845	0.005797385	-9.77196e-09	6.291114e-09
	7.81524e-10	-1.322279e-09	-0.003347269	-0.03869891	1.066232e-09	7.036438e-09	0.002184093	0.005837746
	0.002257856	0.005797374	1.066232e-09	7.036437e-09	-0.003150199	-0.03868321	-8.625571e-09	7.367342e-09
	-9.77196e-09	6.291114e-09	0.002184089	0.00583775	-8.625571e-09	7.367342e-09	-0.003341918	-0.03866743
9e+07	-0.006244474	-0.04336723	1.967337e-10	-2.178572e-10	0.002785757	0.006355965	-3.900816e-09	-1.128355e-09
	1.96734e-10	-2.178577e-10	-0.006472512	-0.0433043	7.852598e-10	7.845093e-09	0.002694877	0.00640916
	0.002785764	0.006355955	7.852598e-10	7.845093e-09	-0.006233153	-0.04330508	-4.93072e-09	5.169697e-10
	-3.900816e-09	-1.128355e-09	0.002694874	0.006409164	-4.93072e-09	5.169697e-10	-0.006469949	-0.04327076
1e+08	-0.009727005	-0.04773724	1.24167e-10	-1.932342e-10	0.003357269	0.006865309	-1.990063e-10	-2.142527e-10
	1.24167e-10	-1.932342e-10	-0.010003	-0.04764363	6.751518e-10	8.542463e-09	0.003248247	0.006933769
	0.003357268	0.006865309	6.751518e-10	8.542463e-09	-0.009718856	-0.04766648	-6.703221e-10	6.32612e-10
	-1.990063e-10	-2.142527e-10	0.003248247	0.006933769	-6.703221e-10	6.32612e-10	-0.01000472	-0.04760806
1.1e+08	-0.01358706	-0.05181514	1.380841e-10	-2.207098e-10	0.003972152	0.00731703	-2.402459e-10	-2.148861e-10
	1.380841e-10	-2.207098e-10	-0.01391333	-0.05168363	5.765744e-10	9.423575e-09	0.003843829	0.007402906
	0.003972152	0.00731703	5.765744e-10	9.423575e-09	-0.01358088	-0.05173524	-7.923183e-10	7.739935e-10
	-2.402459e-10	-2.148861e-10	0.003843829	0.007402906	-7.923183e-10	7.739935e-10	-0.01391979	-0.0516443
1.2e+08	-0.0177888	-0.05555723	1.524274e-10	-2.495938e-10	0.004617809	0.007707777	-2.82931e-10	-2.104039e-10
	1.524274e-10	-2.495938e-10	-0.01816629	-0.05538163	4.703133e-10	1.03272e-08	0.004469948	0.007814094
	0.004617808	0.007707777	4.703133e-10	1.03272e-08	-0.01778533	-0.05546847	-9.153933e-10	9.34007e-10
	-2.82931e-10	-2.104039e-10	0.004469948	0.007814094	-9.153933e-10	9.34007e-10	-0.01817806	-0.05533782
1.3e+08	-0.0222986	-0.05893887	1.674487e-10	-2.806972e-10	0.005289272	0.00803698	-3.265219e-10	-2.005923e-10
	1.674487e-10	-2.806972e-10	-0.02272768	-0.05871264	3.601636e-10	1.125426e-08	0.005121955	0.00816666
	0.005289272	0.00803698	3.601636e-10	1.125426e-08	-0.02229849	-0.05884096	-1.036897e-09	1.112235e-09
	-3.265219e-10	-2.005923e-10	0.005121955	0.00816666	-1.036897e-09	1.112235e-09	-0.02274529	-0.05866358
1.4e+08	-0.02708155	-0.06193711	1.833385e-10	-3.146697e-10	0.005980989	0.008303228	-3.703306e-10	-1.854731e-10
	1.833385e-10	-3.146697e-10	-0.02756194	-0.06165355	2.496079e-10	1.220542e-08	0.00579459	0.008459129
	0.005980989	0.008303228	2.496079e-10	1.220542e-08	-0.02708529	-0.06182944	-1.154207e-09	1.308166e-09
	-3.703306e-10	-1.854731e-10	0.00579459	0.008459129	-1.154207e-09	1.308166e-09	-0.02758586	-0.06159835
1.5e+08	-0.03210189	-0.06453201	1.993021e-10	-3.515496e-10	0.006687236	0.00850543	-4.139485e-10	-1.646937e-10
	1.993021e-10	-3.515496e-10	-0.03263263	-0.06418434	1.420236e-10	1.318103e-08	0.00648242	0.008690362
	0.006687236	0.00850543	1.420236e-10	1.318103e-08	-0.03210978	-0.06441381	-1.265665e-09	1.521622e-09
	-4.139485e-10	-1.646937e-10	0.00648242	0.008690362	-1.265665e-09	1.521622e-09	-0.03266315	-0.06412199
1.6e+08	-0.03732305	-0.06670677	2.149869e-10	-3.916543e-10	0.007402212	0.008642952	-4.567453e-10	-1.382167e-10
	2.149869e-10	-3.916543e-10	-0.03790245	-0.06628816	4.070407e-11	1.418107e-08	0.007179942	0.008859669
	0.007402212	0.008642952	4.070407e-11	1.418107e-08	-0.0373352	-0.06657716	-1.369194e-09	1.751885e-09
	-4.567453e-10	-1.382167e-10	0.007179942	0.008859669	-1.369194e-09	1.751885e-09	-0.03793973	-0.06621763
1.7e+08	-0.04270783	-0.06844774	2.299512e-10	-4.352489e-10	0.008120101	0.008715656	-4.980827e-10	-1.060688e-10
	2.299512e-10	-4.352489e-10	-0.04333345	-0.06795144	-5.112977e-11	1.520522e-08	0.007881637	0.008966839
	0.008120101	0.008715656	-5.112977e-11	1.520522e-08	-0.04272416	-0.06830581	-1.462854e-09	1.998028e-09
	-4.980827e-10	-1.060688e-10	0.007881637	0.008966839	-1.462854e-09	1.998028e-09	-0.04337748	-0.06787163
1.8e+08	-0.04821852	-0.06974443	2.436753e-10	-4.825332e-10	0.008835125	0.008723908	-5.373205e-10	-6.834313e-11
	2.436753e-10	-4.825332e-10	-0.04888714	-0.06916383	-1.303348e-10	1.625283e-08	0.008582031	0.009012141
	0.008835125	0.008723908	-1.303348e-10	1.625283e-08	-0.04823878	-0.06958926	-1.544856e-09	2.258934e-09
	-5.373205e-10	-6.834313e-11	0.008582031	0.009012141	-1.544856e-09	2.258934e-09	-0.04893777	-0.06907365
1.9e+08	-0.05381709	-0.07058953	2.555728e-10	-5.336274e-10	0.009541599	0.008668576	-5.738235e-10	-2.520015e-11
	2.555728e-10	-5.336274e-10	-0.05452473	-0.06991825	-1.938602e-10	1.732293e-08	0.009275737	0.008996315
	0.009541599	0.008668576	-1.938602e-10	1.732293e-08	-0.0538409	-0.07042022	-1.613576e-09	2.533324e-09
	-5.738235e-10	-2.520015e-11	0.009275737	0.008996316	-1.613576e-09	2.533324e-09	-0.05458165	-0.06981661
2e+08	-0.05946542	-0.07097886	2.650039e-10	-5.885597e-10	0.01023398	0.008551016	-6.069688e-10	2.313204e-11
	2.650039e-10	-5.885597e-10	-0.06020735	-0.07021087	-2.387685e-10	1.841426e-08	0.009957498	0.008920562
	0.01023398	0.008551017	-2.387685e-10	1.841426e-08	-0.05949224	-0.07079459	-1.667563e-09	2.819778e-09
	-6.069688e-10	2.313204e-11	0.009957498	0.008920562	-1.667563e-09	2.819778e-09	-0.06027012	-0.07009672
2.1e+08	-0.06512549	-0.07091141	2.712903e-10	-6.472541e-10	0.01090689	0.008373059	-6.361532e-10	7.635847e-11
	2.712903e-10	-6.472541e-10	-0.06589626	-0.07004107	-2.622585e-10	1.952522e-08	0.01062223	0.008786519
	0.01090689	0.008373059	-2.622585e-10	1.952522e-08	-0.06515468	-0.07071139	-1.705549e-09	3.116762e-09
	-6.361532e-10	7.635847e-11	0.01062223	0.008786519	-1.705549e-09	3.116762e-09	-0.06596431	-0.06991341
2.2e+08	-0.07075964	-0.07038923	2.73733e-10	-7.095218e-10	0.01155521	0.008136978	-6.608005e-10	1.34119e-10
	2.73733e-10	-7.095218e-10	-0.07155312	-0.06941141	-2.616923e-10	2.065395e-08	0.01126506	0.008596243
	0.01155521	0.008136978	-2.616923e-10	2.065395e-08	-0.07079045	-0.07017275	-1.726449e-09	3.422653e-09
	-6.608005e-10	1.34119e-10	0.01126506	0.008596243	-1.726449e-09	3.422653e-09	-0.07162574	-0.06926929
2.3e+08	-0.07633074	-0.06941742	2.716311e-10	-7.750543e-10	0.01217405	0.007845468	-6.803686e-10	1.959909e-10
	2.716311e-10	-7.750543e-10	-0.07714017	-0.06832756	-2.346209e-10	2.179828e-08	0.01188135	0.008352177
	0.01217405	0.007845468	-2.346209e-10	2.179828e-08	-0.07636234	-0.06918384	-1.729359e-09	3.73576e-09
	-6.803686e-10	1.959909e-10	0.01188135	0.008352178	-1.729359e-09	3.73576e-09	-0.07721655	-0.06817009
2.4e+08	-0.08180248	-0.06800402	2.643014e-10	-8.434208e-10	0.01275882	0.007501615	-6.943568e-10	2.61492e-10
	2.643014e-10	-8.434208e-10	-0.08262054	-0.0667982	-1.788125e-10	2.295579e-08	0.01246674	0.008057131
	0.01275882	0.007501615	-1.788125e-10	2.295579e-08	-0.08183395	-0.0677528	-1.713558e-09	4.054347e-09
	-6.943568e-10	2.61492e-10	0.01246674	0.008057131	-1.713558e-09	4.054347e-09	-0.08269975	-0.06662459
2.5e+08	-0.08713954	-0.06615992	2.511005e-10	-9.140678e-10	0.01330527	0.00710886	-7.023114e-10	3.300852e-10
	2.511005e-10	-9.140678e-10	-0.08795838	-0.06483494	-9.227718e-11	2.41238e-08	0.01301715	0.007714243
	0.01330527	0.00710886	-9.227718e-11	2.41238e-08	-0.08716989	-0.06589059	-1.678498e-09	4.376654e-09
	-7.023114e-10	3.300852e-10	0.01301715	0.007714243	-1.678498e-09	4.376654e-09	-0.0880394	-0.06464448
2.6e+08	-0.09230782	-0.06389878	2.314446e-10	-9.863226e-10	0.01380948	0.006670967	-7.038323e-10	4.011836e-10
	2.314446e-10	-9.863226e-10	-0.09311916	-0.06245218	2.670764e-11	2.529943e-08	0.01352883	0.007326951
	0.01380948	0.006670967	2.670764e-11	2.529943e-08	-0.09233599	-0.06361096	-1.623797e-09	4.700911e-09
	-7.038323e-10	4.011836e-10	0.01352883	0.007326951	-1.623797e-09	4.700911e-09	-0.09320087	-0.06224426
2.7e+08	-0.09727459	-0.06123684	2.048317e-10	-1.059401e-09	0.0142679	0.006191985	-6.985782e-10	4.741554e-10
	2.048317e-10	-1.059401e-09	-0.09806982	-0.059667	1.795754e-10	2.647956e-08	0.01399837	0.006898964
	0.0142679	0.006191985	1.795754e-10	2.647956e-08	-0.09729947	-0.06093027	-1.549232e-09	5.025351e-09
	-6.985782e-10	4.741554e-10	0.01399837	0.006898964	-1.549232e-09	5.025351e-09	-0.09815101	-0.05944112
2.8e+08	-0.1020088	-0.05819285	1.708592e-10	-1.132419e-09	0.01467736	0.005676217	-6.862711e-10	5.483311e-10
	1.708592e-10	-1.132419e-09	-0.1027789	-0.05649896	3.674491e-10	2.766094e-08	0.0144227	0.006434221
	0.01467736	0.005676217	3.674491e-10	2.766094e-08	-0.1020292	-0.05786736	-1.454725e-09	5.348229e-09
	-6.862711e-10	5.483311e-10	0.0144227	0.006434221	-1.454725e-09	5.348229e-09	-0.1028584	-0.05625476
2.9e+08	-0.106481	-0.05478786	1.292431e-10	-1.204402e-09	0.01503511	0.005128178	-6.667003e-10	6.230096e-10
	1.292431e-10	-1.204402e-09	-0.107217	-0.05297003	5.911232e-10	2.884015e-08	0.01479912	0.005936868
	0.01503511	0.005128178	5.911232e-10	2.884015e-08	-0.1064958	-0.05444339	-1.340338e-09	5.667823e-09
	-6.667003e-10	6.230096e-10	0.01479912	0.005936868	-1.340338e-09	5.667823e-09	-0.1072934	-0.05270725
3e+08	-0.1106638	-0.05104511	7.983559e-11	-1.27431e-09	0.01533878	0.004552563	-6.397257e-10	6.974651e-10
	7.983559e-11	-1.27431e-09	-0.1113565	-0.04910434	8.510507e-10	3.001369e-08	0.01512529	0.005411216
	0.01533878	0.004552563	8.510507e-10	3.001369e-08	-0.1106717	-0.05068172	-1.206256e-09	5.982444e-09
	-6.397257e-10	6.974651e-10	0.01512529	0.005411216	-1.206256e-09	5.982444e-09	-0.1114284	-0.04882285
3.1e+08	-0.1145319	-0.04698979	2.171114e-11	-1.339654e-09	0.01558643	0.003954207	-6.052491e-10	7.709511e-10
	2.171114e-11	-1.339654e-09	-0.115172	-0.04492801	1.14673e-09	3.117825e-08	0.01539925	0.004861716
	0.01558643	0.003954207	1.14673e-09	3.117825e-08	-0.1145316	-0.04660767	-1.053711e-09	6.291857e-09
	-6.052491e-10	7.709511e-10	0.01539925	0.004861716	-1.053711e-09	6.291857e-09	-0.115238	-0.04462783
3.2e+08	-0.1180621	-0.04264896	-4.552724e-11	-1.397472e-09	0.01577655	0.003338057	-5.63243e-10	8.426977e-10
	-4.552724e-11	-1.397472e-09	-0.1186404	-0.04046901	1.477376e-09	3.233066e-08	0.01561944	0.004292922
	0.01577655	0.003338057	1.477376e-09	3.233066e-08	-0.1180524	-0.04224839	-8.836673e-10	6.596313e-09
	-5.63243e-10	8.426977e-10	0.01561944	0.004292922	-8.836673e-10	6.596313e-09	-0.1186991	-0.0401503
3.3e+08	-0.1212335	-0.03805125	-1.194269e-10	-1.449275e-09	0.01590801	0.002709128	-5.138527e-10	9.119516e-10
	-1.194269e-10	-1.449275e-09	-0.121741	-0.0357569	1.843629e-09	3.346678e-08	0.01578466	0.003709467
	0.01590801	0.002709128	1.843629e-09	3.346678e-08	-0.1212132	-0.03763266	-6.944927e-10	6.891574e-09
	-5.138527e-10	9.119516e-10	0.01578466	0.003709467	-6.944927e-10	6.891574e-09	-0.1217911	-0.03541996
3.4e+08	-0.1240276	-0.03322676	-1.993995e-10	-1.49402e-09	0.01598014	0.002072479	-4.572385e-10	9.779623e-10
	-1.993995e-10	-1.49402e-09	-0.1244557	-0.03082271	2.244518e-09	3.458296e-08	0.01589409	0.003116027
	0.01598014	0.002072479	2.244518e-09	3.458296e-08	-0.1239954	-0.0327907	-4.866929e-10	7.176041e-09
	-4.572385e-10	9.779623e-10	0.01589409	0.003116027	-4.866929e-10	7.176041e-09	-0.1244956	-0.03046798
3.5e+08	-0.1264286	-0.02820681	-2.846937e-10	-1.530728e-09	0.01599266	0.001433178	-3.936358e-10	1.039995e-09
	-2.846937e-10	-1.530728e-09	-0.1267687	-0.02569864	2.678701e-09	3.567566e-08	0.01594729	0.002517299
	0.01599266	0.001433178	2.678701e-09	3.567566e-08	-0.1263832	-0.02775397	-2.608706e-10	7.448148e-09
	-3.936358e-10	1.039995e-09	0.01594729	0.002517299	-2.608706e-10	7.448148e-09	-0.1267971	-0.02532671
3.6e+08	-0.128423	-0.02302377	-3.744041e-10	-1.558505e-09	0.01594571	0.0007962677	-3.233526e-10	1.097334e-09
	-3.744041e-10	-1.558505e-09	-0.1286671	-0.02041794	3.144471e-09	3.674141e-08	0.01594419	0.00191797
	0.01594571	0.0007962677	3.144471e-09	3.674141e-08	-0.1283632	-0.02255496	-1.772361e-11	7.706347e-09
	-3.233526e-10	1.097334e-09	0.01594419	0.00191797	-1.772361e-11	7.706347e-09	-0.1286828	-0.02002954
3.7e+08	-0.1299999	-0.01771086	-4.674816e-10	-1.576565e-09	0.01583983	0.0001667427	-2.467665e-10	1.149294e-09
	-4.674816e-10	-1.576565e-09	-0.1301407	-0.01501466	3.639762e-09	3.777689e-08	0.0158851	0.001322692
	0.01583983	0.0001667427	3.639762e-09	3.777689e-08	-0.1299247	-0.01722701	2.419528e-10	7.949115e-09
	-2.467665e-10	1.149294e-09	0.0158851	0.001322692	2.419528e-10	7.949115e-09	-0.1301422	-0.01461066
3.8e+08	-0.1311514	-0.01230192	-5.627469e-10	-1.584251e-09	0.01567596	-0.0004504834	-1.643225e-10	1.195224e-09
	-5.627469e-10	-1.584251e-09	-0.1311819	-0.009523435	4.16216e-09	3.877893e-08	0.01577066	0.0007360586
	0.01567596	-0.0004504834	4.16216e-09	3.877893e-08	-0.1310597	-0.0118041	5.172627e-10	8.174951e-09
	-1.643225e-10	1.195224e-09	0.01577066	0.0007360586	5.172627e-10	8.174951e-09	-0.1311681	-0.009104835
3.9e+08	-0.1318719	-0.00683123	-6.589085e-10	-1.581059e-09	0.0154554	-0.001050604	-7.652889e-11	1.234511e-09
	-6.589085e-10	-1.581059e-09	-0.131786	-0.003979284	4.708921e-09	3.97446e-08	0.01560189	0.0001625796
	0.0154554	-0.001050604	4.708921e-09	3.97446e-08	-0.1317627	-0.006320623	8.072047e-10	8.382378e-09
	-7.652889e-11	1.234511e-09	0.01560189	0.0001625796	8.072047e-10	8.382378e-09	-0.1317556	-0.003547231
4e+08	-0.1321587	-0.001333319	-7.545831e-10	-1.566654e-09	0.01517984	-0.001628943	1.604737e-11	1.266594e-09
	-7.545831e-10	-1.566654e-09	-0.131951	0.001582586	5.276986e-09	4.06712e-08	0.01538014	-0.0003933405
	0.01517984	-0.001628943	5.276986e-09	4.06712e-08	-0.1320311	-0.0008112103	1.110667e-09	8.569945e-09
	1.604737e-11	1.266594e-09	0.01538014	-0.0003933405	1.110667e-09	8.569945e-09	-0.1319029	0.00202683
4.1e+08	-0.1320117	0.004157273	-8.483195e-10	-1.540887e-09	0.01485134	-0.002180985	1.12785e-10	1.290962e-09
	-8.483195e-10	-1.540887e-09	-0.1316775	0.007127017	5.863008e-09	4.155628e-08	0.01510708	-0.0009274251
	0.01485134	-0.002180985	5.863008e-09	4.155628e-08	-0.1318649	0.004689486	1.426418e-09	8.736233e-09
	1.12785e-10	1.290962e-09	0.01510708	-0.0009274251	1.426418e-09	8.736233e-09	-0.131611	0.007582068
4.2e+08	-0.1314337	0.009606166	-9.386242e-10	-1.503802e-09	0.01447228	-0.002702394	2.130142e-10	1.307159e-09
	-9.386242e-10	-1.503802e-09	-0.1309693	0.01261908	6.463375e-09	4.239773e-08	0.01478472	-0.001435547
	0.01447228	-0.002702394	6.463375e-09	4.239773e-08	-0.131267	0.01014699	1.753101e-09	8.879856e-09
	2.130142e-10	1.307159e-09	0.01478472	-0.001435547	1.753101e-09	8.879856e-09	-0.1308834	0.01308345
4.3e+08	-0.1304299	0.01497935	-1.023989e-09	-1.45565e-09	0.0140454	-0.00318904	3.160217e-10	1.314795e-09
	-1.023989e-09	-1.45565e-09	-0.1298325	0.01802429	7.074238e-09	4.319374e-08	0.01441537	-0.001913748
	0.0140454	-0.00318904	7.074238e-09	4.319374e-08	-0.1302428	0.0155272	2.089227e-09	8.999478e-09
	3.160217e-10	1.314795e-09	0.01441537	-0.001913748	2.089227e-09	8.999478e-09	-0.1297264	0.01849639
4.4e+08	-0.1290083	0.02024338	-1.102921e-09	-1.396889e-09	0.01357374	-0.003637019	4.210577e-10	1.313542e-09
	-1.102921e-09	-1.396889e-09	-0.1282761	0.02330883	7.691542e-09	4.394287e-08	0.01400165	-0.002358261
	0.01357374	-0.003637019	7.691542e-09	4.394287e-08	-0.1288003	0.02079659	2.433162e-09	9.093815e-09
	4.210577e-10	1.313542e-09	0.01400165	-0.002358261	2.433162e-09	9.093815e-09	-0.1281493	0.02378698
4.5e+08	-0.1271793	0.02536556	-1.173973e-09	-1.328184e-09	0.01306065	-0.004042677	5.273411e-10	1.303141e-09
	-1.173973e-09	-1.328184e-09	-0.1263115	0.02843969	8.311062e-09	4.464406e-08	0.01354644	-0.002765528
	0.01306065	-0.004042677	8.311062e-09	4.464406e-08	-0.1269502	0.02592241	2.783127e-09	9.161654e-09
	5.273411e-10	1.303141e-09	0.01354644	-0.002765528	2.783127e-09	9.161654e-09	-0.1261636	0.02892214
4.6e+08	-0.124956	0.03031413	-1.235768e-09	-1.250404e-09	0.01250976	-0.004402629	6.340669e-10	1.283403e-09
	-1.235768e-09	-1.250404e-09	-0.1239529	0.03338491	8.928436e-09	4.529661e-08	0.01305291	-0.003132219
	0.01250976	-0.004402629	8.928436e-09	4.529661e-08	-0.1247056	0.03087286	3.137185e-09	9.201869e-09
	6.340669e-10	1.283403e-09	0.01305291	-0.003132219	3.137185e-09	9.201869e-09	-0.1237836	0.03386986
4.7e+08	-0.1223537	0.03505849	-1.287039e-09	-1.16461e-09	0.01192497	-0.004713782	7.404121e-10	1.254211e-09
	-1.287039e-09	-1.16461e-09	-0.1212167	0.03811378	9.539205e-09	4.590028e-08	0.01252449	-0.003455254
	0.01192497	-0.004713782	9.539205e-09	4.590028e-08	-0.1220822	0.03561726	3.493242e-09	9.213436e-09
	7.404121e-10	1.254211e-09	0.01252449	-0.003455254	3.493242e-09	9.213436e-09	-0.121026	0.03859935
