!$
! Info: Touchstone file created by Circ.  Input file=Tx_4in_Rx_85ohms_TxVia_10mils_RxVia_20mils.circ
!$
# Hz S RI R 50
0	0.003338516	3.639109e-26	3.256548e-09	1.418655e-27	3.341984e-05	3.369127e-24	-3.566284e-09	4.70222e-25
	3.25654e-09	1.41884e-27	0.003338125	4.461298e-26	-2.964651e-09	4.119019e-25	3.284984e-05	4.687431e-24
	3.569362e-05	3.377008e-24	-2.962697e-09	4.116603e-25	0.003331278	3.171937e-26	1.251977e-08	1.081799e-29
	-3.563531e-09	4.698831e-25	3.430804e-05	4.824494e-24	1.251986e-08	1.06577e-29	0.003343772	4.259121e-26
1e+07	0.004529131	-0.003497512	4.813359e-09	8.380617e-09	9.635207e-05	0.0008232704	5.609588e-09	5.772248e-08
	4.81336e-09	8.380617e-09	0.00452615	-0.003497835	3.150371e-10	5.854675e-08	9.497269e-05	0.000823565
	9.639988e-05	0.0008232437	3.150373e-10	5.854676e-08	0.004531685	-0.003493901	-1.157687e-08	4.531869e-08
	5.609589e-09	5.772248e-08	9.500484e-05	0.0008235535	-1.157687e-08	4.531869e-08	0.00452874	-0.003494268
2e+07	0.005263441	-0.008098087	6.924664e-09	1.494484e-08	0.0002207501	0.001617223	1.773004e-08	7.963285e-08
	6.924664e-09	1.494484e-08	0.00525162	-0.008098151	3.563545e-09	8.229206e-08	0.00021533	0.001618292
	0.0002207418	0.001617198	3.563545e-09	8.229206e-08	0.005267609	-0.008087038	-8.246585e-09	4.697685e-08
	1.773004e-08	7.963285e-08	0.0002153269	0.001618271	-8.246586e-09	4.697685e-08	0.005256056	-0.008087079
3e+07	0.005232712	-0.01321587	9.276836e-09	2.113108e-08	0.0004096207	0.002390937	3.856719e-08	1.01867e-07
	9.276836e-09	2.113108e-08	0.005206073	-0.01321426	1.002597e-08	1.096598e-07	0.0003976552	0.002393531
	0.0004096212	0.002390934	1.002597e-08	1.096598e-07	0.005238128	-0.0131989	-5.098911e-09	5.550897e-08
	3.856719e-08	1.01867e-07	0.0003976501	0.002393528	-5.098911e-09	5.550897e-08	0.005212397	-0.01319724
4e+07	0.004588114	-0.01845643	1.195126e-08	2.685137e-08	0.000662481	0.003140933	6.095812e-08	1.204666e-07
	1.195126e-08	2.685137e-08	0.004540893	-0.0184509	1.454344e-08	1.360174e-07	0.0006415682	0.003146131
	0.0006624851	0.003140929	1.454344e-08	1.360174e-07	0.0045947	-0.01843561	-2.470604e-10	6.334311e-08
	6.095812e-08	1.204666e-07	0.0006415679	0.003146132	-2.470607e-10	6.334311e-08	0.004549088	-0.01843028
5e+07	0.003391343	-0.02369867	1.4924e-08	3.212574e-08	0.0009771338	0.003862272	8.527025e-08	1.363175e-07
	1.4924e-08	3.212574e-08	0.003318099	-0.02368622	1.731766e-08	1.624201e-07	0.0009450438	0.003871463
	0.0009771351	0.003862269	1.731765e-08	1.624201e-07	0.003397525	-0.02367489	6.257173e-09	6.928674e-08
	8.527025e-08	1.363175e-07	0.0009450433	0.003871463	6.257173e-09	6.928674e-08	0.003326621	-0.02366282
6e+07	0.001680217	-0.02886674	1.817284e-08	3.695669e-08	0.001350736	0.004550001	1.119261e-07	1.491629e-07
	1.817284e-08	3.695669e-08	0.001575923	-0.02884367	1.898306e-08	1.891736e-07	0.001305439	0.004564843
	0.001350736	0.004550003	1.898306e-08	1.891736e-07	0.001684826	-0.02883987	1.393416e-08	7.314813e-08
	1.119261e-07	1.491629e-07	0.001305436	0.004564843	1.393416e-08	7.314813e-08	0.001583907	-0.02881735
7e+07	-0.0005153241	-0.03390236	2.167043e-08	4.132816e-08	0.001779957	0.005199313	1.409025e-07	1.584923e-07
	2.167043e-08	4.132817e-08	-0.0006552058	-0.03386435	1.996506e-08	2.163028e-07	0.001719641	0.005221703
	0.001779958	0.005199318	1.996506e-08	2.163028e-07	-0.0005129804	-0.03387228	2.219351e-08	7.499985e-08
	1.409025e-07	1.584923e-07	0.001719636	0.005221706	2.219351e-08	7.499985e-08	-0.000648199	-0.03383525
8e+07	-0.003167795	-0.03875671	2.537963e-08	4.521511e-08	0.002261014	0.005805695	1.718872e-07	1.638193e-07
	2.537963e-08	4.521511e-08	-0.003347269	-0.03869891	2.053423e-08	2.437758e-07	0.002184093	0.005837746
	0.002261016	0.0058057	2.053422e-08	2.437758e-07	-0.003168375	-0.03872351	3.047402e-08	7.502034e-08
	1.718872e-07	1.638193e-07	0.002184089	0.00583775	3.047402e-08	7.502034e-08	-0.003341918	-0.03866743
9e+07	-0.006250005	-0.04338724	2.925354e-08	4.859074e-08	0.002789745	0.006365135	2.043993e-07	1.647535e-07
	2.925354e-08	4.859074e-08	-0.006472512	-0.0433043	2.08387e-08	2.715645e-07	0.002694877	0.00640916
	0.002789748	0.006365138	2.08387e-08	2.715645e-07	-0.006254385	-0.04335109	3.829049e-08	7.344598e-08
	2.043993e-07	1.647535e-07	0.002694874	0.006409164	3.829049e-08	7.344598e-08	-0.006469949	-0.04327076
1e+08	-0.009734616	-0.04775748	3.323711e-08	5.143132e-08	0.003362143	0.006875274	2.378609e-07	1.610197e-07
	3.323711e-08	5.143132e-08	-0.010003	-0.04764363	2.10037e-08	2.996331e-07	0.003248247	0.006933769
	0.003362143	0.006875274	2.10037e-08	2.996331e-07	-0.009743967	-0.04771856	4.523968e-08	7.052491e-08
	2.378609e-07	1.610197e-07	0.003248247	0.006933769	4.523968e-08	7.052491e-08	-0.01000472	-0.04760806
1.1e+08	-0.01359618	-0.05183551	3.724243e-08	5.374912e-08	0.003978114	0.007327771	2.717189e-07	1.548786e-07
	3.724243e-08	5.374912e-08	-0.01391333	-0.05168363	1.921625e-08	3.295355e-07	0.003843829	0.007402906
	0.003978114	0.00732777	1.921625e-08	3.295355e-07	-0.01361102	-0.05179164	5.058333e-08	7.376207e-08
	2.717189e-07	1.548786e-07	0.003843829	0.007402906	5.058333e-08	7.376207e-08	-0.01391979	-0.0516443
1.2e+08	-0.01779952	-0.05557791	4.122772e-08	5.554128e-08	0.004624887	0.007719177	3.057376e-07	1.441126e-07
	4.122772e-08	5.554128e-08	-0.01816629	-0.05538163	1.715726e-08	3.598897e-07	0.004469948	0.007814094
	0.004624887	0.007719176	1.715726e-08	3.598897e-07	-0.0178207	-0.05552854	5.589213e-08	7.630322e-08
	3.057376e-07	1.441126e-07	0.004469948	0.007814094	5.589213e-08	7.630322e-08	-0.01817806	-0.05533782
1.3e+08	-0.02231097	-0.05895984	4.513951e-08	5.680711e-08	0.005297495	0.008048955	3.394023e-07	1.286775e-07
	4.513951e-08	5.680711e-08	-0.02272768	-0.05871264	1.4905e-08	3.907454e-07	0.005121955	0.00816666
	0.005297495	0.008048955	1.4905e-08	3.907454e-07	-0.02233931	-0.05890415	6.109573e-08	7.814894e-08
	3.394023e-07	1.286775e-07	0.005121955	0.00816666	6.109573e-08	7.814894e-08	-0.02274529	-0.05866358
1.4e+08	-0.02709562	-0.06195828	4.892178e-08	5.75505e-08	0.005990392	0.00831571	3.721863e-07	1.085787e-07
	4.892178e-08	5.75505e-08	-0.02756194	-0.06165355	1.25383e-08	4.221401e-07	0.00579459	0.008459129
	0.005990392	0.00831571	1.25383e-08	4.221401e-07	-0.02713177	-0.0618952	6.612061e-08	7.930575e-08
	3.721863e-07	1.085787e-07	0.00579459	0.008459129	6.612061e-08	7.930575e-08	-0.02758586	-0.06159835
1.5e+08	-0.03211768	-0.06455328	5.251707e-08	5.77807e-08	0.006697864	0.008518358	4.035581e-07	8.387578e-08
	5.251707e-08	5.77807e-08	-0.03263263	-0.06418434	1.013592e-08	4.541008e-07	0.00648242	0.008690362
	0.006697864	0.008518358	1.013592e-08	4.541008e-07	-0.03216207	-0.06448157	7.08915e-08	7.97872e-08
	4.035581e-07	8.387578e-08	0.00648242	0.008690362	7.08915e-08	7.97872e-08	-0.03266315	-0.06412199
1.6e+08	-0.03734059	-0.06672801	5.586742e-08	5.751286e-08	0.007414117	0.008656263	4.32988e-07	5.468489e-08
	5.586742e-08	5.751286e-08	-0.03790245	-0.06628816	7.776591e-09	4.866458e-07	0.007179942	0.008859669
	0.007414117	0.008656263	7.776591e-09	4.866458e-07	-0.03739342	-0.06664633	7.533265e-08	7.961468e-08
	4.32988e-07	5.468489e-08	0.007179942	0.008859669	7.533265e-08	7.961468e-08	-0.03793973	-0.06621763
1.7e+08	-0.04272712	-0.06846881	5.891532e-08	5.676842e-08	0.008133337	0.008729282	4.599562e-07	2.117879e-08
	5.891532e-08	5.676842e-08	-0.04333345	-0.06795144	5.539045e-09	5.197847e-07	0.007881637	0.008966839
	0.008133337	0.008729282	5.539045e-09	5.197847e-07	-0.04278835	-0.0683758	7.936909e-08	7.881778e-08
	4.599562e-07	2.117879e-08	0.007881637	0.008966839	7.936909e-08	7.881778e-08	-0.04337748	-0.06787163
1.8e+08	-0.04823953	-0.06976518	6.160455e-08	5.557521e-08	0.008849747	0.008737774	4.839589e-07	-1.641393e-08
	6.160455e-08	5.557521e-08	-0.04888714	-0.06916383	3.501911e-09	5.535189e-07	0.008582031	0.009012141
	0.008849747	0.008737774	3.501911e-09	5.535189e-07	-0.04830894	-0.06965948	8.29279e-08	7.74344e-08
	4.839589e-07	-1.641393e-08	0.008582031	0.009012141	8.29279e-08	7.74344e-08	-0.04893777	-0.06907365
1.9e+08	-0.05383979	-0.0706098	6.388115e-08	5.396737e-08	0.00955766	0.008682601	5.045148e-07	-5.781086e-08
	6.388115e-08	5.396737e-08	-0.05452473	-0.06991825	1.743431e-09	5.878417e-07	0.009275737	0.008996315
	0.00955766	0.008682601	1.743431e-09	5.878417e-07	-0.05391695	-0.07049009	8.59393e-08	7.55106e-08
	5.045148e-07	-5.781086e-08	0.009275737	0.008996316	8.59393e-08	7.55106e-08	-0.05458165	-0.06981661
2e+08	-0.05948975	-0.07099851	6.569414e-08	5.198521e-08	0.01025152	0.008565114	5.211716e-07	-1.026784e-07
	6.569414e-08	5.198521e-08	-0.06020735	-0.07021087	3.410029e-10	6.227379e-07	0.009957498	0.008920562
	0.01025152	0.008565114	3.410029e-10	6.227379e-07	-0.05957407	-0.07086352	8.833772e-08	7.310026e-08
	5.211716e-07	-1.026784e-07	0.009957498	0.008920562	8.833772e-08	7.310026e-08	-0.06027012	-0.07009672
2.1e+08	-0.06515139	-0.07093029	6.699638e-08	4.967483e-08	0.01092597	0.008387135	5.335106e-07	-1.506352e-07
	6.699638e-08	4.967483e-08	-0.06589626	-0.07004107	-6.293942e-10	6.581841e-07	0.01062223	0.008786519
	0.01092597	0.008387135	-6.293942e-10	6.581841e-07	-0.06524211	-0.07077883	9.006278e-08	7.026464e-08
	5.335106e-07	-1.506352e-07	0.01062223	0.008786519	9.006278e-08	7.026464e-08	-0.06596431	-0.06991341
2.2e+08	-0.07078702	-0.07040721	6.774517e-08	4.708779e-08	0.01157586	0.008150936	5.411517e-07	-2.01256e-07
	6.774517e-08	4.708779e-08	-0.07155312	-0.06941141	-1.093897e-09	6.941487e-07	0.01126506	0.008596243
	0.01157586	0.008150936	-1.093897e-09	6.941487e-07	-0.07088325	-0.07023818	9.106011e-08	6.707181e-08
	5.411517e-07	-2.01256e-07	0.01126506	0.008596243	9.106011e-08	6.707181e-08	-0.07162574	-0.06926929
2.3e+08	-0.07635951	-0.06943436	6.790295e-08	4.42806e-08	0.01219629	0.007859209	5.437578e-07	-2.540756e-07
	6.790295e-08	4.42806e-08	-0.07714017	-0.06832756	-9.815367e-10	7.305915e-07	0.01188135	0.008352177
	0.01219629	0.007859209	-9.815367e-10	7.305915e-07	-0.07646022	-0.06924674	9.128212e-08	6.359598e-08
	5.437578e-07	-2.540756e-07	0.01188135	0.008352178	9.128212e-08	6.359598e-08	-0.07721655	-0.06817009
2.4e+08	-0.08183253	-0.06801981	6.743786e-08	4.131418e-08	0.01278269	0.007515034	5.410385e-07	-3.085938e-07
	6.743786e-08	4.131418e-08	-0.08262054	-0.0667982	-2.251028e-10	7.674644e-07	0.01246674	0.008057131
	0.01278269	0.007515034	-2.251028e-10	7.674644e-07	-0.08193659	-0.06781269	9.068869e-08	5.991679e-08
	5.410385e-07	-3.085938e-07	0.01246674	0.008057131	9.068869e-08	5.991679e-08	-0.08269975	-0.06662459
2.5e+08	-0.08717075	-0.06617445	6.632417e-08	3.825325e-08	0.01333078	0.007121852	5.32753e-07	-3.6428e-07
	6.632417e-08	3.825325e-08	-0.08795838	-0.06483494	1.237998e-09	8.047113e-07	0.01301715	0.007714243
	0.01333078	0.007121852	1.237998e-09	8.047113e-07	-0.08727693	-0.06594704	8.924775e-08	5.611848e-08
	5.32753e-07	-3.6428e-07	0.01301715	0.007714243	8.924775e-08	5.611848e-08	-0.0880394	-0.06464448
2.6e+08	-0.09234006	-0.06391194	6.454281e-08	3.51657e-08	0.01383663	0.006683426	5.187128e-07	-4.205782e-07
	6.454281e-08	3.51657e-08	-0.09311916	-0.06245218	3.464827e-09	8.422686e-07	0.01352883	0.007326951
	0.01383663	0.006683426	3.464827e-09	8.422686e-07	-0.09244701	-0.06366356	8.693572e-08	5.228909e-08
	5.187128e-07	-4.205782e-07	0.01352883	0.007326951	8.693572e-08	5.228909e-08	-0.09320087	-0.06224426
2.7e+08	-0.09730774	-0.06124855	6.208163e-08	3.212189e-08	0.0142967	0.006203804	4.987841e-07	-4.769122e-07
	6.208163e-08	3.212189e-08	-0.09806982	-0.059667	6.506043e-09	8.800655e-07	0.01399837	0.006898964
	0.0142967	0.006203804	6.506043e-09	8.800655e-07	-0.09741404	-0.06097866	8.373793e-08	4.851956e-08
	4.987841e-07	-4.769122e-07	0.01399837	0.006898964	8.373793e-08	4.851956e-08	-0.09815101	-0.05944112
2.8e+08	-0.1020427	-0.05820303	5.89357e-08	2.91939e-08	0.01470781	0.005687288	4.728892e-07	-5.326907e-07
	5.89357e-08	2.91939e-08	-0.1027789	-0.05649896	1.040507e-08	9.180249e-07	0.0144227	0.006434221
	0.01470781	0.005687288	1.040507e-08	9.180249e-07	-0.1021468	-0.05791123	7.96489e-08	4.490282e-08
	4.728892e-07	-5.326907e-07	0.0144227	0.006434221	7.96489e-08	4.490282e-08	-0.1028584	-0.05625476
2.9e+08	-0.1065155	-0.05479645	5.510753e-08	2.645484e-08	0.0150672	0.005138394	4.410077e-07	-5.873129e-07
	5.510753e-08	2.645484e-08	-0.107217	-0.05297003	1.519727e-08	9.560641e-07	0.01479912	0.005936868
	0.0150672	0.005138394	1.519727e-08	9.560641e-07	-0.106616	-0.05448246	7.467254e-08	4.153287e-08
	4.410077e-07	-5.873129e-07	0.01479912	0.005936868	7.467254e-08	4.153287e-08	-0.1072934	-0.05270725
3e+08	-0.1106988	-0.05105205	5.060715e-08	2.397801e-08	0.01537249	0.004561815	4.03177e-07	-6.401735e-07
	5.060715e-08	2.397801e-08	-0.1113565	-0.04910434	2.090925e-08	9.940953e-07	0.01512529	0.005411216
	0.01537249	0.004561815	2.090925e-08	9.940953e-07	-0.110794	-0.05071577	6.882225e-08	3.850384e-08
	4.03177e-07	-6.401735e-07	0.01512529	0.005411216	6.882225e-08	3.850384e-08	-0.1114284	-0.04882285
3.1e+08	-0.1145672	-0.04699505	4.54521e-08	2.183622e-08	0.01562174	0.003962388	3.59493e-07	-6.906681e-07
	4.54521e-08	2.183622e-08	-0.115172	-0.04492801	2.755825e-08	1.032027e-06	0.01539925	0.004861716
	0.01562174	0.003962388	2.755825e-08	1.032027e-06	-0.1146554	-0.04663652	6.212093e-08	3.590905e-08
	3.59493e-07	-6.906681e-07	0.01539925	0.004861716	6.212093e-08	3.590905e-08	-0.115238	-0.04462783
3.2e+08	-0.1180975	-0.04265251	3.966746e-08	2.010097e-08	0.01581343	0.003345059	3.101095e-07	-7.381986e-07
	3.966746e-08	2.010097e-08	-0.1186404	-0.04046901	3.515159e-08	1.069765e-06	0.01561944	0.004292922
	0.01581343	0.003345059	3.515159e-08	1.069765e-06	-0.1181772	-0.04227191	5.460088e-08	3.384007e-08
	3.101095e-07	-7.381986e-07	0.01561944	0.004292922	5.460088e-08	3.384007e-08	-0.1186991	-0.0401503
3.3e+08	-0.1212689	-0.03805308	3.328587e-08	1.884159e-08	0.01594643	0.002714845	2.552373e-07	-7.821782e-07
	3.328587e-08	1.884159e-08	-0.121741	-0.0357569	4.368625e-08	1.107212e-06	0.01578466	0.003709467
	0.01594643	0.002714845	4.368625e-08	1.107212e-06	-0.1213383	-0.03765079	4.630368e-08	3.238579e-08
	2.552373e-07	-7.821782e-07	0.01578466	0.003709467	4.630368e-08	3.238579e-08	-0.1217911	-0.03541996
3.4e+08	-0.1240629	-0.03322686	2.634705e-08	1.81246e-08	0.01602005	0.002076806	1.95144e-07	-8.220365e-07
	2.634705e-08	1.81246e-08	-0.1244557	-0.03082271	5.314868e-08	1.144272e-06	0.01589409	0.003116027
	0.01602005	0.002076806	5.314868e-08	1.144272e-06	-0.1241204	-0.03280342	3.727973e-08	3.163166e-08
	1.95144e-07	-8.220365e-07	0.01589409	0.003116027	3.727973e-08	3.163166e-08	-0.1244956	-0.03046798
3.5e+08	-0.1264635	-0.02820521	1.889764e-08	1.801299e-08	0.01603403	0.001436008	1.301517e-07	-8.572246e-07
	1.889764e-08	1.801299e-08	-0.1267687	-0.02569864	6.351458e-08	1.180849e-06	0.01594729	0.002517299
	0.01603403	0.001436008	6.351458e-08	1.180849e-06	-0.1265075	-0.02776129	2.758836e-08	3.165851e-08
	1.301517e-07	-8.572246e-07	0.01594729	0.002517299	2.758836e-08	3.165851e-08	-0.1267971	-0.02532671
3.6e+08	-0.1284573	-0.0230205	1.099085e-08	1.856548e-08	0.01598847	0.0007974991	6.06356e-08	-8.8722e-07
	1.099085e-08	1.856548e-08	-0.1286671	-0.02041794	7.474892e-08	1.216847e-06	0.01594419	0.00191797
	0.01598847	0.0007974991	7.474892e-08	1.216847e-06	-0.1284863	-0.02255697	1.729701e-08	3.2542e-08
	6.06356e-08	-8.8722e-07	0.01594419	0.00191797	1.729701e-08	3.2542e-08	-0.1286828	-0.02002954
3.7e+08	-0.1300336	-0.01770596	2.686029e-09	1.98359e-08	0.01588393	0.0001662731	-1.297827e-08	-9.115309e-07
	2.686029e-09	1.98359e-08	-0.1301407	-0.01501466	8.680616e-08	1.252175e-06	0.0158851	0.001322692
	0.01588393	0.0001662731	8.680616e-08	1.252175e-06	-0.130046	-0.01722383	6.480832e-09	3.435171e-08
	-1.297827e-08	-9.115309e-07	0.0158851	0.001322692	6.480832e-09	3.435171e-08	-0.1301422	-0.01461066
3.8e+08	-0.1311843	-0.01229544	-5.951785e-09	2.187253e-08	0.01572132	-0.0004527538	-9.021562e-08	-9.297009e-07
	-5.951785e-09	2.187253e-08	-0.1311819	-0.009523435	9.963051e-08	1.286745e-06	0.01577066	0.0007360586
	0.01572132	-0.0004527538	9.963051e-08	1.286745e-06	-0.1311785	-0.01179591	-4.777855e-09	3.715046e-08
	-9.021562e-08	-9.297009e-07	0.01577066	0.0007360586	-4.777855e-09	3.715046e-08	-0.1311681	-0.009104835
3.9e+08	-0.1319038	-0.006823252	-1.485243e-08	2.471758e-08	0.01550195	-0.001054772	-1.705568e-07	-9.413136e-07
	-1.485243e-08	2.471758e-08	-0.131786	-0.003979284	1.131564e-07	1.320476e-06	0.01560189	0.0001625796
	0.01550195	-0.001054772	1.131564e-07	1.320476e-06	-0.1318787	-0.006307636	-1.639019e-08	4.099362e-08
	-1.705568e-07	-9.413136e-07	0.01560189	0.0001625796	-1.639019e-08	4.099362e-08	-0.1317556	-0.003547231
4e+08	-0.1321895	-0.00132392	-2.39412e-08	2.840668e-08	0.0152275	-0.001635104	-2.534399e-07	-9.45996e-07
	-2.39412e-08	2.840668e-08	-0.131951	0.001582586	1.273089e-07	1.353292e-06	0.01538014	-0.0003933405
	0.0152275	-0.001635104	1.273089e-07	1.353292e-06	-0.1321437	-0.0007937007	-2.826148e-08	4.592843e-08
	-2.534399e-07	-9.45996e-07	0.01538014	-0.0003933405	-2.826148e-08	4.592843e-08	-0.1319029	0.00202683
4.1e+08	-0.1320413	0.004168	-3.313949e-08	3.296843e-08	0.01490002	-0.002189228	-3.382646e-07	-9.43423e-07
	-3.313949e-08	3.296843e-08	-0.1316775	0.007127017	1.420049e-07	1.385125e-06	0.01510708	-0.0009274251
	0.01490002	-0.002189228	1.420049e-07	1.385125e-06	-0.1319737	0.004711206	-4.02919e-08	5.199351e-08
	-3.382646e-07	-9.43423e-07	0.01510708	-0.0009274251	-4.02919e-08	5.199351e-08	-0.131611	0.007582068
4.2e+08	-0.1314619	0.009618113	-4.236545e-08	3.842398e-08	0.01452189	-0.002712807	-4.243955e-07	-9.333206e-07
	-4.236545e-08	3.842398e-08	-0.1309693	0.01261908	1.571535e-07	1.415915e-06	0.01478472	-0.001435547
	0.01452189	-0.002712807	1.571535e-07	1.415915e-06	-0.1313715	0.01017256	-5.237733e-08	5.921836e-08
	-4.243955e-07	-9.333206e-07	0.01478472	-0.001435547	-5.237733e-08	5.921836e-08	-0.1308834	0.01308345
4.3e+08	-0.1304566	0.0149924	-5.153475e-08	4.478678e-08	0.01409583	-0.003201704	-5.111668e-07	-9.154694e-07
	-5.153475e-08	4.478678e-08	-0.1298325	0.01802429	1.72657e-07	1.445612e-06	0.01441537	-0.001913748
	0.01409583	-0.003201704	1.72657e-07	1.445612e-06	-0.1303426	0.01555624	-6.441017e-08	6.762289e-08
	-5.111668e-07	-9.154694e-07	0.01441537	-0.001913748	-6.441017e-08	6.762289e-08	-0.1297264	0.01849639
4.4e+08	-0.1290333	0.0202574	-6.056124e-08	5.206231e-08	0.01362488	-0.00365201	-5.978863e-07	-8.897074e-07
	-6.056124e-08	5.206231e-08	-0.1282761	0.02330883	1.884122e-07	1.474175e-06	0.01400165	-0.002358261
	0.01362488	-0.00365201	1.884122e-07	1.474175e-06	-0.128895	0.02082866	-7.628019e-08	7.721714e-08
	-5.978863e-07	-8.897074e-07	0.01400165	-0.002358261	-7.628019e-08	7.721714e-08	-0.1281493	0.02378698
4.5e+08	-0.1272026	0.02538042	-6.935779e-08	6.024788e-08	0.01311238	-0.004060066	-6.838403e-07	-8.55933e-07
	-6.935779e-08	6.024788e-08	-0.1263115	0.02843969	2.043113e-07	1.501575e-06	0.01354644	-0.002765528
	0.01311238	-0.004060066	2.043113e-07	1.501575e-06	-0.1270395	0.02595705	-8.787545e-08	8.800098e-08
	-6.838403e-07	-8.55933e-07	0.01354644	-0.002765528	-8.787545e-08	8.800098e-08	-0.1261636	0.02892214
4.6e+08	-0.1249774	0.03032969	-7.783699e-08	6.933255e-08	0.01256195	-0.00442248	-7.682986e-07	-8.141076e-07
	-7.783699e-08	6.933255e-08	-0.1239529	0.03338491	2.202435e-07	1.527794e-06	0.01305291	-0.003132219
	0.01256195	-0.00442248	2.202435e-07	1.527794e-06	-0.1247891	0.03090957	-9.908319e-08	9.996394e-08
	-7.682986e-07	-8.141076e-07	0.01305291	-0.003132219	-9.908319e-08	9.996394e-08	-0.1237836	0.03386986
4.7e+08	-0.1223732	0.03507457	-8.591197e-08	7.929712e-08	0.01197749	-0.00473615	-8.505194e-07	-7.642568e-07
	-8.591197e-08	7.929712e-08	-0.1212167	0.03811378	2.360955e-07	1.552823e-06	0.01252449	-0.003455254
	0.01197749	-0.00473615	2.360955e-07	1.552823e-06	-0.1221597	0.03565552	-1.097908e-07	1.130851e-07
	-8.505194e-07	-7.642568e-07	0.01252449	-0.003455254	-1.097908e-07	1.130851e-07	-0.121026	0.03859935
4.8e+08	-0.1194078	0.03958576	-9.349715e-08	9.011415e-08	0.01136312	-0.004998285	-9.297554e-07	-7.06473e-07
	-9.349715e-08	9.011415e-08	-0.1181219	0.04259695	2.517534e-07	1.576668e-06	0.01196483	-0.003731817
