!$
! Info: Touchstone file created by Circ.  Input file=Tx_4in_Rx_100ohms_TxVia_10mils_RxVia_20mils.circ
!$
# Hz S RI R 50
0	0.004267496	3.90556e-26	-2.181235e-05	-3.007971e-26	3.534522e-05	5.31955e-24	-2.182565e-05	1.586927e-24
	-2.181236e-05	-2.967195e-26	0.004270362	4.450835e-26	-2.181221e-05	-2.022796e-26	3.277378e-05	6.020526e-24
	3.53935e-05	5.322659e-24	-2.181221e-05	-2.065152e-26	0.00428246	3.917451e-26	-2.181389e-05	1.882382e-25
	-2.182564e-05	1.586521e-24	3.423163e-05	6.196566e-24	-2.181388e-05	1.877191e-25	0.004275999	4.249186e-26
1e+07	0.005934564	0.003026296	-8.461532e-07	-4.317009e-06	8.177145e-05	0.0008157544	-5.652177e-07	-5.932358e-06
	-8.461531e-07	-4.317009e-06	0.00612055	0.003051609	-5.401104e-07	-1.271408e-06	0.0002235591	0.0008411902
	8.177597e-05	0.0008157516	-5.401104e-07	-1.271408e-06	0.005718097	0.003134859	-1.322957e-06	-1.713872e-06
	-5.652177e-07	-5.932358e-06	0.0002235914	0.0008411788	-1.322957e-06	-1.713872e-06	0.006073808	0.003056369
2e+07	0.007551258	0.004782298	-2.013999e-06	-1.435654e-07	0.000182868	0.001641037	-5.145839e-07	-2.213084e-06
	-2.013999e-06	-1.435654e-07	0.007714343	0.004757325	-6.905964e-06	-9.789634e-06	0.0002632574	0.001739979
	0.0001828673	0.001641034	-6.905964e-06	-9.789634e-06	0.007487946	0.005046178	-8.696648e-06	-9.819553e-06
	-5.145839e-07	-2.213084e-06	0.0002632546	0.001739958	-8.696649e-06	-9.819552e-06	0.007682544	0.004788752
3e+07	0.008926958	0.005916392	-3.199293e-06	-1.066559e-06	0.0003525261	0.002439425	-5.156493e-07	-1.315333e-06
	-3.199293e-06	-1.066559e-06	0.009069361	0.005876367	-1.258499e-05	-1.136176e-05	0.0003840398	0.002561161
	0.0003525261	0.002439424	-1.258499e-05	-1.136176e-05	0.008984561	0.006222075	-1.439119e-05	-1.121681e-05
	-5.156493e-07	-1.315333e-06	0.0003840348	0.002561158	-1.439119e-05	-1.121681e-05	0.00905146	0.00592013
4e+07	0.01020346	0.006777191	-4.184494e-06	-1.260069e-06	0.0005881863	0.003215233	-5.116881e-07	-8.494229e-07
	-4.184494e-06	-1.260069e-06	0.01032524	0.006730316	-1.733258e-05	-1.10337e-05	0.0005875397	0.003346963
	0.000588187	0.003215232	-1.733258e-05	-1.10337e-05	0.01036421	0.007089371	-1.914179e-05	-1.073873e-05
	-5.116881e-07	-8.494229e-07	0.0005875392	0.003346964	-1.914179e-05	-1.073873e-05	0.01032121	0.006780405
5e+07	0.01142819	0.007446375	-5.018757e-06	-1.096511e-06	0.0008870147	0.003964646	-4.995804e-07	-5.452935e-07
	-5.018757e-06	-1.096511e-06	0.01152874	0.007397145	-2.137769e-05	-9.595458e-06	0.0009275744	0.004085156
	0.0008870157	0.003964646	-2.137769e-05	-9.595458e-06	0.01167884	0.007743145	-2.318031e-05	-9.157304e-06
	-4.995804e-07	-5.452935e-07	0.0009275739	0.004085156	-2.318031e-05	-9.157304e-06	0.0115373	0.007450311
6e+07	0.01262125	0.007961407	-5.721794e-06	-7.037635e-07	0.001246124	0.004683285	-4.787605e-07	-3.206824e-07
	-5.721794e-06	-7.037635e-07	0.01269988	0.007913545	-2.481633e-05	-7.352074e-06	0.00131873	0.004785777
	0.001246125	0.004683285	-2.481633e-05	-7.352074e-06	0.01295028	0.008226302	-2.660421e-05	-6.771913e-06
	-4.787605e-07	-3.206824e-07	0.001318727	0.004785777	-2.660421e-05	-6.771913e-06	0.01272045	0.007967862
7e+07	0.01379171	0.008343572	-6.299657e-06	-1.380781e-07	0.001670144	0.005364356	-4.48707e-07	-1.424465e-07
	-6.299657e-06	-1.380781e-07	0.01384778	0.008300472	-2.767795e-05	-4.441062e-06	0.001758705	0.005446056
	0.001670145	0.005364356	-2.767795e-05	-4.441061e-06	0.01418816	0.008562809	-2.944894e-05	-3.722942e-06
	-4.487071e-07	-1.424465e-07	0.0017587	0.005446059	-2.944894e-05	-3.722942e-06	0.01388019	0.0083539
8e+07	0.01494343	0.008606901	-6.749503e-06	5.77093e-07	0.002147848	0.006005401	-4.086056e-07	2.860574e-09
	-6.749503e-06	5.77093e-07	0.01497645	0.008571816	-2.995302e-05	-9.114289e-07	0.002244465	0.00606259
	0.00214785	0.006005401	-2.995302e-05	-9.114289e-07	0.01539611	0.008767748	-3.169068e-05	-6.410223e-08
	-4.086056e-07	2.860593e-09	0.00224446	0.006062594	-3.169068e-05	-6.410222e-08	0.01502016	0.008622016
9e+07	0.01607773	0.008762252	-7.057148e-06	1.44595e-06	0.002675197	0.006602923	-3.513477e-07	1.242958e-07
	-7.057148e-06	1.44595e-06	0.01608745	0.008738533	-3.157363e-05	3.295893e-06	0.00277224	0.006631459
	0.002675198	0.006602922	-3.157363e-05	3.295893e-06	0.01657414	0.008850993	-3.326161e-05	4.294771e-06
	-3.513476e-07	1.242958e-07	0.002772237	0.006631463	-3.326161e-05	4.294771e-06	0.01614129	0.008783111
1e+08	0.01719779	0.008825041	-7.135704e-06	2.604243e-06	0.003249536	0.007155622	-2.784601e-07	2.323258e-07
	-7.135704e-06	2.604243e-06	0.01718459	0.008817022	-3.213916e-05	8.855098e-06	0.003336175	0.007145576
	0.003249536	0.007155621	-3.213916e-05	8.855098e-06	0.01771812	0.008815618	-3.376655e-05	1.003289e-05
	-2.784601e-07	2.323258e-07	0.003336176	0.007145576	-3.376655e-05	1.003289e-05	0.01724647	0.008853034
1.1e+08	0.01832756	0.008760076	-6.537615e-06	3.445779e-06	0.00387417	0.007650625	-2.25587e-07	3.127408e-07
	-6.537615e-06	3.445779e-06	0.01829449	0.008769633	-2.948987e-05	1.293138e-05	0.003919707	0.007616901
	0.00387417	0.007650625	-2.948987e-05	1.293138e-05	0.01881253	0.00867944	-3.09774e-05	1.425161e-05
	-2.25587e-07	3.127408e-07	0.003919707	0.007616901	-3.09774e-05	1.425161e-05	0.0183608	0.008798918
1.2e+08	0.0194172	0.008585888	-6.419194e-06	3.29719e-06	0.004531611	0.008084963	-2.292287e-07	3.099437e-07
	-6.419194e-06	3.29719e-06	0.01936385	0.008613592	-2.738493e-05	1.5418e-05	0.004539115	0.008043232
	0.004531611	0.008084963	-2.738493e-05	1.5418e-05	0.01987413	0.008459114	-2.938639e-05	1.564474e-05
	-2.292287e-07	3.099437e-07	0.004539115	0.008043232	-2.938639e-05	1.564474e-05	0.01943469	0.00863702
1.3e+08	0.02046833	0.008316779	-6.307766e-06	3.217622e-06	0.005218085	0.008459086	-2.543212e-07	2.938239e-07
	-6.307766e-06	3.217622e-06	0.02039469	0.008364342	-2.696638e-05	1.482139e-05	0.005188281	0.008417275
	0.005218085	0.008459086	-2.696638e-05	1.482139e-05	0.02089893	0.008153471	-2.894874e-05	1.504286e-05
	-2.543212e-07	2.938239e-07	0.005188281	0.008417275	-2.894874e-05	1.504286e-05	0.02046975	0.008381847
1.4e+08	0.0214788	0.007959014	-6.185414e-06	3.186331e-06	0.00592874	0.008771514	-2.767116e-07	2.837337e-07
	-6.185414e-06	3.186331e-06	0.02138505	0.008028434	-2.649923e-05	1.447951e-05	0.005862166	0.008735805
	0.00592874	0.008771514	-2.649923e-05	1.447951e-05	0.0218838	0.007765499	-2.846452e-05	1.470081e-05
	-2.767116e-07	2.837337e-07	0.005862166	0.008735805	-2.846452e-05	1.470081e-05	0.02146389	0.008039838
1.5e+08	0.02244549	0.00751763	-6.056604e-06	3.185683e-06	0.006658441	0.009020829	-2.968298e-07	2.784702e-07
	-6.056604e-06	3.185683e-06	0.02233198	0.007611059	-2.600502e-05	1.430287e-05	0.006555737	0.008996567
	0.00665844	0.009020829	-2.600502e-05	1.430287e-05	0.02282534	0.007298706	-2.795424e-05	1.452927e-05
	-2.968298e-07	2.784702e-07	0.006555737	0.008996567	-2.795424e-05	1.452927e-05	0.02241416	0.007616174
1.6e+08	0.02336483	0.006997282	-5.923501e-06	3.205634e-06	0.007401877	0.009205912	-3.149342e-07	2.77137e-07
	-5.923501e-06	3.205634e-06	0.02323213	0.007116974	-2.549326e-05	1.424151e-05	0.007263891	0.009197945
	0.007401877	0.009205912	-2.549326e-05	1.424151e-05	0.02371988	0.006756848	-2.742747e-05	1.4477e-05
	-3.149342e-07	2.77137e-07	0.007263891	0.009197945	-2.742747e-05	1.4477e-05	0.0233172	0.007115614
1.7e+08	0.02423304	0.006402568	-5.787319e-06	3.239807e-06	0.008153625	0.009326026	-3.312095e-07	2.790435e-07
	-5.787319e-06	3.239807e-06	0.02408197	0.006550826	-2.496908e-05	1.426337e-05	0.007981462	0.009338851
	0.008153625	0.009326026	-2.496908e-05	1.426337e-05	0.02456365	0.00614391	-2.688931e-05	1.451115e-05
	-3.312095e-07	2.790435e-07	0.007981462	0.009338851	-2.688931e-05	1.451115e-05	0.02416947	0.006542816
1.8e+08	0.02504631	0.005738169	-5.648798e-06	3.283883e-06	0.008908196	0.009380851	-3.457977e-07	2.836502e-07
	-5.648798e-06	3.283883e-06	0.02487794	0.005917297	-2.443542e-05	1.434658e-05	0.008703247	0.009418688
	0.008908196	0.009380851	-2.443542e-05	1.434658e-05	0.02535286	0.005464131	-2.634263e-05	1.460926e-05
	-3.457977e-07	2.836502e-07	0.008703247	0.009418688	-2.634263e-05	1.460926e-05	0.0249674	0.005902484
1.9e+08	0.02580091	0.005008916	-5.508498e-06	3.335119e-06	0.009660077	0.009370509	-3.588106e-07	2.905409e-07
	-5.508498e-06	3.335119e-06	0.02561658	0.005221187	-2.389407e-05	1.447543e-05	0.009424033	0.009437326
	0.009660077	0.009370509	-2.389407e-05	1.447543e-05	0.02608379	0.004721995	-2.578915e-05	1.475525e-05
	-3.588106e-07	2.905409e-07	0.009424033	0.009437326	-2.578915e-05	1.475525e-05	0.02570751	0.005199431
2e+08	0.02649326	0.004219813	-5.366715e-06	3.391214e-06	0.01040377	0.009295566	-3.703491e-07	2.993628e-07
	-5.366715e-06	3.391214e-06	0.02629457	0.00446742	-2.334621e-05	1.463826e-05	0.01013863	0.009395092
	0.01040377	0.009295566	-2.334621e-05	1.463826e-05	0.02675292	0.003922235	-2.522994e-05	1.493719e-05
	-3.703491e-07	2.993628e-07	0.01013863	0.009395092	-2.522994e-05	1.493719e-05	0.02638649	0.004438612
2.1e+08	0.02711999	0.003376043	-5.223659e-06	3.450187e-06	0.01113386	0.00915704	-3.805081e-07	3.098273e-07
	-5.223659e-06	3.450187e-06	0.02690883	0.00366107	-2.279268e-05	1.482617e-05	0.0108419	0.009292756
	0.01113386	0.00915704	-2.279268e-05	1.482617e-05	0.02735691	0.003069807	-2.466576e-05	1.514594e-05
	-3.805081e-07	3.098273e-07	0.0108419	0.009292756	-2.466576e-05	1.514594e-05	0.02700124	0.003625124
2.2e+08	0.02767804	0.002482972	-5.079555e-06	3.51073e-06	0.01184499	0.008956398	-3.893674e-07	3.217081e-07
	-5.079555e-06	3.51073e-06	0.02745653	0.002807353	-2.22341e-05	1.503222e-05	0.01152881	0.009131522
	0.01184499	0.008956398	-2.22341e-05	1.503222e-05	0.0278927	0.002169895	-2.409713e-05	1.537443e-05
	-3.893674e-07	3.217081e-07	0.01152881	0.009131522	-2.409713e-05	1.537443e-05	0.02754892	0.002764216
2.3e+08	0.02816462	0.00154614	-4.934592e-06	3.571824e-06	0.01253198	0.008695542	-3.969969e-07	3.348215e-07
	-4.934592e-06	3.571824e-06	0.02793514	0.001911627	-2.167089e-05	1.525094e-05	0.01219444	0.008913017
	0.01253198	0.008695542	-2.167089e-05	1.525094e-05	0.02835755	0.001227883	-2.352438e-05	1.561706e-05
	-3.969969e-07	3.348215e-07	0.01219444	0.008913017	-2.352438e-05	1.561706e-05	0.02802698	0.001861284
2.4e+08	0.0285773	0.0005712234	-4.788949e-06	3.632663e-06	0.01318982	0.008376804	-4.034605e-07	3.490172e-07
	-4.788949e-06	3.632663e-06	0.02834244	0.0009793541	-2.110352e-05	1.547788e-05	0.01283404	0.008639278
	0.01318982	0.008376804	-2.110352e-05	1.547788e-05	0.02874904	0.0002493169	-2.294788e-05	1.58693e-05
	-4.034605e-07	3.490172e-07	0.01283404	0.008639278	-2.294788e-05	1.58693e-05	0.0284332	0.0009218323
2.5e+08	0.02891401	-0.000435959	-4.642783e-06	3.692613e-06	0.01381369	0.008002927	-4.088124e-07	3.641742e-07
	-4.642783e-06	3.692613e-06	0.02867656	1.611283e-05	-2.053233e-05	1.570946e-05	0.01344303	0.008312733
	0.01381369	0.008002927	-2.053233e-05	1.570946e-05	0.02906512	-0.0007600997	-2.236788e-05	1.612749e-05
	-4.088124e-07	3.641742e-07	0.01344303	0.008312733	-2.236788e-05	1.612749e-05	0.02876571	-4.851611e-05
2.6e+08	0.02917305	-0.001469499	-4.496243e-06	3.751165e-06	0.01439905	0.007577047	-4.131e-07	3.801941e-07
	-4.496243e-06	3.751165e-06	0.02893598	-0.0009724442	-1.995769e-05	1.594272e-05	0.01401708	0.007936185
	0.01439905	0.007577047	-1.995769e-05	1.594272e-05	0.02930411	-0.00179455	-2.178465e-05	1.638862e-05
	-4.131e-07	3.801941e-07	0.01401709	0.007936185	-2.178465e-05	1.638862e-05	0.029023	-0.001044066
2.7e+08	0.02935313	-0.002523396	-4.349459e-06	3.807912e-06	0.01494162	0.007102674	-4.163615e-07	3.969985e-07
	-4.349459e-06	3.807912e-06	0.02911957	-0.001980607	-1.937988e-05	1.61752e-05	0.01455211	0.007512792
	0.01494162	0.007102674	-1.937988e-05	1.61752e-05	0.02946475	-0.002848123	-2.119838e-05	1.665019e-05
	-4.163615e-07	3.969985e-07	0.01455211	0.007512792	-2.119838e-05	1.665019e-05	0.02920391	-0.00205906
2.8e+08	0.02945335	-0.003591597	-4.202566e-06	3.862536e-06	0.01543743	0.006583662	-4.186278e-07	4.14524e-07
	-4.202566e-06	3.862536e-06	0.02922654	-0.003002621	-1.879926e-05	1.640486e-05	0.01504429	0.007046045
	0.01543743	0.006583662	-1.879926e-05	1.640486e-05	0.02954615	-0.003914839	-2.060933e-05	1.691012e-05
	-4.186278e-07	4.14524e-07	0.01504429	0.007046045	-2.060933e-05	1.691012e-05	0.02930771	-0.003087692
2.9e+08	0.02947324	-0.004668024	-4.055684e-06	3.914779e-06	0.01588286	0.006024186	-4.199218e-07	4.327206e-07
	-4.055684e-06	3.914779e-06	0.02925651	-0.004032724	-1.821615e-05	1.662998e-05	0.01549013	0.006539741
	0.01588286	0.006024186	-1.821615e-05	1.662998e-05	0.02954787	-0.004988694	-2.001772e-05	1.716668e-05
	-4.199218e-07	4.327206e-07	0.01549013	0.006539741	-2.001772e-05	1.716668e-05	0.029334	-0.004124157
3e+08	0.02941274	-0.005746604	-3.908923e-06	3.96444e-06	0.01627465	0.005428714	-4.202575e-07	4.515484e-07
	-3.908923e-06	3.96444e-06	0.02920948	-0.005065168	-1.763084e-05	1.684911e-05	0.01588647	0.005997955
	0.01627465	0.005428714	-1.763084e-05	1.684911e-05	0.02946988	-0.006063676	-1.942375e-05	1.741838e-05
	-4.202575e-07	4.515484e-07	0.01588647	0.005997955	-1.942375e-05	1.741838e-05	0.02928282	-0.005162659
3.1e+08	0.02927221	-0.006821281	-3.762394e-06	4.011364e-06	0.01660993	0.004801969	-4.196414e-07	4.709751e-07
	-3.762394e-06	4.011364e-06	0.02908584	-0.006094235	-1.704369e-05	1.706104e-05	0.01623049	0.005425017
	0.01660993	0.004801969	-1.704369e-05	1.706104e-05	0.02931256	-0.007133793	-1.882767e-05	1.766398e-05
	-4.196414e-07	4.709751e-07	0.01623049	0.005425017	-1.882767e-05	1.766398e-05	0.02915457	-0.006197437
3.2e+08	0.02905243	-0.007886069	-3.616194e-06	4.055431e-06	0.01688624	0.004148904	-4.180717e-07	4.909746e-07
	-3.616194e-06	4.055431e-06	0.02888637	-0.007114278	-1.645502e-05	1.726472e-05	0.01651976	0.004825474
	0.01688624	0.004148904	-1.645502e-05	1.726472e-05	0.02907671	-0.008193119	-1.82297e-05	1.790242e-05
	-4.180717e-07	4.909746e-07	0.01651976	0.004825474	-1.82297e-05	1.790242e-05	0.02895008	-0.007222799
3.3e+08	0.0287546	-0.008935069	-3.47041e-06	4.096546e-06	0.01710155	0.003474659	-4.155388e-07	5.115251e-07
	-3.47041e-06	4.096546e-06	0.02861223	-0.008119738	-1.586512e-05	1.745925e-05	0.01675222	0.004204064
	0.01710155	0.003474659	-1.586512e-05	1.745925e-05	0.02876357	-0.009235811	-1.763004e-05	1.813277e-05
	-4.155388e-07	5.115251e-07	0.01675222	0.004204064	-1.763004e-05	1.813277e-05	0.02867053	-0.008233149
3.4e+08	0.02838035	-0.009962488	-3.325127e-06	4.134647e-06	0.01725426	0.002784532	-4.120254e-07	5.326064e-07
	-3.325127e-06	4.134647e-06	0.02826497	-0.009105163	-1.527435e-05	1.76439e-05	0.01692623	0.003565678
	0.01725426	0.002784532	-1.527435e-05	1.76439e-05	0.02837477	-0.01025614	-1.702893e-05	1.835426e-05
	-4.120254e-07	5.326064e-07	0.01692623	0.003565678	-1.702893e-05	1.835426e-05	0.02831751	-0.009223
3.5e+08	0.02793169	-0.01096269	-3.180422e-06	4.169685e-06	0.01734323	0.002083935	-4.075075e-07	5.541996e-07
	-3.180422e-06	4.169685e-06	0.0278465	-0.01006525	-1.468301e-05	1.781801e-05	0.01704058	0.002915331
	0.01734323	0.002083935	-1.468301e-05	1.781801e-05	0.02791237	-0.01124851	-1.642657e-05	1.856622e-05
	-4.075075e-07	5.541996e-07	0.01704058	0.002915331	-1.642657e-05	1.856622e-05	0.02789298	-0.01018702
3.6e+08	0.02741103	-0.0119302	-3.036367e-06	4.20162e-06	0.01736779	0.00137836	-4.019546e-07	5.762837e-07
	-3.036367e-06	4.20162e-06	0.02735909	-0.01099486	-1.409144e-05	1.798105e-05	0.01709445	0.002258121
	0.01736779	0.00137836	-1.409144e-05	1.798105e-05	0.02737879	-0.01220753	-1.582321e-05	1.876806e-05
	-4.019546e-07	5.762837e-07	0.01709445	0.002258121	-1.582321e-05	1.876806e-05	0.02739925	-0.01112003
3.7e+08	0.02682118	-0.01285976	-2.893024e-06	4.230444e-06	0.01732773	0.0006733357	-3.953293e-07	5.988386e-07
	-2.893024e-06	4.230444e-06	0.02680539	-0.01188904	-1.349998e-05	1.813256e-05	0.01708748	0.001599196
	0.01732773	0.0006733357	-1.349998e-05	1.813256e-05	0.02677686	-0.01312798	-1.521907e-05	1.895929e-05
	-3.953293e-07	5.988386e-07	0.01708748	0.001599196	-1.521907e-05	1.895929e-05	0.026839	-0.01201706
3.8e+08	0.0261653	-0.01374633	-2.750452e-06	4.256149e-06	0.01722331	-2.560702e-05	-3.875891e-07	6.218397e-07
	-2.750452e-06	4.256149e-06	0.02618835	-0.01274307	-1.290894e-05	1.827213e-05	0.01701974	0.000943718
	0.01722331	-2.560701e-05	-1.290894e-05	1.827213e-05	0.02610977	-0.01400488	-1.461437e-05	1.913946e-05
	-3.875891e-07	6.218397e-07	0.01701974	0.000943718	-1.461437e-05	1.913946e-05	0.02621526	-0.01287336
3.9e+08	0.02544693	-0.01458513	-2.6087e-06	4.278736e-06	0.01705526	-0.0007129778	-3.786867e-07	6.452585e-07
	-2.6087e-06	4.278736e-06	0.02551126	-0.01355243	-1.231866e-05	1.839944e-05	0.01689173	0.0002968258
	0.01705526	-0.0007129778	-1.231866e-05	1.839944e-05	0.02538106	-0.0148335	-1.400934e-05	1.930818e-05
	-3.786867e-07	6.452585e-07	0.01689173	0.0002968258	-1.400934e-05	1.930818e-05	0.02553137	-0.01368441
4e+08	0.02466991	-0.01537164	-2.467816e-06	4.298205e-06	0.01682476	-0.001383366	-3.685708e-07	6.690618e-07
	-2.467816e-06	4.298205e-06	0.02477775	-0.0143129	-1.172946e-05	1.851419e-05	0.01670438	-0.0003364009
	0.01682476	-0.001383365	-1.172946e-05	1.851419e-05	0.02459461	-0.01560941	-1.34042e-05	1.94651e-05
	-3.685708e-07	6.690618e-07	0.01670438	-0.0003364009	-1.34042e-05	1.94651e-05	0.02479097	-0.01444598
4.1e+08	0.02383845	-0.01610168	-2.327841e-06	4.314567e-06	0.01653347	-0.002031477	-3.57187e-07	6.9321e-07
	-2.327841e-06	4.314567e-06	0.02399168	-0.01502053	-1.114166e-05	1.861617e-05	0.01645904	-0.0009509778
	0.01653347	-0.002031477	-1.114166e-05	1.861617e-05	0.0237546	-0.01632847	-1.279918e-05	1.960993e-05
	-3.57187e-07	6.9321e-07	0.01645904	-0.0009509778	-1.279918e-05	1.960993e-05	0.02399803	-0.01515409
4.2e+08	0.02295697	-0.01677137	-2.188816e-06	4.327832e-06	0.01618348	-0.002652174	-3.444788e-07	7.176581e-07
	-2.188816e-06	4.327832e-06	0.02315721	-0.01567165	-1.05556e-05	1.870517e-05	0.01615748	-0.00154205
	0.01618348	-0.002652174	-1.05556e-05	1.870517e-05	0.02286551	-0.01698685	-1.219452e-05	1.974241e-05
	-3.444788e-07	7.176581e-07	0.01615748	-0.00154205	-1.219452e-05	1.974241e-05	0.02315673	-0.01580509
4.3e+08	0.02203025	-0.01737719	-2.050779e-06	4.338012e-06	0.0157773	-0.003240511	-3.303882e-07	7.423534e-07
	-2.050779e-06	4.338012e-06	0.02227875	-0.01626295	-9.971608e-06	1.878105e-05	0.01580187	-0.002104929
	0.0157773	-0.003240511	-9.971608e-06	1.878105e-05	0.02193208	-0.0175811	-1.159047e-05	1.986231e-05
	-3.303882e-07	7.423534e-07	0.01580187	-0.002104929	-1.159047e-05	1.986231e-05	0.02227154	-0.01639566
4.4e+08	0.02106323	-0.01791597	-1.913761e-06	4.345118e-06	0.01531787	-0.003791774	-3.148571e-07	7.672367e-07
	-1.913761e-06	4.345118e-06	0.02136092	-0.01679142	-9.390011e-06	1.884368e-05	0.01539479	-0.002635121
	0.01531787	-0.003791774	-9.390011e-06	1.884368e-05	0.02095929	-0.01810811	-1.098727e-05	1.99694e-05
	-3.148571e-07	7.672367e-07	0.01539479	-0.002635121	-1.098727e-05	1.99694e-05	0.02134714	-0.01692282
4.5e+08	0.02006114	-0.01838495	-1.777799e-06	4.34916e-06	0.01480851	-0.004301506	-2.978281e-07	7.922409e-07
	-1.777799e-06	4.34916e-06	0.02040853	-0.01725442	-8.811137e-06	1.889296e-05	0.01493915	-0.003128366
	0.01480851	-0.004301506	-8.811137e-06	1.889296e-05	0.01995234	-0.01856517	-1.038516e-05	2.00635e-05
	-2.978281e-07	7.922409e-07	0.01493915	-0.003128366	-1.038516e-05	2.00635e-05	0.0203884	-0.01738392
4.6e+08	0.01902935	-0.01878175	-1.642923e-06	4.350152e-06	0.01425291	-0.004765551	-2.792451e-07	8.172917e-07
	-1.642923e-06	4.350152e-06	0.01942659	-0.01764969	-8.235366e-06	1.89288e-05	0.01443823	-0.00358066
	0.01425291	-0.004765551	-8.235366e-06	1.89288e-05	0.01891661	-0.01894996	-9.784416e-06	2.014444e-05
	-2.792451e-07	8.172917e-07	0.01443823	-0.00358066	-9.784416e-06	2.014444e-05	0.01940037	-0.01777672
4.7e+08	0.01797339	-0.0191044	-1.509167e-06	4.3481e-06	0.01365512	-0.005180075	-2.590553e-07	8.422978e-07
	-1.509167e-06	4.3481e-06	0.01842024	-0.01797531	-7.663201e-06	1.895104e-05	0.01389565	-0.003988292
	0.01365512	-0.005180075	-7.663201e-06	1.895104e-05	0.01785761	-0.01926056	-9.185313e-06	2.0212e-05
	-2.590553e-07	8.422978e-07	0.01389565	-0.003988292	-9.185313e-06	2.0212e-05	0.01838822	-0.01809931
