!$
! Info: Touchstone file created by Circ.  Input file=Tx_4in_Rx_93ohms_TxVia_10mils_RxVia_20mils.circ
!$
# Hz S RI R 50
0	0.00378705	3.141247e-26	-2.178539e-05	2.009945e-25	3.315015e-05	3.8964e-24	-2.179066e-05	4.753131e-25
	-2.17854e-05	2.01148e-25	0.00378644	4.448613e-26	-2.178611e-05	5.938908e-26	3.276148e-05	5.32852e-24
	3.126046e-05	3.84157e-24	-2.178611e-05	5.955611e-26	0.00380126	3.269401e-26	-2.178518e-05	4.01056e-25
	-2.179065e-05	4.743329e-25	3.42195e-05	5.484327e-24	-2.178517e-05	3.999782e-25	0.003792082	4.247052e-26
1e+07	0.005606442	0.0002340976	-0.000106326	-3.267166e-05	9.251154e-05	0.0007641614	-6.193294e-05	4.8122e-05
	-0.000106326	-3.267166e-05	0.005535327	-1.400391e-05	-1.216326e-06	-3.412917e-06	9.37968e-05	0.0008294172
	9.247278e-05	0.0007641863	-1.216324e-06	-3.412917e-06	0.005244845	1.225036e-05	-6.004391e-06	1.912946e-08
	-6.193295e-05	4.8122e-05	9.382903e-05	0.0008294058	-6.004391e-06	1.913104e-08	0.005438996	-2.227324e-05
2e+07	0.006939867	-0.0009339828	-0.0001101991	-6.733464e-06	0.0002205175	0.00155194	-7.930139e-05	5.222706e-05
	-0.0001101991	-6.733465e-06	0.006647359	-0.001319614	-1.552939e-06	-2.167279e-06	0.0001699525	0.001668673
	0.0002205246	0.001551958	-1.552939e-06	-2.16728e-06	0.006458167	-0.001166167	-1.077001e-06	-1.085224e-05
	-7.930139e-05	5.222706e-05	0.0001699495	0.001668652	-1.077e-06	-1.085224e-05	0.006572855	-0.001295592
3e+07	0.00776987	-0.002694724	-0.000112953	5.284658e-06	0.0004094479	0.002327158	-9.139793e-05	5.729927e-05
	-0.000112953	5.284658e-06	0.007299769	-0.003106358	-3.666161e-06	-3.380032e-06	0.0003422812	0.002465178
	0.0004094453	0.002327159	-3.666161e-06	-3.380032e-06	0.007195056	-0.002918322	-6.670736e-06	-1.386671e-05
	-9.139793e-05	5.729927e-05	0.0003422761	0.002465176	-6.670736e-06	-1.386671e-05	0.007242634	-0.003075295
4e+07	0.00825278	-0.004678395	-0.0001147733	1.574434e-05	0.0006603172	0.003083932	-0.0001007198	6.106459e-05
	-0.0001147733	1.574434e-05	0.007628539	-0.005072956	-5.432504e-06	-3.596773e-06	0.0005982865	0.003231622
	0.0006603123	0.003083935	-5.432504e-06	-3.596773e-06	0.007600877	-0.004876694	-1.161551e-05	-1.492735e-05
	-0.0001007198	6.106459e-05	0.0005982861	0.003231623	-1.161551e-05	-1.492735e-05	0.007586327	-0.005043133
5e+07	0.008445732	-0.00678242	-0.0001159635	2.504355e-05	0.0009718432	0.003816451	-0.000108278	6.361943e-05
	-0.0001159635	2.504355e-05	0.007684244	-0.00713068	-6.942295e-06	-3.293853e-06	0.000911381	0.003968632
	0.000971842	0.003816453	-6.942295e-06	-3.293853e-06	0.007728891	-0.006942724	-1.609235e-05	-1.483076e-05
	-0.000108278	6.361943e-05	0.0009113805	0.003968633	-1.609235e-05	-1.483076e-05	0.007653604	-0.007106239
6e+07	0.008377864	-0.008950415	-0.0001185742	2.593852e-05	0.001341915	0.004519507	-0.0001146876	6.497974e-05
	-0.0001185742	2.593852e-05	0.007493438	-0.009228931	-8.2508e-06	-2.630851e-06	0.001279556	0.004672845
	0.001341916	0.004519505	-8.2508e-06	-2.630851e-06	0.007606533	-0.009062218	-2.018012e-05	-1.386286e-05
	-0.0001146876	6.497974e-05	0.001279553	0.004672846	-2.018012e-05	-1.386286e-05	0.007471939	-0.009212113
7e+07	0.008067634	-0.01114377	-0.0001212456	2.690826e-05	0.001767932	0.005188354	-0.0001203916	6.50176e-05
	-0.0001212456	2.690826e-05	0.007073834	-0.01133171	-9.358062e-06	-1.686508e-06	0.001700209	0.005340403
	0.001767933	0.005188349	-9.358063e-06	-1.686508e-06	0.007251625	-0.0111976	-2.389951e-05	-1.214488e-05
	-0.0001203916	6.50176e-05	0.001700204	0.005340405	-2.389951e-05	-1.214488e-05	0.007059568	-0.01132455
8e+07	0.00752869	-0.01333306	-0.000124068	2.780832e-05	0.002246946	0.005818796	-0.0001258432	6.343318e-05
	-0.000124068	2.780832e-05	0.006439599	-0.0134101	-1.026178e-05	-4.881695e-07	0.002170232	0.005967368
	0.002246945	0.00581879	-1.026178e-05	-4.881695e-07	0.006677956	-0.01331945	-2.723169e-05	-9.709825e-06
	-0.0001258432	6.343318e-05	0.002170227	0.005967372	-2.723169e-05	-9.709826e-06	0.006430411	-0.01341472
9e+07	0.006772017	-0.01549515	-0.0001271855	2.840155e-05	0.002775911	0.006407625	-0.0001316603	5.9523e-05
	-0.0001271855	2.840155e-05	0.005603936	-0.01543839	-1.093842e-05	9.838747e-07	0.002686071	0.006549915
	0.00277591	0.006407621	-1.093842e-05	9.838747e-07	0.005897732	-0.0154028	-3.010769e-05	-6.489403e-06
	-0.0001316603	5.9523e-05	0.002686068	0.006549918	-3.010769e-05	-6.489403e-06	0.005597084	-0.01545691
1e+08	0.005803506	-0.01761899	-0.0001311575	2.753637e-05	0.00335358	0.006957069	-0.0001397416	4.964924e-05
	-0.0001311575	2.753637e-05	0.004584211	-0.01738442	-1.125138e-05	2.981322e-06	0.003243805	0.007084313
	0.00335358	0.006957069	-1.125138e-05	2.981322e-06	0.004924067	-0.01742282	-3.220268e-05	-1.873419e-06
	-0.0001397416	4.964924e-05	0.003243805	0.007084312	-3.220268e-05	-1.873419e-06	0.004575836	-0.01741998
1.1e+08	0.004603462	-0.01965442	-0.0001310705	2.527993e-05	0.003949015	0.007462866	-0.0001348155	3.419372e-05
	-0.0001310705	2.527993e-05	0.003427829	-0.01928022	-1.040181e-05	4.470898e-06	0.003838103	0.007567397
	0.003949015	0.007462866	-1.040181e-05	4.470898e-06	0.00378192	-0.01938276	-3.161873e-05	1.736282e-06
	-0.0001348155	3.419372e-05	0.003838103	0.007567397	-3.161873e-05	1.736282e-06	0.003410642	-0.01932873
1.2e+08	0.003231413	-0.0215722	-0.0001304339	2.517037e-05	0.00457701	0.007902561	-0.0001282053	2.413809e-05
	-0.0001304339	2.517037e-05	0.002086243	-0.02109786	-9.688901e-06	5.453351e-06	0.004465686	0.00799729
	0.00457701	0.007902561	-9.688901e-06	5.453351e-06	0.00245834	-0.02125434	-3.133929e-05	4.326502e-06
	-0.0001282053	2.413809e-05	0.004465686	0.00799729	-3.133929e-05	4.326502e-06	0.002059996	-0.02115602
1.3e+08	0.001696959	-0.02337008	-0.0001296917	2.593401e-05	0.005234978	0.008280419	-0.0001214658	1.547066e-05
	-0.0001296917	2.593401e-05	0.0005778211	-0.022809	-9.012202e-06	6.237739e-06	0.005121856	0.008371164
	0.005234977	0.00828042	-9.012202e-06	6.237739e-06	0.000968452	-0.02301799	-3.111519e-05	6.628393e-06
	-0.0001214658	1.547066e-05	0.005121856	0.008371164	-3.111519e-05	6.628393e-06	0.0005417111	-0.02287515
1.4e+08	1.288977e-05	-0.02503775	-0.0001288904	2.727971e-05	0.005918029	0.00859575	-0.0001149243	7.282899e-06
	-0.0001288904	2.727971e-05	-0.001082796	-0.02439736	-8.787624e-06	6.198615e-06	0.005801663	0.008686809
	0.005918029	0.00859575	-8.787624e-06	6.198615e-06	-0.0006738755	-0.02465928	-3.088682e-05	8.802185e-06
	-0.0001149243	7.282899e-06	0.005801663	0.00868681	-3.088682e-05	8.802185e-06	-0.00112958	-0.02447005
1.5e+08	-0.001807461	-0.02656483	-0.0001280263	2.90581e-05	0.006620875	0.008847493	-0.0001087707	-8.483055e-07
	-0.0001280263	2.90581e-05	-0.002881319	-0.02584965	-8.555038e-06	6.202057e-06	0.006499986	0.008942501
	0.006620875	0.008847493	-8.555038e-06	6.202057e-06	-0.002454809	-0.02616574	-3.061424e-05	1.091388e-05
	-0.0001087707	-8.483055e-07	0.006499986	0.008942501	-3.061424e-05	1.091388e-05	-0.002939505	-0.0259275
1.6e+08	-0.003750378	-0.02794173	-0.0001270859	3.117879e-05	0.007338028	0.009034744	-0.000103151	-9.151428e-06
	-0.0001270859	3.117879e-05	-0.004803348	-0.0271545	-8.310746e-06	6.242361e-06	0.007211586	0.009136983
	0.007338028	0.009034744	-8.310746e-06	6.242361e-06	-0.00436033	-0.02752648	-3.027015e-05	1.299849e-05
	-0.000103151	-9.151428e-06	0.007211586	0.009136983	-3.027015e-05	1.299849e-05	-0.004873544	-0.02723612
1.7e+08	-0.005801777	-0.02915979	-0.0001260516	3.357775e-05	0.008063883	0.009156927	-9.819238e-05	-1.775145e-05
	-0.0001260516	3.357775e-05	-0.00683423	-0.02830213	-8.056512e-06	6.308013e-06	0.007931144	0.009269464
	0.008063883	0.009156927	-8.056512e-06	6.308013e-06	-0.006376152	-0.02873203	-2.983224e-05	1.507321e-05
	-9.819238e-05	-1.775145e-05	0.007931144	0.009269464	-2.983224e-05	1.507321e-05	-0.00691692	-0.02838613
1.8e+08	-0.007947236	-0.03021148	-0.0001249049	3.620511e-05	0.008792784	0.009213863	-9.401029e-05	-2.670817e-05
	-0.0001249049	3.620511e-05	-0.008959016	-0.02928421	-7.79334e-06	6.391072e-06	0.008653305	0.009339617
	0.008792784	0.009213863	-7.79334e-06	6.391072e-06	-0.008487701	-0.02977421	-2.928167e-05	1.714417e-05
	-9.401029e-05	-2.670817e-05	0.008653305	0.009339617	-2.928167e-05	1.714417e-05	-0.009054548	-0.0293692
1.9e+08	-0.01017201	-0.03109037	-0.000123628	3.901907e-05	0.009519068	0.009205813	-9.071148e-05	-3.603598e-05
	-0.000123628	3.901907e-05	-0.01116247	-0.03009377	-7.521869e-06	6.485721e-06	0.009372717	0.009347577
	0.009519068	0.009205813	-7.521869e-06	6.485721e-06	-0.01068013	-0.03064612	-2.860252e-05	1.921014e-05
	-9.071148e-05	-3.603598e-05	0.009372717	0.009347577	-2.860252e-05	1.921014e-05	-0.01127106	-0.03017837
2e+08	-0.01246109	-0.03179123	-0.0001222047	4.198272e-05	0.01023711	0.009133492	-8.839366e-05	-4.571516e-05
	-0.0001222047	4.198272e-05	-0.0134291	-0.03072525	-7.242538e-06	6.587526e-06	0.01008407	0.009293935
	0.01023711	0.009133492	-7.242538e-06	6.587526e-06	-0.01293833	-0.03134217	-2.778162e-05	2.126457e-05
	-8.839366e-05	-4.571516e-05	0.01008407	0.009293935	-2.778162e-05	2.126457e-05	-0.01355085	-0.03080807
2.1e+08	-0.01479943	-0.03231009	-0.0001206209	4.506208e-05	0.01094846	0.00899042	-8.714511e-05	-5.56994e-05
	-0.0001206209	4.506208e-05	-0.01574324	-0.0311744	-6.954466e-06	6.692228e-06	0.01078214	0.009179731
	0.01094846	0.008990421	-6.954466e-06	6.692228e-06	-0.0152472	-0.03185809	-2.679544e-05	2.329909e-05
	-8.714511e-05	-5.56994e-05	0.01078214	0.009179731	-2.679544e-05	2.329909e-05	-0.01587812	-0.03125409
2.2e+08	-0.01717177	-0.03264415	-0.0001188648	4.822528e-05	0.01164765	0.008776489	-8.704383e-05	-6.592031e-05
	-0.0001188648	4.822528e-05	-0.01808912	-0.03143834	-6.65789e-06	6.796735e-06	0.0114618	0.009006445
	0.01164765	0.008776489	-6.65789e-06	6.796735e-06	-0.0175914	-0.03219081	-2.563247e-05	2.529858e-05
	-8.704383e-05	-6.592031e-05	0.0114618	0.009006445	-2.563247e-05	2.529858e-05	-0.01823697	-0.03151356
2.3e+08	-0.01956251	-0.03279172	-0.0001169275	5.144199e-05	0.01232048	0.008502878	-8.815621e-05	-7.62912e-05
	-0.0001169275	5.144199e-05	-0.02045093	-0.0315155	-6.354672e-06	6.899507e-06	0.01211812	0.008775986
	0.01232048	0.008502878	-6.354672e-06	6.899507e-06	-0.01995527	-0.03233842	-2.430311e-05	2.724404e-05
	-8.815621e-05	-7.62912e-05	0.01211812	0.008775986	-2.430311e-05	2.724404e-05	-0.02061149	-0.03158494
2.4e+08	-0.02195626	-0.03275245	-0.0001148026	5.468291e-05	0.01296196	0.008172208	-9.053626e-05	-8.671085e-05
	-0.0001148026	5.468291e-05	-0.02281295	-0.03140566	-6.045194e-06	6.9985e-06	0.01274632	0.00849067
	0.01296196	0.008172208	-6.045194e-06	6.9985e-06	-0.02232338	-0.0323004	-2.280558e-05	2.911828e-05
	-9.053626e-05	-8.671085e-05	0.01274632	0.00849067	-2.280558e-05	2.911828e-05	-0.02298583	-0.03146805
2.5e+08	-0.02433781	-0.03252723	-0.0001124865	5.791975e-05	0.01356735	0.007787517	-9.422379e-05	-9.706638e-05
	-0.0001124865	5.791975e-05	-0.0251596	-0.03110986	-5.729871e-06	7.091952e-06	0.01334186	0.008153207
	0.01356735	0.007787517	-5.729871e-06	7.091952e-06	-0.02468044	-0.03207743	-2.114098e-05	3.09032e-05
	-9.422379e-05	-9.706638e-05	0.01334186	0.008153207	-2.114098e-05	3.09032e-05	-0.0253443	-0.03116397
2.6e+08	-0.02669212	-0.03211814	-0.0001099785	6.112516e-05	0.01413219	0.007352225	-9.924432e-05	-0.0001072355
	-0.0001099785	6.112516e-05	-0.02747556	-0.03063043	-5.409161e-06	7.178288e-06	0.01390046	0.007766675
	0.01413219	0.007352225	-5.409161e-06	7.178288e-06	-0.02701136	-0.03167147	-1.93132e-05	3.258035e-05
	-9.924432e-05	-0.0001072355	0.01390046	0.007766675	-1.93132e-05	3.258035e-05	-0.02767146	-0.0306751
2.7e+08	-0.02900446	-0.03152846	-0.0001072806	6.427299e-05	0.01465234	0.006870116	-0.0001056076	-0.0001170897
	-0.0001072806	6.427299e-05	-0.02974583	-0.02997094	-5.08362e-06	7.25617e-06	0.01441812	0.0073345
	0.01465234	0.006870116	-5.08362e-06	7.25617e-06	-0.02930133	-0.03108566	-1.732891e-05	3.413135e-05
	-0.0001056076	-0.0001170897	0.01441812	0.0073345	-1.732891e-05	3.413135e-05	-0.02995223	-0.03000505
2.8e+08	-0.03126048	-0.03076261	-0.0001043974	6.733841e-05	0.01512399	0.006345305	-0.0001133084	-0.0001264953
	-0.0001043974	6.733841e-05	-0.03195585	-0.02913615	-4.753875e-06	7.324401e-06	0.01489116	0.006860425
	0.01512399	0.006345305	-4.753875e-06	7.324401e-06	-0.03153596	-0.03032429	-1.519739e-05	3.553837e-05
	-0.0001133084	-0.0001264953	0.01489116	0.006860425	-1.519739e-05	3.553837e-05	-0.03217194	-0.02915865
2.9e+08	-0.03344632	-0.02982612	-0.0001013365	7.029794e-05	0.01554372	0.005782206	-0.0001223254	-0.0001353167
	-0.0001013365	7.029794e-05	-0.0340916	-0.02813197	-4.420614e-06	7.38192e-06	0.01531623	0.006348486
	0.01554372	0.005782206	-4.420614e-06	7.38192e-06	-0.03370129	-0.02939281	-1.293042e-05	3.678447e-05
	-0.0001223254	-0.0001353167	0.01531623	0.006348486	-1.293042e-05	3.678447e-05	-0.03431647	-0.0281419
3e+08	-0.03554866	-0.0287256	-9.810737e-05	7.312962e-05	0.01590848	0.005185503	-0.0001326207	-0.0001434188
	-9.810737e-05	7.312962e-05	-0.03613963	-0.02696542	-4.084584e-06	7.427798e-06	0.01569034	0.005802977
	0.01590848	0.005185503	-4.084584e-06	7.427798e-06	-0.03578393	-0.02829773	-1.054214e-05	3.785392e-05
	-0.0001326207	-0.0001434188	0.01569034	0.005802977	-1.054214e-05	3.785392e-05	-0.03637231	-0.0269619
3.1e+08	-0.0375548	-0.02746867	-9.472222e-05	7.581345e-05	0.01621565	0.004560113	-0.0001441415	-0.0001506676
	-9.472222e-05	7.581345e-05	-0.0380872	-0.02564455	-3.746616e-06	7.461242e-06	0.01601089	0.005228422
	0.01621565	0.004560113	-3.746616e-06	7.461242e-06	-0.03777112	-0.02704662	-8.048775e-06	3.873262e-05
	-0.0001441415	-0.0001506676	0.01601089	0.005228422	-8.048775e-06	3.873262e-05	-0.03832661	-0.0256268
3.2e+08	-0.03945277	-0.02606392	-9.119509e-05	7.833126e-05	0.01646305	0.003911148	-0.0001568192	-0.0001569337
	-9.119509e-05	7.833126e-05	-0.03992231	-0.0241784	-3.407592e-06	7.48158e-06	0.01627567	0.004629541
	0.01646305	0.003911148	-3.407592e-06	7.48158e-06	-0.03965081	-0.02564798	-5.468429e-06	3.940823e-05
	-0.0001568192	-0.0001569337	0.01627567	0.004629541	-5.468429e-06	3.940823e-05	-0.04016732	-0.02414573
3.3e+08	-0.04123133	-0.02452083	-8.754184e-05	8.066696e-05	0.01664892	0.003243883	-0.0001705702	-0.0001620945
	-8.754184e-05	8.066696e-05	-0.04163378	-0.02257693	-3.068439e-06	7.488259e-06	0.01648287	0.004011212
	0.01664892	0.003243883	-3.068439e-06	7.488259e-06	-0.04141169	-0.02411127	-2.820856e-06	3.98705e-05
	-0.0001705702	-0.0001620945	0.01648287	0.004011212	-2.820856e-06	3.98705e-05	-0.04188319	-0.02252874
3.4e+08	-0.04288013	-0.0228497	-8.378002e-05	8.280686e-05	0.01677199	0.00256371	-0.0001852973	-0.0001660339
	-8.378002e-05	8.280686e-05	-0.04321134	-0.0208509	-2.730146e-06	7.480867e-06	0.01663112	0.003378439
	0.01677199	0.00256371	-2.730146e-06	7.480867e-06	-0.04304332	-0.02244676	-1.271072e-07	4.011147e-05
	-0.0001852973	-0.0001660339	0.01663112	0.003378439	-1.271072e-07	4.011147e-05	-0.04346391	-0.02078672
3.5e+08	-0.04438966	-0.02106161	-7.992841e-05	8.473954e-05	0.01683142	0.001876107	-0.0002008903	-0.0001686463
	-7.992841e-05	8.473954e-05	-0.04464566	-0.01901185	-2.393724e-06	7.459107e-06	0.01671947	0.002736318
	0.01683142	0.001876107	-2.393724e-06	7.459107e-06	-0.04453616	-0.0206655	2.590718e-06	4.012561e-05
	-0.0002008903	-0.0001686463	0.01671947	0.002736318	2.590718e-06	4.012561e-05	-0.04490008	-0.01893132
3.6e+08	-0.04575139	-0.0191683	-7.600687e-05	8.645615e-05	0.01682686	0.00118659	-0.000217227	-0.0001698361
	-7.600687e-05	8.645615e-05	-0.0459284	-0.01707201	-2.060215e-06	7.422816e-06	0.01674739	0.002089996
	0.01682686	0.00118659	-2.060215e-06	7.422816e-06	-0.04588157	-0.01877923	5.309824e-06	3.990991e-05
	-0.000217227	-0.0001698361	0.01674739	0.002089996	5.309824e-06	3.990991e-05	-0.04618335	-0.01697488
3.7e+08	-0.04695777	-0.01718215	-7.203597e-05	8.795034e-05	0.01675843	0.0005006822	-0.0002341751	-0.0001695207
	-7.203597e-05	8.795034e-05	-0.04705227	-0.01504419	-1.730666e-06	7.371955e-06	0.01671481	0.001444639
	0.01675843	0.0005006822	-1.730666e-06	7.371955e-06	-0.04707198	-0.01680031	8.007022e-06	3.946402e-05
	-0.0002341751	-0.0001695207	0.01671481	0.001444639	8.007022e-06	3.946402e-05	-0.0473064	-0.01493034
3.8e+08	-0.04800226	-0.01511603	-6.80367e-05	8.921829e-05	0.01662672	-0.0001761304	-0.0002515929	-0.0001676309
	-6.80367e-05	8.921829e-05	-0.04801107	-0.01294169	-1.406122e-06	7.30661e-06	0.01662207	0.0008053939
	0.01662672	-0.0001761304	-1.406122e-06	7.30661e-06	-0.04810078	-0.01474162	1.065906e-05	3.879021e-05
	-0.0002515929	-0.0001676309	0.01662207	0.0008053939	1.065906e-05	3.879021e-05	-0.04826302	-0.01281112
3.9e+08	-0.04887943	-0.01298325	-6.403021e-05	9.02588e-05	0.01643276	-0.0008384365	-0.0002693315	-0.0001641117
	-6.403021e-05	9.02588e-05	-0.04879971	-0.01077826	-1.087613e-06	7.226989e-06	0.01646996	0.0001773533
	0.01643276	-0.0008384365	-1.087613e-06	7.226989e-06	-0.04896247	-0.01261652	1.324297e-05	3.789343e-05
	-0.0002693315	-0.0001641117	0.01646996	0.0001773533	1.324297e-05	3.789343e-05	-0.04904812	-0.0106311
4e+08	-0.04958489	-0.01079751	-6.003744e-05	9.107312e-05	0.01617806	-0.001480937	-0.0002872362	-0.0001589243
	-6.003744e-05	9.107312e-05	-0.04941423	-0.008567957	-7.761346e-07	7.133414e-06	0.01625968	-0.0004344794
	0.01617806	-0.001480937	-7.761346e-07	7.133414e-06	-0.04965266	-0.0104387	1.573635e-05	3.678122e-05
	-0.0002872362	-0.0001589243	0.01625968	-0.0004344794	1.573635e-05	3.678122e-05	-0.04965774	-0.008404436
4.1e+08	-0.05011539	-0.008572738	-5.607896e-05	9.166507e-05	0.01586455	-0.002098484	-0.0003051482	-0.0001520453
	-5.607896e-05	9.166507e-05	-0.04985184	-0.006325062	-4.726448e-07	7.026323e-06	0.01599284	-0.001025225
	0.01586455	-0.002098484	-4.726448e-07	7.026323e-06	-0.05016804	-0.008222131	1.811774e-05	3.546366e-05
	-0.0003051482	-0.0001520453	0.01599284	-0.001025225	1.811774e-05	3.546366e-05	-0.05008912	-0.006145558
4.2e+08	-0.0504688	-0.00632306	-5.217454e-05	9.20408e-05	0.0154946	-0.002686112	-0.0003229066	-0.0001434668
	-5.217454e-05	9.20408e-05	-0.0501109	-0.004064015	-1.780458e-07	6.906257e-06	0.01567148	-0.00159016
	0.0154946	-0.002686112	-1.780458e-07	6.906257e-06	-0.05050646	-0.005980968	2.036687e-05	3.395322e-05
	-0.0003229066	-0.0001434668	0.01567148	-0.00159016	2.036687e-05	3.395322e-05	-0.05034065	-0.003869017
4.3e+08	-0.05064412	-0.004062685	-4.834297e-05	9.220874e-05	0.015071	-0.00323908	-0.0003403501	-0.000133198
	-4.834297e-05	9.220874e-05	-0.05019095	-0.001799292	1.068276e-07	6.773851e-06	0.01529799	-0.002124751
	0.015071	-0.00323908	1.068276e-07	6.773851e-06	-0.05066689	-0.003729461	2.246497e-05	3.226459e-05
	-0.0003403501	-0.000133198	0.01529799	-0.002124751	2.246497e-05	3.226459e-05	-0.05041192	-0.001589408
4.4e+08	-0.05064148	-0.00180583	-4.460178e-05	9.217935e-05	0.01459691	-0.003752897	-0.0003573188	-0.000121265
	-4.460178e-05	9.217935e-05	-0.05009271	0.0004546698	3.812186e-07	6.629822e-06	0.01487514	-0.002624684
	0.01459691	-0.003752897	3.812186e-07	6.629822e-06	-0.05064946	-0.001481866	2.4395e-05	3.041455e-05
	-0.0003573188	-0.000121265	0.01487514	-0.002624684	2.4395e-05	3.041455e-05	-0.05030369	0.0006787192
4.5e+08	-0.05046213	0.0004333795	-4.096723e-05	9.196558e-05	0.01407586	-0.004223357	-0.000373668	-0.0001077577
	-4.096723e-05	9.196558e-05	-0.04981803	0.002683573	6.444636e-07	6.474955e-06	0.01440607	-0.003085895
	0.01407586	-0.004223357	6.444636e-07	6.474955e-06	-0.05045542	0.0007476484	2.614176e-05	2.842225e-05
	-0.000373668	-0.0001077577	0.01440607	-0.003085895	2.614176e-05	2.842225e-05	-0.05001788	0.002920958
4.6e+08	-0.05010846	0.002641009	-3.743289e-05	9.150381e-05	0.01351174	-0.004646571	-0.0003873385	-8.620882e-05
	-3.743289e-05	9.150381e-05	-0.04936991	0.004873348	8.949505e-07	6.310808e-06	0.01389422	-0.003504595
	0.01351174	-0.004646571	8.949505e-07	6.310808e-06	-0.05008713	0.002945085	2.770916e-05	2.622898e-05
	-0.0003873385	-8.620882e-05	0.01389422	-0.003504595	2.770916e-05	2.622898e-05	-0.04955758	0.005123155
4.7e+08	-0.04958391	0.004803346	-3.403896e-05	9.087651e-05	0.01290874	-0.005018986	-0.0003993352	-6.270784e-05
	-3.403896e-05	9.087651e-05	-0.04875245	0.007010239	1.133214e-06	6.137845e-06	0.01334335	-0.0038773
