!$
! Info: Touchstone file created by Circ.  Input file=Tx_4in_Rx_93ohms_TxVia_10mils_RxVia_20mils.circ
!$
# Hz S RI R 50
0	0.003783571	3.90371e-26	-2.178636e-05	-3.004605e-26	3.53331e-05	4.709387e-24	-2.179965e-05	1.586956e-24
	-2.178636e-05	-2.963878e-26	0.00378644	4.448613e-26	-2.178622e-05	-2.020344e-26	3.276148e-05	5.32852e-24
	3.538143e-05	4.712139e-24	-2.178621e-05	-2.06265e-26	0.003798551	3.915603e-26	-2.178789e-05	1.882981e-25
	-2.179965e-05	1.586551e-24	3.42195e-05	5.484327e-24	-2.178789e-05	1.877796e-25	0.003792082	4.247052e-26
1e+07	0.00522965	2.031574e-05	-5.4358e-07	-8.135532e-06	9.270636e-05	0.0007690304	-5.510252e-07	-8.342097e-06
	-5.435799e-07	-8.135532e-06	0.005535327	-1.400391e-05	-2.540565e-06	-1.650988e-06	9.37968e-05	0.0008294172
	9.271087e-05	0.0007690275	-2.540566e-06	-1.650988e-06	0.005621905	0.0002282369	-8.63571e-06	-2.395782e-06
	-5.510253e-07	-8.342097e-06	9.382903e-05	0.0008294058	-8.63571e-06	-2.395782e-06	0.005438996	-2.227324e-05
2e+07	0.006443274	-0.001149105	-2.448018e-06	-5.647985e-06	0.0002167108	0.001560439	-2.67619e-06	-5.989281e-06
	-2.448017e-06	-5.647985e-06	0.006647359	-0.001319614	-9.499682e-06	-9.282333e-06	0.0001699525	0.001668673
	0.0002167101	0.001560436	-9.499683e-06	-9.282332e-06	0.006956092	-0.000946904	-9.387827e-06	7.97196e-07
	-2.67619e-06	-5.989281e-06	0.0001699495	0.001668652	-9.387827e-06	7.971961e-07	0.006572855	-0.001295592
3e+07	0.007181237	-0.002892089	-3.962692e-06	-4.957717e-06	0.0004026716	0.002337016	-4.359392e-06	-5.311061e-06
	-3.962692e-06	-4.957717e-06	0.007299769	-0.003106358	-1.487953e-05	-1.059664e-05	0.0003422812	0.002465178
	0.0004026716	0.002337016	-1.487953e-05	-1.059664e-05	0.007786195	-0.002715403	-1.010913e-05	6.909369e-07
	-4.359392e-06	-5.31106e-06	0.0003422761	0.002465176	-1.010913e-05	6.90937e-07	0.007242634	-0.003075295
4e+07	0.007588864	-0.00484113	-5.230785e-06	-4.317258e-06	0.0006511324	0.003094488	-5.767458e-06	-4.639604e-06
	-5.230785e-06	-4.317258e-06	0.007628539	-0.005072956	-1.937855e-05	-1.015279e-05	0.0005982865	0.003231622
	0.0006511331	0.003094488	-1.937855e-05	-1.015279e-05	0.008268509	-0.004707203	-1.067213e-05	1.052852e-06
	-5.767458e-06	-4.639604e-06	0.0005982861	0.003231623	-1.067213e-05	1.052852e-06	0.007586327	-0.005043133
5e+07	0.007719526	-0.006897687	-6.311031e-06	-3.588472e-06	0.0009605342	0.003827341	-6.967598e-06	-3.852357e-06
	-6.311031e-06	-3.588472e-06	0.007684244	-0.00713068	-2.32213e-05	-8.6747e-06	0.000911381	0.003968632
	0.0009605352	0.00382734	-2.32213e-05	-8.6747e-06	0.008460145	-0.006819652	-1.111082e-05	1.645523e-06
	-6.967598e-06	-3.852357e-06	0.0009113805	0.003968633	-1.111082e-05	1.645523e-06	0.007653604	-0.007106239
6e+07	0.00760076	-0.009007667	-7.228251e-06	-2.744485e-06	0.001328646	0.004530507	-7.988504e-06	-2.928415e-06
	-7.228251e-06	-2.744485e-06	0.007493438	-0.009228931	-2.650397e-05	-6.437089e-06	0.001279556	0.004672845
	0.001328647	0.004530506	-2.650397e-05	-6.437089e-06	0.008390136	-0.008996289	-1.14385e-05	2.388584e-06
	-7.988504e-06	-2.928415e-06	0.001279553	0.004672846	-1.14385e-05	2.388584e-06	0.007471939	-0.009212113
7e+07	0.007250447	-0.01113363	-7.99102e-06	-1.777488e-06	0.001752813	0.005199282	-8.840778e-06	-1.862375e-06
	-7.99102e-06	-1.777488e-06	0.007073834	-0.01133171	-2.92604e-05	-3.563647e-06	0.001700209	0.005340403
	0.001752814	0.005199281	-2.92604e-05	-3.563647e-06	0.00807686	-0.01119838	-1.166055e-05	3.244863e-06
	-8.840778e-06	-1.862375e-06	0.001700204	0.005340405	-1.166055e-05	3.244863e-06	0.007059568	-0.01132455
8e+07	0.006682395	-0.01324629	-8.596304e-06	-6.769736e-07	0.002230037	0.005829435	-9.52158e-06	-6.452746e-07
	-8.596304e-06	-6.769736e-07	0.006439599	-0.0134101	-3.148314e-05	-8.978118e-08	0.002170232	0.005967368
	0.002230038	0.005829435	-3.148314e-05	-8.97812e-08	0.00753392	-0.01339636	-1.179803e-05	4.08387e-06
	-9.52158e-06	-6.452746e-07	0.002170227	0.005967372	-1.179803e-05	4.08387e-06	0.006430411	-0.01341472
9e+07	0.005908811	-0.01532078	-9.024917e-06	5.882224e-07	0.002757191	0.006417649	-1.000517e-05	7.618414e-07
	-9.024917e-06	5.882224e-07	0.005603936	-0.01543839	-3.31088e-05	4.06058e-06	0.002686071	0.006549915
	0.002757192	0.006417649	-3.31088e-05	4.060579e-06	0.006772281	-0.01556699	-1.211753e-05	4.242586e-06
	-1.000517e-05	7.618414e-07	0.002686068	0.006549918	-1.211753e-05	4.242586e-06	0.005597084	-0.01545691
1e+08	0.004942791	-0.01733242	-9.165452e-06	2.217699e-06	0.003332747	0.006965601	-1.017455e-05	2.595545e-06
	-9.165452e-06	2.217699e-06	0.004584211	-0.01738442	-3.375493e-05	9.583236e-06	0.003243805	0.007084313
	0.003332747	0.006965601	-3.375493e-05	9.583236e-06	0.005797787	-0.01769916	-1.252715e-05	4.154443e-06
	-1.017455e-05	2.595545e-06	0.003243805	0.007084312	-1.252715e-05	4.154443e-06	0.004575836	-0.01741998
1.1e+08	0.003808387	-0.01928503	-8.4016e-06	3.428873e-06	0.003928004	0.007469287	-9.317752e-06	3.969004e-06
	-8.4016e-06	3.428873e-06	0.003427829	-0.01928022	-3.119707e-05	1.37384e-05	0.003838103	0.007567397
	0.003928004	0.007469287	-3.119707e-05	1.37384e-05	0.00459154	-0.01974216	-1.240006e-05	3.826942e-06
	-9.317752e-06	3.969004e-06	0.003838103	0.007567397	-1.240006e-05	3.826942e-06	0.003410642	-0.01932873
1.2e+08	0.002493765	-0.02114948	-7.761497e-06	4.241537e-06	0.004556057	0.007907758	-8.8056e-06	4.461465e-06
	-7.761497e-06	4.241537e-06	0.002086243	-0.02109786	-2.992231e-05	1.477638e-05	0.004465686	0.00799729
	0.004556057	0.007907758	-2.992231e-05	1.477638e-05	0.003212125	-0.02166727	-1.221125e-05	3.764008e-06
	-8.8056e-06	4.461465e-06	0.004465686	0.00799729	-1.221125e-05	3.764008e-06	0.002059996	-0.02115602
1.3e+08	0.001014023	-0.02290662	-7.617537e-06	4.100568e-06	0.005214105	0.008284708	-8.706192e-06	4.191703e-06
	-7.617537e-06	4.100568e-06	0.0005778211	-0.022809	-2.953059e-05	1.421575e-05	0.005121856	0.008371164
	0.005214105	0.008284708	-2.953059e-05	1.421575e-05	0.001669162	-0.0234719	-1.20173e-05	3.79793e-06
	-8.706192e-06	4.191703e-06	0.005121856	0.008371164	-1.20173e-05	3.79793e-06	0.0005417111	-0.02287515
1.4e+08	-0.0006171037	-0.0245423	-7.506441e-06	3.955005e-06	0.005897229	0.008599322	-8.596998e-06	4.012349e-06
	-7.506441e-06	3.955005e-06	-0.001082796	-0.02439736	-2.909868e-05	1.391309e-05	0.005801663	0.008686809
	0.005897229	0.008599322	-2.909868e-05	1.391309e-05	-2.441519e-05	-0.02514549	-1.181626e-05	3.880692e-06
	-8.596998e-06	4.012349e-06	0.005801663	0.00868681	-1.181626e-05	3.880692e-06	-0.00112958	-0.02447005
1.5e+08	-0.002385964	-0.02604428	-7.389758e-06	3.861938e-06	0.006600133	0.008850485	-8.483167e-06	3.893899e-06
	-7.389758e-06	3.861938e-06	-0.002881319	-0.02584965	-2.864398e-05	1.378169e-05	0.006499986	0.008942501
	0.006600133	0.008850485	-2.864398e-05	1.378169e-05	-0.001855095	-0.02667749	-1.161233e-05	3.996986e-06
	-8.483167e-06	3.893899e-06	0.006499986	0.008942501	-1.161233e-05	3.996986e-06	-0.002939505	-0.0259275
1.6e+08	-0.004278731	-0.02740181	-7.269902e-06	3.806596e-06	0.007317325	0.009037257	-8.367238e-06	3.81956e-06
	-7.269902e-06	3.806596e-06	-0.004803348	-0.0271545	-2.817437e-05	1.377197e-05	0.007211586	0.009136983
	0.007317325	0.009037257	-2.817437e-05	1.377197e-05	-0.003808971	-0.02805819	-1.14053e-05	4.134287e-06
	-8.367238e-06	3.81956e-06	0.007211586	0.009136983	-1.14053e-05	4.134287e-06	-0.004873544	-0.02723612
1.7e+08	-0.006281307	-0.02860547	-7.148103e-06	3.779414e-06	0.008043202	0.009159039	-8.250423e-06	3.778556e-06
	-7.148103e-06	3.779414e-06	-0.00683423	-0.02830213	-2.769367e-05	1.385209e-05	0.007931144	0.009269464
	0.008043202	0.009159039	-2.769367e-05	1.385209e-05	-0.005871792	-0.0292789	-1.119575e-05	4.286246e-06
	-8.250423e-06	3.778556e-06	0.007931144	0.009269464	-1.119575e-05	4.286246e-06	-0.00691692	-0.02838613
1.8e+08	-0.0083793	-0.02964713	-7.024991e-06	3.773818e-06	0.008772105	0.00921564	-8.133276e-06	3.763492e-06
	-7.024991e-06	3.773818e-06	-0.008959016	-0.02928421	-2.72037e-05	1.400024e-05	0.008653305	0.009339617
	0.008772105	0.00921564	-2.72037e-05	1.400024e-05	-0.008028969	-0.03033204	-1.098387e-05	4.448497e-06
	-8.133276e-06	3.763492e-06	0.008653305	0.009339617	-1.098387e-05	4.448497e-06	-0.009054548	-0.0293692
1.9e+08	-0.01055802	-0.03051991	-6.900903e-06	3.785062e-06	0.009498336	0.009207339	-8.01603e-06	3.769033e-06
	-6.900903e-06	3.785062e-06	-0.01116247	-0.03009377	-2.670531e-05	1.420069e-05	0.009372717	0.009347577
	0.009498336	0.009207339	-2.670531e-05	1.420069e-05	-0.01026562	-0.03121118	-1.076968e-05	4.617877e-06
	-8.01603e-06	3.769033e-06	0.009372717	0.009347577	-1.076968e-05	4.617877e-06	-0.01127106	-0.03017837
2e+08	-0.01280286	-0.03121837	-6.77548e-06	3.809145e-06	0.01023176	0.009119386	-7.898514e-06	3.791045e-06
	-6.77548e-06	3.809145e-06	-0.0134291	-0.03072525	-2.619865e-05	1.444154e-05	0.01008407	0.009293935
	0.01023176	0.009119386	-2.619865e-05	1.444154e-05	-0.01256695	-0.03191126	-1.055297e-05	4.791882e-06
	-7.898514e-06	3.791045e-06	0.01008407	0.009293935	-1.055297e-05	4.791882e-06	-0.01355085	-0.03080807
2.1e+08	-0.01509839	-0.03173797	-6.649339e-06	3.843775e-06	0.0109504	0.008966993	-7.780908e-06	3.826623e-06
	-6.649339e-06	3.843775e-06	-0.01574324	-0.0311744	-2.568389e-05	1.47138e-05	0.01078214	0.009179731
	0.0109504	0.008966993	-2.568389e-05	1.47138e-05	-0.01491735	-0.0324281	-1.033381e-05	4.968789e-06
	-7.780908e-06	3.826623e-06	0.01078214	0.009179731	-1.033381e-05	4.968789e-06	-0.01587812	-0.03125409
2.2e+08	-0.01742931	-0.03207559	-6.522528e-06	3.886854e-06	0.0116479	0.008752825	-7.663118e-06	3.873389e-06
	-6.522528e-06	3.886854e-06	-0.01808912	-0.03143834	-2.516087e-05	1.501027e-05	0.0114618	0.009006445
	0.0116479	0.008752825	-2.516087e-05	1.501027e-05	-0.01730134	-0.03275889	-1.011211e-05	5.147139e-06
	-7.663118e-06	3.873389e-06	0.0114618	0.009006445	-1.011211e-05	5.147139e-06	-0.01823697	-0.03151356
2.3e+08	-0.01978029	-0.0322294	-6.395014e-06	3.93669e-06	0.01231906	0.008479078	-7.544989e-06	3.929444e-06
	-6.395014e-06	3.93669e-06	-0.02045093	-0.0315155	-2.462936e-05	1.532514e-05	0.01211812	0.008775986
	0.01231906	0.008479078	-2.462936e-05	1.532514e-05	-0.01970342	-0.03290207	-9.887758e-06	5.32574e-06
	-7.544989e-06	3.929444e-06	0.01211812	0.008775986	-9.887758e-06	5.32574e-06	-0.02061149	-0.03158494
2.4e+08	-0.02213602	-0.03219882	-6.266781e-06	3.991905e-06	0.01295889	0.008148374	-7.426383e-06	3.993235e-06
	-6.266781e-06	3.991905e-06	-0.02281295	-0.03140566	-2.408915e-05	1.565358e-05	0.01274632	0.00849067
	0.01295889	0.008148374	-2.408915e-05	1.565358e-05	-0.02210815	-0.03285734	-9.660686e-06	5.503606e-06
	-7.426383e-06	3.993235e-06	0.01274632	0.00849067	-9.660686e-06	5.503606e-06	-0.02298583	-0.03146805
2.5e+08	-0.0244813	-0.03198451	-6.13778e-06	4.051374e-06	0.01356265	0.007763745	-7.307135e-06	4.063492e-06
	-6.13778e-06	4.051374e-06	-0.0251596	-0.03110986	-2.354003e-05	1.599156e-05	0.01334186	0.008153207
	0.01356265	0.007763745	-2.354003e-05	1.599156e-05	-0.02450018	-0.03262562	-9.430823e-06	5.679903e-06
	-7.307135e-06	4.063492e-06	0.01334186	0.008153207	-9.430823e-06	5.679903e-06	-0.0253443	-0.03116397
2.6e+08	-0.02680116	-0.03158833	-6.007944e-06	4.114105e-06	0.0141259	0.007328609	-7.187091e-06	4.139149e-06
	-6.007944e-06	4.114105e-06	-0.02747556	-0.03063043	-2.298133e-05	1.633519e-05	0.01390046	0.007766675
	0.0141259	0.007328609	-2.298133e-05	1.633519e-05	-0.0268644	-0.03220904	-9.198128e-06	5.853917e-06
	-7.187091e-06	4.139149e-06	0.01390046	0.007766675	-9.198128e-06	5.853917e-06	-0.02767146	-0.0306751
2.7e+08	-0.0290809	-0.03101338	-5.877243e-06	4.179359e-06	0.01464447	0.006846746	-7.066079e-06	4.219303e-06
	-5.877243e-06	4.179359e-06	-0.02974583	-0.02997094	-2.241334e-05	1.668182e-05	0.01441812	0.0073345
	0.01464447	0.006846746	-2.241334e-05	1.668182e-05	-0.029186	-0.03161092	-8.962553e-06	6.025026e-06
	-7.066079e-06	4.219303e-06	0.01441812	0.0073345	-8.962553e-06	6.025026e-06	-0.02995223	-0.03000505
2.8e+08	-0.03130619	-0.03026388	-5.745648e-06	4.246481e-06	0.01511458	0.006322269	-6.943958e-06	4.303186e-06
	-5.745648e-06	4.246481e-06	-0.03195585	-0.02913615	-2.183609e-05	1.702892e-05	0.01489116	0.006860425
	0.01511458	0.006322269	-2.183609e-05	1.702892e-05	-0.03145054	-0.03083574	-8.724096e-06	6.19269e-06
	-6.943958e-06	4.303186e-06	0.01489116	0.006860425	-8.724096e-06	6.19269e-06	-0.03217194	-0.02915865
2.9e+08	-0.03346321	-0.02934519	-5.613118e-06	4.314901e-06	0.01553279	0.005759589	-6.820587e-06	4.390132e-06
	-5.613118e-06	4.314901e-06	-0.0340916	-0.02813197	-2.124957e-05	1.737418e-05	0.01531623	0.006348486
	0.01553279	0.005759589	-2.124957e-05	1.737418e-05	-0.03364409	-0.0298891	-8.482763e-06	6.356424e-06
	-6.820587e-06	4.390132e-06	0.01531623	0.006348486	-8.482763e-06	6.356424e-06	-0.03431647	-0.0281419
3e+08	-0.03553862	-0.02826375	-5.479609e-06	4.384123e-06	0.01589608	0.005163389	-6.695819e-06	4.479551e-06
	-5.479609e-06	4.384123e-06	-0.03613963	-0.02696542	-2.065379e-05	1.771555e-05	0.01569034	0.005802977
	0.01589608	0.005163389	-2.065379e-05	1.771555e-05	-0.03575324	-0.02877767	-8.238572e-06	6.515789e-06
	-6.695819e-06	4.479551e-06	0.01569034	0.005802977	-8.238572e-06	6.515789e-06	-0.03637231	-0.0269619
3.1e+08	-0.03751976	-0.02702701	-5.345098e-06	4.453721e-06	0.01620182	0.004538581	-6.569539e-06	4.570931e-06
	-5.345098e-06	4.453721e-06	-0.0380872	-0.02564455	-2.00489e-05	1.805117e-05	0.01601089	0.005228422
	0.01620182	0.004538581	-2.00489e-05	1.805117e-05	-0.03776524	-0.02750915	-7.991579e-06	6.670398e-06
	-6.569539e-06	4.570931e-06	0.01601089	0.005228422	-7.991579e-06	6.670398e-06	-0.03832661	-0.0256268
3.2e+08	-0.03939462	-0.02564339	-5.209554e-06	4.523318e-06	0.01644782	0.003890278	-6.441628e-06	4.663811e-06
	-5.209554e-06	4.523318e-06	-0.03992231	-0.0241784	-1.943505e-05	1.837937e-05	0.01627567	0.004629541
	0.01644782	0.003890278	-1.943505e-05	1.837937e-05	-0.03966803	-0.02609221	-7.741842e-06	6.819892e-06
	-6.441628e-06	4.663811e-06	0.01627567	0.004629541	-7.741842e-06	6.819892e-06	-0.04016732	-0.02414573
3.3e+08	-0.04115199	-0.02412223	-5.072947e-06	4.592572e-06	0.01663234	0.00322375	-6.311967e-06	4.757763e-06
	-5.072947e-06	4.592572e-06	-0.04163378	-0.02257693	-1.881246e-05	1.869862e-05	0.01648287	0.004011212
	0.01663234	0.00322375	-1.881246e-05	1.869862e-05	-0.04145035	-0.02453642	-7.489436e-06	6.963934e-06
	-6.311967e-06	4.757763e-06	0.01648287	0.004011212	-7.489436e-06	6.963934e-06	-0.04188319	-0.02252874
3.4e+08	-0.04278146	-0.02247368	-4.935265e-06	4.66119e-06	0.0167541	0.002544388	-6.180466e-06	4.852414e-06
	-4.935265e-06	4.66119e-06	-0.04321134	-0.0208509	-1.818144e-05	1.900752e-05	0.01663112	0.003378439
	0.0167541	0.002544388	-1.818144e-05	1.900752e-05	-0.04310177	-0.02285218	-7.234463e-06	7.102227e-06
	-6.180466e-06	4.852414e-06	0.01663112	0.003378439	-7.234463e-06	7.102227e-06	-0.04346391	-0.02078672
3.5e+08	-0.04427353	-0.02070867	-4.796492e-06	4.728898e-06	0.01681228	0.001857666	-6.047031e-06	4.947408e-06
	-4.796492e-06	4.728898e-06	-0.04464566	-0.01901185	-1.754233e-05	1.930481e-05	0.01671947	0.002736318
	0.01681228	0.001857666	-1.754233e-05	1.930481e-05	-0.04461275	-0.02105066	-6.977034e-06	7.234487e-06
	-6.047031e-06	4.947408e-06	0.01671947	0.002736318	-6.977034e-06	7.234487e-06	-0.04490008	-0.01893132
3.6e+08	-0.04561961	-0.01883883	-4.656623e-06	4.795455e-06	0.01680653	0.001169101	-5.911588e-06	5.042425e-06
	-4.656623e-06	4.795455e-06	-0.0459284	-0.01707201	-1.689558e-05	1.958933e-05	0.01674739	0.002089996
	0.01680653	0.001169101	-1.689558e-05	1.958933e-05	-0.04597472	-0.01914371	-6.717281e-06	7.360459e-06
	-5.911588e-06	5.042425e-06	0.01674739	0.002089996	-6.717281e-06	7.360459e-06	-0.04618335	-0.01697488
3.7e+08	-0.04681212	-0.01687639	-4.515657e-06	4.860638e-06	0.01673696	0.0004842099	-5.774068e-06	5.137159e-06
	-4.515657e-06	4.860638e-06	-0.04705227	-0.01504419	-1.624163e-05	1.986001e-05	0.01671481	0.001444639
	0.01673696	0.0004842099	-1.624163e-05	1.986001e-05	-0.04718011	-0.0171438	-6.455349e-06	7.479903e-06
	-5.774068e-06	5.137159e-06	0.01671481	0.001444639	-6.455349e-06	7.479903e-06	-0.0473064	-0.01493034
3.8e+08	-0.04784449	-0.0148341	-4.373596e-06	4.924241e-06	0.01660416	-0.0001915227	-5.63441e-06	5.231325e-06
	-4.373596e-06	4.924241e-06	-0.04801107	-0.01294169	-1.558101e-05	2.011588e-05	0.01662207	0.0008053939
	0.01660416	-0.0001915227	-1.558101e-05	2.011588e-05	-0.04822238	-0.01506393	-6.191397e-06	7.592595e-06
	-5.63441e-06	5.231325e-06	0.01662207	0.0008053939	-6.191397e-06	7.592595e-06	-0.04826302	-0.01281112
3.9e+08	-0.04871122	-0.01272517	-4.23045e-06	4.986073e-06	0.01640919	-0.0008526886	-5.492568e-06	5.324652e-06
	-4.23045e-06	4.986073e-06	-0.04879971	-0.01077826	-1.49143e-05	2.035606e-05	0.01646996	0.0001773533
	0.01640919	-0.0008526886	-1.49143e-05	2.035606e-05	-0.04909607	-0.01291752	-5.925599e-06	7.698333e-06
	-5.492568e-06	5.324652e-06	0.01646996	0.0001773533	-5.925599e-06	7.698333e-06	-0.04904812	-0.0106311
4e+08	-0.04940787	-0.01056317	-4.086232e-06	5.045955e-06	0.01615353	-0.001493992	-5.348501e-06	5.416879e-06
	-4.086232e-06	5.045955e-06	-0.04941423	-0.008567957	-1.42421e-05	2.057973e-05	0.01625968	-0.0004344794
	0.01615353	-0.001493992	-1.42421e-05	2.057973e-05	-0.04979681	-0.01071837	-5.658141e-06	7.796922e-06
	-5.348501e-06	5.416879e-06	0.01625968	-0.0004344794	-5.658141e-06	7.796922e-06	-0.04965774	-0.008404436
4.1e+08	-0.04993113	-0.008361944	-3.940964e-06	5.103723e-06	0.01583915	-0.002110288	-5.202183e-06	5.507759e-06
	-3.940964e-06	5.103723e-06	-0.04985184	-0.006325062	-1.356506e-05	2.078619e-05	0.01599284	-0.001025225
	0.01583915	-0.002110288	-1.356506e-05	2.078619e-05	-0.05032137	-0.008480529	-5.389226e-06	7.888192e-06
	-5.202183e-06	5.507759e-06	0.01599284	-0.001025225	-5.389226e-06	7.888192e-06	-0.05008912	-0.006145558
4.2e+08	-0.05027882	-0.006135516	-3.794675e-06	5.159223e-06	0.0154684	-0.002696617	-5.053599e-06	5.597061e-06
	-3.794675e-06	5.159223e-06	-0.0501109	-0.004064015	-1.288389e-05	2.09748e-05	0.01567148	-0.00159016
	0.0154684	-0.002696617	-1.288389e-05	2.09748e-05	-0.05066763	-0.006218227	-5.119068e-06	7.971989e-06
	-5.053599e-06	5.597061e-06	0.01567148	-0.00159016	-5.119068e-06	7.971989e-06	-0.05034065	-0.003869017
4.3e+08	-0.05044984	-0.00389801	-3.647398e-06	5.212313e-06	0.01504407	-0.003248238	-4.902744e-06	5.684558e-06
	-3.647398e-06	5.212313e-06	-0.05019095	-0.001799292	-1.219932e-05	2.114499e-05	0.01529799	-0.002124751
	0.01504407	-0.003248238	-1.219932e-05	2.114499e-05	-0.05083465	-0.003945786	-4.847892e-06	8.048174e-06
	-4.902744e-06	5.684558e-06	0.01529799	-0.002124751	-4.847892e-06	8.048174e-06	-0.05041192	-0.001589408
4.4e+08	-0.05044427	-0.001663559	-3.499171e-06	5.262851e-06	0.01456932	-0.003760667	-4.749621e-06	5.77003e-06
	-3.499171e-06	5.262851e-06	-0.05009271	0.0004546698	-1.151208e-05	2.129628e-05	0.01487514	-0.002624684
	0.01456932	-0.003760667	-1.151208e-05	2.129628e-05	-0.05082258	-0.001677527	-4.575933e-06	8.11662e-06
	-4.749621e-06	5.77003e-06	0.01487514	-0.002624684	-4.575933e-06	8.11662e-06	-0.05030369	0.0006787192
4.5e+08	-0.05026328	0.0005537818	-3.350042e-06	5.310709e-06	0.01404771	-0.004229701	-4.594248e-06	5.853266e-06
	-3.350042e-06	5.310709e-06	-0.04981803	0.002683573	-1.082296e-05	2.142823e-05	0.01440607	-0.003085895
	0.01404771	-0.004229701	-1.082296e-05	2.142823e-05	-0.05063274	0.0005723219	-4.303436e-06	8.177218e-06
	-4.594248e-06	5.853266e-06	0.01440607	-0.003085895	-4.303436e-06	8.177218e-06	-0.05001788	0.002920958
4.6e+08	-0.04990917	0.002740127	-3.200061e-06	5.355769e-06	0.01348311	-0.004651456	-4.436646e-06	5.934021e-06
	-3.200061e-06	5.355769e-06	-0.04936991	0.004873348	-1.01328e-05	2.154045e-05	0.01389422	-0.003504595
	0.01348311	-0.004651456	-1.01328e-05	2.154045e-05	-0.05026757	0.002789716	-4.030641e-06	8.229711e-06
	-4.436646e-06	5.934021e-06	0.01389422	-0.003504595	-4.030641e-06	8.229711e-06	-0.04955758	0.005123155
4.7e+08	-0.0493853	0.004881839	-3.049286e-06	5.397909e-06	0.01287972	-0.005022383	-4.276859e-06	6.012135e-06
	-3.049286e-06	5.397909e-06	-0.04875245	0.007010239	-9.442477e-06	2.163259e-05	0.01334335	-0.0038773
