!$
! Info: Touchstone file created by Circ.  Input file=Tx_4in_Rx_100ohms_TxVia_10mils_RxVia_20mils.circ
!$
# Hz S RI R 50
0	0.004267496	3.90556e-26	2.051617e-12	1.26502e-28	3.534522e-05	5.31955e-24	-4.750512e-09	5.817142e-25
	2.053235e-12	1.266906e-28	0.004270362	4.450835e-26	-2.084891e-12	2.416933e-28	3.277378e-05	6.020526e-24
	3.53935e-05	5.322659e-24	-2.134112e-12	2.476966e-28	0.00428246	3.917451e-26	-1.302343e-09	1.594595e-25
	-4.748358e-09	5.814503e-25	3.423163e-05	6.196566e-24	-1.302389e-09	1.594651e-25	0.004275999	4.249186e-26
1e+07	0.005934564	0.003026296	2.618507e-12	-3.583648e-12	8.177145e-05	0.0008157544	-9.792779e-09	1.606012e-08
	2.618582e-12	-3.583918e-12	0.00612055	0.003051609	1.562057e-12	-4.74938e-12	0.0002235591	0.0008411902
	8.177597e-05	0.0008157516	1.562016e-12	-4.749126e-12	0.005718097	0.003134859	-7.287981e-09	1.567064e-08
	-9.792779e-09	1.606012e-08	0.0002235914	0.0008411788	-7.287981e-09	1.567064e-08	0.006073808	0.003056369
2e+07	0.007551258	0.004782298	4.587562e-12	-2.765352e-12	0.000182868	0.001641037	-7.923128e-09	1.317015e-08
	4.587417e-12	-2.765526e-12	0.007714343	0.004757325	5.405143e-12	-4.079018e-12	0.0002632574	0.001739979
	0.0001828673	0.001641034	5.405253e-12	-4.078825e-12	0.007487946	0.005046178	-9.092696e-09	1.170826e-08
	-7.923128e-09	1.317015e-08	0.0002632546	0.001739958	-9.092696e-09	1.170826e-08	0.007682544	0.004788752
3e+07	0.008926958	0.005916392	3.970189e-12	-3.613024e-12	0.0003525261	0.002439425	-5.973704e-09	1.170526e-08
	3.970148e-12	-3.613014e-12	0.009069361	0.005876367	3.556427e-12	-7.095765e-12	0.0003840398	0.002561161
	0.0003525261	0.002439424	3.55647e-12	-7.095774e-12	0.008984561	0.006222075	-6.229577e-09	1.222165e-08
	-5.973704e-09	1.170526e-08	0.0003840348	0.002561158	-6.229577e-09	1.222165e-08	0.00905146	0.00592013
4e+07	0.01020346	0.006777191	3.241366e-12	-4.430299e-12	0.0005881863	0.003215233	-4.559173e-09	1.082579e-08
	3.241399e-12	-4.430289e-12	0.01032524	0.006730316	2.6732e-12	-9.21999e-12	0.0005875397	0.003346963
	0.000588187	0.003215232	2.673163e-12	-9.22e-12	0.01036421	0.007089371	-4.168048e-09	1.198197e-08
	-4.559173e-09	1.082579e-08	0.0005875392	0.003346964	-4.168048e-09	1.198197e-08	0.01032121	0.006780405
5e+07	0.01142819	0.007446375	3.400598e-12	-6.83811e-12	0.0008870147	0.003964646	-3.599913e-09	1.058493e-08
	3.400617e-12	-6.838111e-12	0.01152874	0.007397145	2.758495e-12	-1.304597e-11	0.0009275744	0.004085156
	0.0008870157	0.003964646	2.758474e-12	-1.304597e-11	0.01167884	0.007743145	-3.41077e-09	1.211987e-08
	-3.599913e-09	1.058493e-08	0.0009275739	0.004085156	-3.41077e-09	1.211987e-08	0.0115373	0.007450311
6e+07	0.01262125	0.007961407	3.620503e-12	-1.315514e-11	0.001246124	0.004683285	-2.826221e-09	1.149861e-08
	3.620484e-12	-1.315511e-11	0.01269988	0.007913545	6.652225e-12	-1.938347e-11	0.00131873	0.004785777
	0.001246125	0.004683285	6.652253e-12	-1.93835e-11	0.01295028	0.008226302	-5.170838e-09	1.331441e-08
	-2.826221e-09	1.149861e-08	0.001318727	0.004785777	-5.170838e-09	1.331441e-08	0.01272045	0.007967862
7e+07	0.01379171	0.008343572	-4.738888e-12	-3.753537e-11	0.001670144	0.005364356	-8.099369e-10	1.658847e-08
	-4.738935e-12	-3.753525e-11	0.01384778	0.008300472	3.130815e-11	9.906478e-12	0.001758705	0.005446056
	0.001670145	0.005364356	3.130828e-11	9.906454e-12	0.01418816	0.008562809	-1.497299e-08	8.573934e-09
	-8.099361e-10	1.658847e-08	0.0017587	0.005446059	-1.497299e-08	8.573935e-09	0.01388019	0.0083539
8e+07	0.01494343	0.008606901	-5.799203e-10	2.461885e-10	0.002147848	0.006005401	3.422174e-08	-1.035909e-08
	-5.7992e-10	2.461885e-10	0.01497645	0.008571816	-3.651519e-11	-7.032771e-12	0.002244465	0.00606259
	0.00214785	0.006005401	-3.651514e-11	-7.032741e-12	0.01539611	0.008767748	-6.308456e-09	-2.745527e-09
	3.422174e-08	-1.035909e-08	0.00224446	0.006062594	-6.308455e-09	-2.745527e-09	0.01502016	0.008622016
9e+07	0.01607773	0.008762252	-4.819722e-13	-7.867833e-11	0.002675197	0.006602923	1.635252e-09	-3.136115e-09
	-4.819029e-13	-7.867836e-11	0.01608745	0.008738533	-2.036177e-11	-2.547251e-11	0.00277224	0.006631459
	0.002675198	0.006602922	-2.036177e-11	-2.547251e-11	0.01657414	0.008850993	-1.361839e-09	-1.061744e-09
	1.635252e-09	-3.136115e-09	0.002772237	0.006631463	-1.361839e-09	-1.061744e-09	0.01614129	0.008783111
1e+08	0.01719779	0.008825041	-1.265917e-11	-1.496657e-11	0.003249536	0.007155622	-1.169575e-11	-6.520465e-12
	-1.265917e-11	-1.496657e-11	0.01718459	0.008817022	-1.761125e-11	-2.838625e-11	0.003336175	0.007145576
	0.003249536	0.007155621	-1.761125e-11	-2.838625e-11	0.01771812	0.008815618	-1.73858e-11	-1.628195e-11
	-1.169575e-11	-6.520465e-12	0.003336176	0.007145576	-1.73858e-11	-1.628195e-11	0.01724647	0.008853034
1.1e+08	0.01832756	0.008760076	-1.483253e-11	-1.420448e-11	0.00387417	0.007650625	-1.396373e-11	-4.734696e-12
	-1.483253e-11	-1.420448e-11	0.01829449	0.008769633	-2.127944e-11	-2.819052e-11	0.003919707	0.007616901
	0.00387417	0.007650625	-2.127944e-11	-2.819052e-11	0.01881253	0.00867944	-2.073828e-11	-1.457678e-11
	-1.396373e-11	-4.734696e-12	0.003919707	0.007616901	-2.073828e-11	-1.457678e-11	0.0183608	0.008798918
1.2e+08	0.0194172	0.008585888	-1.656393e-11	-1.363923e-11	0.004531611	0.008084963	-1.5507e-11	-3.715256e-12
	-1.656393e-11	-1.363923e-11	0.01936385	0.008613592	-2.368192e-11	-2.855991e-11	0.004539115	0.008043232
	0.004531611	0.008084963	-2.368192e-11	-2.855991e-11	0.01987413	0.008459114	-2.336119e-11	-1.322241e-11
	-1.5507e-11	-3.715256e-12	0.004539115	0.008043232	-2.336119e-11	-1.322241e-11	0.01943469	0.00863702
1.3e+08	0.02046833	0.008316779	-1.772589e-11	-1.395962e-11	0.005218085	0.008459086	-1.670205e-11	-3.235507e-12
	-1.772589e-11	-1.395962e-11	0.02039469	0.008364342	-2.50958e-11	-2.96485e-11	0.005188281	0.008417275
	0.005218085	0.008459086	-2.50958e-11	-2.96485e-11	0.02089893	0.008153471	-2.51137e-11	-1.305379e-11
	-1.670205e-11	-3.235507e-12	0.005188281	0.008417275	-2.51137e-11	-1.305379e-11	0.02046975	0.008381847
1.4e+08	0.0214788	0.007959014	-1.891573e-11	-1.409345e-11	0.00592874	0.008771514	-1.793878e-11	-2.554473e-12
	-1.891573e-11	-1.409345e-11	0.02138505	0.008028434	-2.656035e-11	-3.048201e-11	0.005862166	0.008735805
	0.00592874	0.008771514	-2.656035e-11	-3.048201e-11	0.0218838	0.007765499	-2.690681e-11	-1.259362e-11
	-1.793878e-11	-2.554473e-12	0.005862166	0.008735805	-2.690681e-11	-1.259362e-11	0.02146389	0.008039838
1.5e+08	0.02244549	0.00751763	-2.010649e-11	-1.405555e-11	0.006658441	0.009020829	-1.918712e-11	-1.686814e-12
	-2.010649e-11	-1.405555e-11	0.02233198	0.007611059	-2.803248e-11	-3.108105e-11	0.006555737	0.008996567
	0.00665844	0.009020829	-2.803248e-11	-3.108105e-11	0.02282534	0.007298706	-2.869723e-11	-1.186372e-11
	-1.918712e-11	-1.686814e-12	0.006555737	0.008996567	-2.869723e-11	-1.186372e-11	0.02241416	0.007616174
1.6e+08	0.02336483	0.006997282	-2.127735e-11	-1.385473e-11	0.007401877	0.009205912	-2.04236e-11	-6.413232e-13
	-2.127735e-11	-1.385473e-11	0.02323213	0.007116974	-2.948097e-11	-3.145949e-11	0.007263891	0.009197945
	0.007401877	0.009205912	-2.948097e-11	-3.145949e-11	0.02371988	0.006756848	-3.045112e-11	-1.087787e-11
	-2.04236e-11	-6.413232e-13	0.007263891	0.009197945	-3.045112e-11	-1.087787e-11	0.0233172	0.007115614
1.7e+08	0.02423304	0.006402568	-2.241015e-11	-1.349828e-11	0.008153625	0.009326026	-2.16278e-11	5.748542e-13
	-2.241015e-11	-1.349828e-11	0.02408197	0.006550826	-3.08799e-11	-3.162952e-11	0.007981462	0.009338851
	0.008153625	0.009326026	-3.08799e-11	-3.162952e-11	0.02456365	0.00614391	-3.213887e-11	-9.648132e-12
	-2.16278e-11	5.748542e-13	0.007981462	0.009338851	-3.213887e-11	-9.648132e-12	0.02416947	0.006542816
1.8e+08	0.02504631	0.005738169	-2.34883e-11	-1.299331e-11	0.008908196	0.009380851	-2.278121e-11	1.954808e-12
	-2.34883e-11	-1.299331e-11	0.02487794	0.005917297	-3.220646e-11	-3.160313e-11	0.008703247	0.009418688
	0.008908196	0.009380851	-3.220646e-11	-3.160313e-11	0.02535286	0.005464131	-3.373353e-11	-8.186677e-12
	-2.278121e-11	1.954808e-12	0.008703247	0.009418688	-3.373353e-11	-8.186677e-12	0.0249674	0.005902484
1.9e+08	0.02580091	0.005008916	-2.449425e-11	-1.235014e-11	0.009660077	0.009370509	-2.386677e-11	3.491463e-12
	-2.449425e-11	-1.235014e-11	0.02561658	0.005221187	-3.344017e-11	-3.1393e-11	0.009424033	0.009437326
	0.009660077	0.009370509	-3.344017e-11	-3.1393e-11	0.02608379	0.004721995	-3.521009e-11	-6.506694e-12
	-2.386677e-11	3.491463e-12	0.009424033	0.009437326	-3.521009e-11	-6.506694e-12	0.02570751	0.005199431
2e+08	0.02649326	0.004219813	-2.541407e-11	-1.157689e-11	0.01040377	0.009295566	-2.48677e-11	5.176388e-12
	-2.541407e-11	-1.157689e-11	0.02629457	0.00446742	-3.456218e-11	-3.101281e-11	0.01013863	0.009395092
	0.01040377	0.009295566	-3.456218e-11	-3.101281e-11	0.02675292	0.003922235	-3.65453e-11	-4.622775e-12
	-2.48677e-11	5.176388e-12	0.01013863	0.009395092	-3.65453e-11	-4.622775e-12	0.02638649	0.004438612
2.1e+08	0.02711999	0.003376043	-2.623608e-11	-1.068044e-11	0.01113386	0.00915704	-2.576889e-11	7.000138e-12
	-2.623608e-11	-1.068044e-11	0.02690883	0.00366107	-3.555516e-11	-3.047746e-11	0.0108419	0.009292756
	0.01113386	0.00915704	-3.555516e-11	-3.047746e-11	0.02735691	0.003069807	-3.771763e-11	-2.551103e-12
	-2.576889e-11	7.000138e-12	0.0108419	0.009292756	-3.771763e-11	-2.551103e-12	0.02700124	0.003625124
2.2e+08	0.02767804	0.002482972	-2.694766e-11	-9.670922e-12	0.01184499	0.008956398	-2.655618e-11	8.952436e-12
	-2.694766e-11	-9.670922e-12	0.02745653	0.002807353	-3.640359e-11	-2.980304e-11	0.01152881	0.009131522
	0.01184499	0.008956398	-3.640359e-11	-2.980304e-11	0.0278927	0.002169895	-3.870734e-11	-3.094192e-13
	-2.655618e-11	8.952436e-12	0.01152881	0.009131522	-3.870734e-11	-3.094192e-13	0.02754892	0.002764216
2.3e+08	0.02816462	0.00154614	-2.753717e-11	-8.559412e-12	0.01253198	0.008695542	-2.721646e-11	1.102203e-11
	-2.753717e-11	-8.559412e-12	0.02793514	0.001911627	-3.70937e-11	-2.900671e-11	0.01219444	0.008913017
	0.01253198	0.008695542	-3.70937e-11	-2.900671e-11	0.02835755	0.001227883	-3.94965e-11	2.083047e-12
	-2.721646e-11	1.102203e-11	0.01219444	0.008913017	-3.94965e-11	2.083047e-12	0.02802698	0.001861284
2.4e+08	0.0285773	0.0005712234	-2.799408e-11	-7.357913e-12	0.01318982	0.008376804	-2.773779e-11	1.319665e-11
	-2.799408e-11	-7.357913e-12	0.02834244	0.0009793541	-3.761346e-11	-2.810681e-11	0.01283404	0.008639278
	0.01318982	0.008376804	-3.761346e-11	-2.810681e-11	0.02874904	0.0002493169	-4.00692e-11	4.605571e-12
	-2.773779e-11	1.319665e-11	0.01283404	0.008639278	-4.00692e-11	4.605571e-12	0.0284332	0.0009218323
2.5e+08	0.02891401	-0.000435959	-2.830895e-11	-6.07923e-12	0.01381369	0.008002927	-2.81094e-11	1.546317e-11
	-2.830895e-11	-6.07923e-12	0.02867656	1.611283e-05	-3.795272e-11	-2.712256e-11	0.01344303	0.008312733
	0.01381369	0.008002927	-3.795272e-11	-2.712256e-11	0.02906512	-0.0007600997	-4.041154e-11	7.236201e-12
	-2.81094e-11	1.546317e-11	0.01344303	0.008312733	-4.041154e-11	7.236201e-12	0.02876571	-4.851611e-05
2.6e+08	0.02917305	-0.001469499	-2.847358e-11	-4.736939e-12	0.01439905	0.007577047	-2.832175e-11	1.780765e-11
	-2.847358e-11	-4.736939e-12	0.02893598	-0.0009724442	-3.810327e-11	-2.607404e-11	0.01401708	0.007936185
	0.01439905	0.007577047	-3.810327e-11	-2.607404e-11	0.02930411	-0.00179455	-4.051181e-11	9.95184e-12
	-2.832175e-11	1.780765e-11	0.01401709	0.007936185	-4.051181e-11	9.95184e-12	0.029023	-0.001044066
2.7e+08	0.02935313	-0.002523396	-2.848095e-11	-3.34527e-12	0.01494162	0.007102674	-2.836658e-11	2.021542e-11
	-2.848095e-11	-3.34527e-12	0.02911957	-0.001980607	-3.805884e-11	-2.49819e-11	0.01455211	0.007512792
	0.01494162	0.007102674	-3.805884e-11	-2.49819e-11	0.02946475	-0.002848123	-4.036045e-11	1.272847e-11
	-2.836658e-11	2.021542e-11	0.01455211	0.007512792	-4.036045e-11	1.272847e-11	0.02920391	-0.00205906
2.8e+08	0.02945335	-0.003591597	-2.832541e-11	-1.919035e-12	0.01543743	0.006583662	-2.823699e-11	2.26712e-11
	-2.832541e-11	-1.919035e-12	0.02922654	-0.003002621	-3.781526e-11	-2.386733e-11	0.01504429	0.007046045
	0.01543743	0.006583662	-3.781526e-11	-2.386733e-11	0.02954615	-0.003914839	-3.995029e-11	1.554132e-11
	-2.823699e-11	2.26712e-11	0.01504429	0.007046045	-3.995029e-11	1.554132e-11	0.02930771	-0.003087692
2.9e+08	0.02947324	-0.004668024	-2.800264e-11	-4.735034e-13	0.01588286	0.006024186	-2.792743e-11	2.515919e-11
	-2.800264e-11	-4.735034e-13	0.02925651	-0.004032724	-3.737041e-11	-2.275181e-11	0.01549013	0.006539741
	0.01588286	0.006024186	-3.737041e-11	-2.275181e-11	0.02954787	-0.004988694	-3.927645e-11	1.836503e-11
	-2.792743e-11	2.515919e-11	0.01549013	0.006539741	-3.927645e-11	1.836503e-11	0.029334	-0.004124157
3e+08	0.02941274	-0.005746604	-2.750965e-11	9.757021e-13	0.01627465	0.005428714	-2.743373e-11	2.766317e-11
	-2.750965e-11	9.757021e-13	0.02920948	-0.005065168	-3.672425e-11	-2.165688e-11	0.01588647	0.005997955
	0.01627465	0.005428714	-3.672425e-11	-2.165688e-11	0.02946988	-0.006063676	-3.833637e-11	2.117392e-11
	-2.743373e-11	2.766317e-11	0.01588647	0.005997955	-3.833637e-11	2.117392e-11	0.02928282	-0.005162659
3.1e+08	0.02927221	-0.006821281	-2.684493e-11	2.412731e-12	0.01660993	0.004801969	-2.675318e-11	3.016666e-11
	-2.684493e-11	2.412731e-12	0.02908584	-0.006094235	-3.587888e-11	-2.060408e-11	0.01623049	0.005425017
	0.01660993	0.004801969	-3.587888e-11	-2.060408e-11	0.02931256	-0.007133793	-3.712998e-11	2.394215e-11
	-2.675318e-11	3.016666e-11	0.01623049	0.005425017	-3.712998e-11	2.394215e-11	0.02915457	-0.006197437
3.2e+08	0.02905243	-0.007886069	-2.600835e-11	3.821606e-12	0.01688624	0.004148904	-2.588448e-11	3.265296e-11
	-2.600835e-11	3.821606e-12	0.02888637	-0.007114278	-3.483846e-11	-1.961462e-11	0.01651976	0.004825474
	0.01688624	0.004148904	-3.483846e-11	-1.961462e-11	0.02907671	-0.008193119	-3.56595e-11	2.664392e-11
	-2.588448e-11	3.265296e-11	0.01651976	0.004825474	-3.56595e-11	2.664392e-11	0.02895008	-0.007222799
3.3e+08	0.0287546	-0.008935069	-2.500117e-11	5.186343e-12	0.01710155	0.003474659	-2.48277e-11	3.510531e-11
	-2.500117e-11	5.186343e-12	0.02861223	-0.008119738	-3.360916e-11	-1.870924e-11	0.01675222	0.004204064
	0.01710155	0.003474659	-3.360916e-11	-1.870924e-11	0.02876357	-0.009235811	-3.392953e-11	2.925369e-11
	-2.48277e-11	3.510531e-11	0.01675222	0.004204064	-3.392953e-11	2.925369e-11	0.02867053	-0.008233149
3.4e+08	0.02838035	-0.009962488	-2.382613e-11	6.491097e-12	0.01725426	0.002784532	-2.358442e-11	3.750698e-11
	-2.382613e-11	6.491097e-12	0.02826497	-0.009105163	-3.219924e-11	-1.79081e-11	0.01692623	0.003565678
	0.01725426	0.002784532	-3.219924e-11	-1.79081e-11	0.02837477	-0.01025614	-3.194701e-11	3.174638e-11
	-2.358442e-11	3.750698e-11	0.01692623	0.003565678	-3.194701e-11	3.174638e-11	0.02831751	-0.009223
3.5e+08	0.02793169	-0.01096269	-2.248735e-11	7.720242e-12	0.01734323	0.002083935	-2.21576e-11	3.984139e-11
	-2.248735e-11	7.720242e-12	0.0278465	-0.01006525	-3.061883e-11	-1.723047e-11	0.01704058	0.002915331
	0.01734323	0.002083935	-3.061883e-11	-1.723047e-11	0.02791237	-0.01124851	-2.972115e-11	3.409755e-11
	-2.21576e-11	3.984139e-11	0.01704058	0.002915331	-2.972115e-11	3.409755e-11	0.02789298	-0.01018702
3.6e+08	0.02741103	-0.0119302	-2.099009e-11	8.858652e-12	0.01736779	0.00137836	-2.055152e-11	4.209194e-11
	-2.099009e-11	8.858652e-12	0.02735909	-0.01099486	-2.887996e-11	-1.669466e-11	0.01709445	0.002258121
	0.01736779	0.00137836	-2.887996e-11	-1.669466e-11	0.02737879	-0.01220753	-2.726341e-11	3.628347e-11
	-2.055152e-11	4.209194e-11	0.01709445	0.002258121	-2.726341e-11	3.628347e-11	0.02739925	-0.01112003
3.7e+08	0.02682118	-0.01285976	-1.934141e-11	9.891409e-12	0.01732773	0.0006733356	-1.877203e-11	4.424289e-11
	-1.934141e-11	9.891409e-12	0.02680539	-0.01188904	-2.699643e-11	-1.631779e-11	0.01708748	0.001599196
	0.01732773	0.0006733357	-2.699643e-11	-1.631779e-11	0.02677686	-0.01312798	-2.458735e-11	3.828166e-11
	-1.877203e-11	4.424289e-11	0.01708748	0.001599196	-2.458735e-11	3.828166e-11	0.026839	-0.01201706
3.8e+08	0.0261653	-0.01374633	-1.75495e-11	1.08043e-11	0.01722331	-2.560702e-05	-1.682623e-11	4.62788e-11
	-1.75495e-11	1.08043e-11	0.02618835	-0.01274307	-2.498369e-11	-1.611564e-11	0.01701974	0.000943718
	0.01722331	-2.560701e-05	-2.498369e-11	-1.611564e-11	0.02610977	-0.01400488	-2.170858e-11	4.007078e-11
	-1.682623e-11	4.62788e-11	0.01701974	0.000943718	-2.170858e-11	4.007078e-11	0.02621526	-0.01287336
3.9e+08	0.02544693	-0.01458513	-1.562377e-11	1.158384e-11	0.01705526	-0.0007129778	-1.472249e-11	4.818473e-11
	-1.562377e-11	1.158384e-11	0.02551126	-0.01355243	-2.285871e-11	-1.610251e-11	0.01689173	0.0002968258
	0.01705526	-0.0007129778	-2.285871e-11	-1.610251e-11	0.02538106	-0.0148335	-1.864466e-11	4.163083e-11
	-1.472249e-11	4.818473e-11	0.01689173	0.0002968258	-1.864466e-11	4.163083e-11	0.02553137	-0.01368441
4e+08	0.02466991	-0.01537164	-1.357485e-11	1.22173e-11	0.01682476	-0.001383366	-1.247044e-11	4.994641e-11
	-1.357485e-11	1.22173e-11	0.02477775	-0.0143129	-2.063987e-11	-1.629107e-11	0.01670438	-0.0003364009
	0.01682476	-0.001383365	-2.063987e-11	-1.629107e-11	0.02459461	-0.01560941	-1.541493e-11	4.294334e-11
	-1.247044e-11	4.994641e-11	0.01670438	-0.0003364009	-1.541493e-11	4.294334e-11	0.02479097	-0.01444598
4.1e+08	0.02383845	-0.01610168	-1.141447e-11	1.26929e-11	0.01653347	-0.002031477	-1.008091e-11	5.155036e-11
	-1.141447e-11	1.26929e-11	0.02399168	-0.01502053	-1.83468e-11	-1.669224e-11	0.01645904	-0.0009509778
	0.01653347	-0.002031477	-1.83468e-11	-1.669224e-11	0.0237546	-0.01632847	-1.204044e-11	4.399154e-11
	-1.008091e-11	5.155036e-11	0.01645904	-0.0009509778	-1.204044e-11	4.399154e-11	0.02399803	-0.01515409
4.2e+08	0.02295697	-0.01677137	-9.155413e-12	1.299986e-11	0.01618348	-0.002652174	-7.565912e-12	5.298394e-11
	-9.155413e-12	1.299986e-11	0.02315721	-0.01567165	-1.60002e-11	-1.731507e-11	0.01615748	-0.00154205
	0.01618348	-0.002652174	-1.60002e-11	-1.731507e-11	0.02286551	-0.01698685	-8.543795e-12	4.476048e-11
	-7.565912e-12	5.298394e-11	0.01615748	-0.00154205	-8.543795e-12	4.476048e-11	0.02315673	-0.01580509
4.3e+08	0.02203025	-0.01737719	-6.811433e-12	1.312846e-11	0.0157773	-0.003240511	-4.938494e-12	5.423547e-11
	-6.811433e-12	1.312846e-11	0.02227875	-0.01626295	-1.362172e-11	-1.816662e-11	0.01580187	-0.002104929
	0.0157773	-0.003240511	-1.362172e-11	-1.816662e-11	0.02193208	-0.0175811	-4.948983e-12	4.523718e-11
	-4.938494e-12	5.423547e-11	0.01580187	-0.002104929	-4.948983e-12	4.523718e-11	0.02227154	-0.01639566
4.4e+08	0.02106323	-0.01791597	-4.397141e-12	1.307016e-11	0.01531787	-0.003791774	-2.212735e-12	5.529427e-11
	-4.397141e-12	1.307016e-11	0.02136092	-0.01679142	-1.12337e-11	-1.925191e-11	0.01539479	-0.002635121
	0.01531787	-0.003791774	-1.12337e-11	-1.925191e-11	0.02095929	-0.01810811	-1.281211e-12	4.541075e-11
	-2.212735e-12	5.529427e-11	0.01539479	-0.002635121	-1.281211e-12	4.541075e-11	0.02134714	-0.01692282
4.5e+08	0.02006114	-0.01838495	-1.927918e-12	1.281766e-11	0.01480851	-0.004301506	5.963565e-13	5.615081e-11
	-1.927918e-12	1.281766e-11	0.02040853	-0.01725442	-8.859043e-12	-2.057382e-11	0.01493915	-0.003128366
	0.01480851	-0.004301506	-8.859043e-12	-2.057382e-11	0.01995234	-0.01856517	2.43326e-12	4.527249e-11
	5.963565e-13	5.615081e-11	0.01493915	-0.003128366	2.43326e-12	4.527249e-11	0.0203884	-0.01738392
4.6e+08	0.01902935	-0.01878175	5.800928e-13	1.236493e-11	0.01425291	-0.004765551	3.472922e-12	5.679674e-11
	5.800928e-13	1.236493e-11	0.01942659	-0.01764969	-6.519229e-12	-2.213321e-11	0.01443823	-0.00358066
	0.01425291	-0.004765551	-6.519229e-12	-2.213321e-11	0.01891661	-0.01894996	6.166482e-12	4.481435e-11
	3.472922e-12	5.679674e-11	0.01443823	-0.00358066	6.166482e-12	4.481435e-11	0.01940037	-0.01777672
4.7e+08	0.01797339	-0.0191044	3.109951e-12	1.170724e-11	0.01365512	-0.005180075	6.399898e-12	5.722473e-11
	3.109951e-12	1.170724e-11	0.01842024	-0.01797531	-4.231407e-12	-2.392976e-11	0.01389565	-0.003988292
	0.01365512	-0.005180075	-4.231407e-12	-2.392976e-11	0.01785761	-0.01926056	9.884193e-12	4.40251e-11
