!$
! Info: Touchstone file created by Circ.  Input file=Tx_4in_Rx_93ohms_TxVia_10mils_RxVia_20mils.circ
!$
# Hz S RI R 50
0	0.00378576	3.303927e-26	-2.178538e-05	2.048838e-25	3.467706e-05	3.981951e-24	-2.181128e-05	3.017234e-24
	-2.178539e-05	2.05433e-25	0.00378644	4.448613e-26	-2.177846e-05	9.304181e-26	3.276148e-05	5.32852e-24
	3.337544e-05	3.879911e-24	-2.177846e-05	9.308932e-26	0.003801168	3.462935e-26	-2.178838e-05	3.936968e-25
	-2.181127e-05	3.016542e-24	3.42195e-05	5.484327e-24	-2.178837e-05	3.927397e-25	0.003792082	4.247052e-26
1e+07	0.0054248	-1.103325e-05	-0.0001014699	-3.058178e-06	9.528387e-05	0.0008324812	-2.003267e-05	-4.054545e-06
	-0.0001014699	-3.058179e-06	0.005535327	-1.400391e-05	-5.492812e-05	2.301902e-05	9.37968e-05	0.0008294172
	9.523996e-05	0.0008324846	-5.492812e-05	2.301902e-05	0.005552152	-1.609917e-05	-0.000101448	-2.146385e-06
	-2.003267e-05	-4.054544e-06	9.382903e-05	0.0008294058	-0.000101448	-2.146385e-06	0.005438996	-2.227324e-05
2e+07	0.006567286	-0.001272987	-8.324001e-05	-2.554616e-05	0.0001738119	0.001673899	-7.808364e-06	-2.325406e-05
	-8.324001e-05	-2.554616e-05	0.006647359	-0.001319614	-5.506715e-05	1.07631e-05	0.0001699525	0.001668673
	0.0001738021	0.001673927	-5.506715e-05	1.07631e-05	0.006669724	-0.001324894	-8.258705e-05	-2.729665e-05
	-7.808363e-06	-2.325406e-05	0.0001699495	0.001668652	-8.258705e-05	-2.729665e-05	0.006572855	-0.001295592
3e+07	0.007249192	-0.003044539	-7.038983e-05	-3.701567e-05	0.0003573024	0.002470202	-8.822782e-06	-2.863075e-05
	-7.038983e-05	-3.701567e-05	0.007299769	-0.003106358	-5.458325e-05	8.361771e-06	0.0003422812	0.002465178
	0.0003573031	0.002470206	-5.458325e-05	8.361771e-06	0.007331199	-0.003115757	-6.922304e-05	-3.91229e-05
	-8.822782e-06	-2.863075e-05	0.0003422761	0.002465176	-6.922304e-05	-3.91229e-05	0.007242634	-0.003075295
4e+07	0.007608856	-0.005004346	-6.016254e-05	-4.311685e-05	0.0006231257	0.003235388	-1.936815e-05	-2.90868e-05
	-6.016254e-05	-4.311685e-05	0.007628539	-0.005072956	-5.369672e-05	7.236871e-06	0.0005982865	0.003231622
	0.0006231217	0.003235385	-5.369672e-05	7.236871e-06	0.007672422	-0.005088045	-5.857829e-05	-4.547001e-05
	-1.936815e-05	-2.90868e-05	0.0005982861	0.003231623	-5.857829e-05	-4.547001e-05	0.007586327	-0.005043133
5e+07	0.007697411	-0.007061157	-5.155814e-05	-4.671709e-05	0.0009480329	0.003969595	-2.850999e-05	-2.721626e-05
	-5.155814e-05	-4.671709e-05	0.007684244	-0.00713068	-5.245763e-05	6.315396e-06	0.000911381	0.003968632
	0.0009480312	0.003969594	-5.245763e-05	6.315396e-06	0.007743659	-0.007153557	-4.961462e-05	-4.925856e-05
	-2.850999e-05	-2.721626e-05	0.0009113805	0.003968633	-4.961462e-05	-4.925856e-05	0.007653604	-0.007106239
6e+07	0.007541462	-0.009163705	-4.401551e-05	-4.877311e-05	0.001329838	0.004669252	-3.646392e-05	-2.363766e-05
	-4.401551e-05	-4.877311e-05	0.007493438	-0.009228931	-5.092898e-05	5.175043e-06	0.001279556	0.004672845
	0.001329843	0.00466925	-5.092898e-05	5.175043e-06	0.007571091	-0.009262092	-4.174932e-05	-5.146509e-05
	-3.646392e-05	-2.363766e-05	0.001279553	0.004672846	-4.174932e-05	-5.146509e-05	0.007471939	-0.009212113
7e+07	0.007158532	-0.01127588	-3.715168e-05	-4.966264e-05	0.001765744	0.005330316	-4.331127e-05	-1.86314e-05
	-3.715168e-05	-4.966264e-05	0.007073834	-0.01133171	-4.920151e-05	3.546954e-06	0.001700209	0.005340403
	0.001765754	0.005330309	-4.920151e-05	3.546953e-06	0.007172047	-0.01137796	-3.458483e-05	-5.247449e-05
	-4.331127e-05	-1.86314e-05	0.001700204	0.005340405	-3.458483e-05	-5.247449e-05	0.007059568	-0.01132455
8e+07	0.006562451	-0.01336889	-3.064438e-05	-4.947652e-05	0.002252442	0.005948661	-4.904059e-05	-1.228557e-05
	-3.064438e-05	-4.947652e-05	0.006439599	-0.0134101	-4.740716e-05	1.184862e-06	0.002170232	0.005967368
	0.002252453	0.00594865	-4.740716e-05	1.184861e-06	0.006560315	-0.01347248	-2.778617e-05	-5.237634e-05
	-4.904059e-05	-1.228557e-05	0.002170227	0.005967372	-2.778617e-05	-5.237634e-05	0.006430411	-0.01341472
9e+07	0.005765918	-0.01541742	-2.412258e-05	-4.800571e-05	0.002786154	0.006520253	-5.350882e-05	-4.443477e-06
	-2.412258e-05	-4.800571e-05	0.005603936	-0.01543839	-4.575255e-05	-2.239875e-06	0.002686071	0.006549915
	0.00278616	0.006520244	-4.575255e-05	-2.239875e-06	0.005748722	-0.01552015	-2.437292e-05	-4.965052e-05
	-5.350882e-05	-4.443477e-06	0.002686068	0.006549918	-2.437292e-05	-4.965052e-05	0.005597084	-0.01545691
1e+08	0.004785024	-0.01739116	-2.735367e-05	-3.888641e-05	0.003362629	0.007040995	-5.585954e-05	6.387384e-06
	-2.735367e-05	-3.888641e-05	0.004584211	-0.01738442	-4.483842e-05	-7.959732e-06	0.003243805	0.007084313
	0.003362629	0.007040996	-4.483842e-05	-7.959732e-06	0.004754251	-0.01748897	-3.167175e-05	-3.837796e-05
	-5.585954e-05	6.387384e-06	0.003243805	0.007084312	-3.167175e-05	-3.837796e-05	0.004575836	-0.01741998
1.1e+08	0.003662277	-0.0193169	-2.660871e-05	-3.116162e-05	0.003976083	0.007508707	-5.153161e-05	1.441489e-05
	-2.660871e-05	-3.116162e-05	0.003427829	-0.01928022	-3.961003e-05	-1.596534e-05	0.003838103	0.007567397
	0.003976083	0.007508707	-3.961003e-05	-1.596534e-05	0.003625661	-0.01941186	-3.062749e-05	-3.018537e-05
	-5.153161e-05	1.441489e-05	0.003838103	0.007567397	-3.062749e-05	-3.018537e-05	0.003410642	-0.01932873
1.2e+08	0.002355939	-0.02116571	-2.680236e-05	-2.642801e-05	0.004623311	0.007920665	-4.802258e-05	1.960584e-05
	-2.680236e-05	-2.642801e-05	0.002086243	-0.02109786	-3.39405e-05	-2.262019e-05	0.004465686	0.00799729
	0.004623311	0.007920665	-3.39405e-05	-2.262019e-05	0.002311343	-0.02126072	-3.058091e-05	-2.516764e-05
	-4.802258e-05	1.960584e-05	0.004465686	0.00799729	-3.058091e-05	-2.516764e-05	0.002059996	-0.02115602
1.3e+08	0.0008834065	-0.02291133	-2.721694e-05	-2.261679e-05	0.005299245	0.008273905	-4.473337e-05	2.370585e-05
	-2.721694e-05	-2.261679e-05	0.0005778211	-0.022809	-2.841049e-05	-2.930608e-05	0.005121856	0.008371164
	0.005299245	0.008273906	-2.841049e-05	-2.930608e-05	0.0008294061	-0.02300687	-3.077696e-05	-2.114652e-05
	-4.473337e-05	2.370585e-05	0.005121856	0.008371164	-3.077696e-05	-2.114652e-05	0.0005417111	-0.02287515
1.4e+08	-0.0007411655	-0.02453805	-2.77066e-05	-1.928198e-05	0.005998648	0.008566217	-4.20839e-05	2.625649e-05
	-2.77066e-05	-1.928198e-05	-0.001082796	-0.02439736	-2.319626e-05	-3.634683e-05	0.005801663	0.008686809
	0.005998648	0.008566217	-2.319626e-05	-3.634683e-05	-0.0008057312	-0.02463386	-3.106386e-05	-1.765068e-05
	-4.20839e-05	2.625649e-05	0.005801663	0.00868681	-3.106386e-05	-1.765068e-05	-0.00112958	-0.02447005
1.5e+08	-0.002503952	-0.02603288	-2.820622e-05	-1.620935e-05	0.00671612	0.008795883	-4.142211e-05	2.561349e-05
	-2.820622e-05	-1.620935e-05	-0.002881319	-0.02584965	-1.843198e-05	-4.38896e-05	0.006499986	0.008942501
	0.00671612	0.008795883	-1.843198e-05	-4.38896e-05	-0.002580009	-0.02612827	-3.137433e-05	-1.445306e-05
	-4.142211e-05	2.561349e-05	0.006499986	0.008942501	-3.137433e-05	-1.445306e-05	-0.002939505	-0.0259275
1.6e+08	-0.00439104	-0.02738462	-2.865662e-05	-1.330654e-05	0.007446139	0.008961671	-4.072513e-05	2.522862e-05
	-2.865662e-05	-1.330654e-05	-0.004803348	-0.0271545	-1.423912e-05	-5.200403e-05	0.007211586	0.009136983
	0.007446139	0.008961671	-1.423912e-05	-5.200403e-05	-0.0044793	-0.02747868	-3.164865e-05	-1.145405e-05
	-4.072513e-05	2.522862e-05	0.007211586	0.009136983	-3.164865e-05	-1.145405e-05	-0.004873544	-0.02723612
1.7e+08	-0.006388285	-0.02858355	-2.902444e-05	-1.051029e-05	0.008183099	0.009062833	-4.000231e-05	2.503458e-05
	-2.902444e-05	-1.051029e-05	-0.00683423	-0.02830213	-1.073312e-05	-6.071312e-05	0.007931144	0.009269464
	0.008183099	0.009062833	-1.073312e-05	-6.071312e-05	-0.006489256	-0.02867523	-3.185335e-05	-8.584837e-06
	-4.000231e-05	2.503458e-05	0.007931144	0.009269464	-3.185335e-05	-8.584837e-06	-0.00691692	-0.02838613
1.8e+08	-0.008481258	-0.02962136	-2.928353e-05	-7.783848e-06	0.008921356	0.00909911	-3.925807e-05	2.49861e-05
	-2.928353e-05	-7.783848e-06	-0.008959016	-0.02928421	-8.024207e-06	-7.000688e-05	0.008653305	0.009339617
	0.008921356	0.00909911	-8.024207e-06	-7.000688e-05	-0.008595267	-0.02970949	-3.196233e-05	-5.804355e-06
	-3.925807e-05	2.49861e-05	0.008653305	0.009339617	-3.196233e-05	-5.804355e-06	-0.009054548	-0.0293692
1.9e+08	-0.01065525	-0.030491	-2.941272e-05	-5.107179e-06	0.00965527	0.009070734	-3.849476e-05	2.505048e-05
	-2.941272e-05	-5.107179e-06	-0.01116247	-0.03009377	-6.216996e-06	-7.984941e-05	0.009372717	0.009347577
	0.00965527	0.009070734	-6.216996e-06	-7.984941e-05	-0.01078246	-0.0305744	-3.195453e-05	-3.088985e-06
	-3.849476e-05	2.505048e-05	0.009372717	0.009347577	-3.195453e-05	-3.088985e-06	-0.01127106	-0.03017837
2e+08	-0.01289529	-0.03118674	-2.939489e-05	-2.471563e-06	0.01037925	0.008978423	-3.771346e-05	2.520324e-05
	-2.939489e-05	-2.471563e-06	-0.0134291	-0.03072525	-5.408874e-06	-9.018349e-05	0.01008407	0.009293935
	0.01037925	0.008978423	-5.408874e-06	-9.018349e-05	-0.01303572	-0.0312642	-3.181286e-05	-4.269076e-07
	-3.771346e-05	2.520324e-05	0.01008407	0.009293935	-3.181286e-05	-4.269076e-07	-0.01355085	-0.03080807
2.1e+08	-0.01518623	-0.03170413	-2.921633e-05	1.237941e-07	0.01108778	0.008823375	-3.691473e-05	2.54254e-05
	-2.921633e-05	1.237941e-07	-0.01574324	-0.0311744	-5.689099e-06	-0.0001009333	0.01078214	0.009179731
	0.01108778	0.008823375	-5.689099e-06	-0.0001009333	-0.01533975	-0.03177444	-3.152358e-05	2.185449e-06
	-3.691473e-05	2.54254e-05	0.01078214	0.009179731	-3.152358e-05	2.185449e-06	-0.01587812	-0.03125409
2.2e+08	-0.01751277	-0.03204001	-2.886669e-05	2.673894e-06	0.0117755	0.008607258	-3.609871e-05	2.570192e-05
	-2.886669e-05	2.673894e-06	-0.01808912	-0.03143834	-7.13692e-06	-0.0001120074	0.0114618	0.009006445
	0.0117755	0.008607258	-7.13692e-06	-0.0001120074	-0.01767916	-0.03210198	-3.107612e-05	4.745616e-06
	-3.609871e-05	2.570192e-05	0.0114618	0.009006445	-3.107612e-05	4.745616e-06	-0.01823697	-0.03151356
2.3e+08	-0.01985957	-0.03219248	-2.833885e-05	5.169487e-06	0.01243722	0.008332197	-3.526529e-05	2.602064e-05
	-2.833885e-05	5.169487e-06	-0.02045093	-0.0315155	-9.819351e-06	-0.0001233018	0.01211812	0.008775986
	0.01243722	0.008332197	-9.819351e-06	-0.0001233018	-0.02003846	-0.03224492	-3.046303e-05	7.246669e-06
	-3.526529e-05	2.602064e-05	0.01211812	0.008775986	-3.046303e-05	7.246669e-06	-0.02061149	-0.03158494
2.4e+08	-0.02221132	-0.0321609	-2.762862e-05	7.598429e-06	0.01306793	0.008000751	-3.441454e-05	2.637139e-05
	-2.762862e-05	7.598429e-06	-0.02281295	-0.03140566	-1.379219e-05	-0.0001346993	0.01274632	0.00849067
	0.01306793	0.008000751	-1.379219e-05	-0.0001346993	-0.02240225	-0.03220267	-2.967961e-05	9.678621e-06
	-3.441454e-05	2.637139e-05	0.01274632	0.00849067	-2.967961e-05	9.678621e-06	-0.02298583	-0.03146805
2.5e+08	-0.02455282	-0.03194588	-2.673505e-05	9.946426e-06	0.01366289	0.0076159	-3.354637e-05	2.674568e-05
	-2.673505e-05	9.946426e-06	-0.0251596	-0.03110986	-1.909179e-05	-0.0001460821	0.01334186	0.008153207
	0.01366289	0.0076159	-1.909179e-05	-0.0001460821	-0.02475522	-0.03197588	-2.872421e-05	1.202915e-05
	-3.354637e-05	2.674568e-05	0.01334186	0.008153207	-2.872421e-05	1.202915e-05	-0.0253443	-0.03116397
2.6e+08	-0.02686909	-0.03154928	-2.561039e-05	1.218989e-05	0.01421766	0.007181013	-3.26611e-05	2.713586e-05
	-2.561039e-05	1.218989e-05	-0.02747556	-0.03063043	-2.849987e-05	-0.0001526608	0.01390046	0.007766675
	0.01421766	0.007181013	-2.849987e-05	-0.0001526608	-0.0270823	-0.03156644	-2.754872e-05	1.42782e-05
	-3.26611e-05	2.713586e-05	0.01390046	0.007766675	-2.754872e-05	1.42782e-05	-0.02767146	-0.0306751
2.7e+08	-0.02914541	-0.03097412	-2.430013e-05	1.431213e-05	0.01472808	0.006699827	-3.175873e-05	2.753591e-05
	-2.430013e-05	1.431213e-05	-0.02974583	-0.02997094	-3.928797e-05	-0.0001580122	0.01441812	0.0073345
	0.01472808	0.006699827	-3.928797e-05	-0.0001580122	-0.02936867	-0.03097744	-2.619694e-05	1.640952e-05
	-3.175873e-05	2.753591e-05	0.01441812	0.0073345	-2.619694e-05	1.640952e-05	-0.02995223	-0.03000505
2.8e+08	-0.03136747	-0.03022463	-2.282095e-05	1.629748e-05	0.01519035	0.006176415	-3.083954e-05	2.794043e-05
	-2.282095e-05	1.629748e-05	-0.03195585	-0.02913615	-5.095208e-05	-0.0001627883	0.01489116	0.006860425
	0.01519035	0.006176415	-5.095208e-05	-0.0001627883	-0.03159993	-0.03021316	-2.468425e-05	1.840861e-05
	-3.083954e-05	2.794043e-05	0.01489116	0.006860425	-2.468425e-05	1.840861e-05	-0.03217194	-0.02915865
2.9e+08	-0.03352143	-0.02930613	-2.118388e-05	1.812999e-05	0.01560104	0.005615156	-2.990399e-05	2.834454e-05
	-2.118388e-05	1.812999e-05	-0.0340916	-0.02813197	-6.346945e-05	-0.000166872	0.01531623	0.006348486
	0.01560104	0.005615156	-6.346945e-05	-0.000166872	-0.03376212	-0.02927898	-2.302033e-05	2.026074e-05
	-2.990399e-05	2.834454e-05	0.01531623	0.006348486	-2.302033e-05	2.026074e-05	-0.03431647	-0.0281419
3e+08	-0.03559394	-0.02822502	-1.940242e-05	1.979461e-05	0.01595711	0.005020697	-2.89526e-05	2.874395e-05
	-1.940242e-05	1.979461e-05	-0.03613963	-0.02696542	-7.680146e-05	-0.000170148	0.01569034	0.005802977
	0.01595711	0.005020697	-7.680146e-05	-0.000170148	-0.03584185	-0.0281814	-2.121725e-05	2.195184e-05
	-2.89526e-05	2.874395e-05	0.01569034	0.005802977	-2.121725e-05	2.195184e-05	-0.03637231	-0.0269619
3.1e+08	-0.03757234	-0.02698876	-1.749218e-05	2.127763e-05	0.01625593	0.004397926	-2.798613e-05	2.913486e-05
	-1.749218e-05	2.127763e-05	-0.0380872	-0.02564455	-9.089498e-05	-0.0001725028	0.01601089	0.005228422
	0.01625593	0.004397926	-9.089498e-05	-0.0001725028	-0.03782635	-0.02692794	-1.928906e-05	2.346899e-05
	-2.798613e-05	2.913486e-05	0.01601089	0.005228422	-1.928906e-05	2.346899e-05	-0.03832661	-0.0256268
3.2e+08	-0.03944462	-0.02560573	-1.547072e-05	2.256695e-05	0.01649533	0.003751927	-2.700543e-05	2.951385e-05
	-1.547072e-05	2.256695e-05	-0.03992231	-0.0241784	-0.0001056818	-0.0001738284	0.01627567	0.004629541
	0.01649533	0.003751927	-0.0001056818	-0.0001738284	-0.03970357	-0.0255271	-1.725173e-05	2.480064e-05
	-2.700543e-05	2.951385e-05	0.01627567	0.004629541	-1.725173e-05	2.480064e-05	-0.04016732	-0.02414573
3.3e+08	-0.04119955	-0.02408526	-1.335733e-05	2.365241e-05	0.01667354	0.003087946	-2.601144e-05	2.987786e-05
	-1.335733e-05	2.365241e-05	-0.04163378	-0.02257693	-0.0001210794	-0.000174024	0.01648287	0.004011212
	0.01667354	0.003087946	-0.0001210794	-0.000174024	-0.04146219	-0.02398828	-1.512291e-05	2.593693e-05
	-2.601144e-05	2.987786e-05	0.01648287	0.004011212	-1.512291e-05	2.593693e-05	-0.04188319	-0.02252874
3.4e+08	-0.04282673	-0.02243749	-1.117258e-05	2.452595e-05	0.01678928	0.002411354	-2.500532e-05	3.02242e-05
	-1.117258e-05	2.452595e-05	-0.04321134	-0.0208509	-0.0001369929	-0.0001729965	0.01663112	0.003378439
	0.01678928	0.002411354	-0.0001369929	-0.0001729965	-0.04309177	-0.02232175	-1.292151e-05	2.686988e-05
	-2.500532e-05	3.02242e-05	0.01663112	0.003378439	-1.292151e-05	2.686988e-05	-0.04346391	-0.02078672
3.5e+08	-0.04431663	-0.02067334	-8.938152e-06	2.518186e-05	0.01684172	0.001727603	-2.398826e-05	3.055046e-05
	-8.938152e-06	2.518186e-05	-0.04464566	-0.01901185	-0.0001533149	-0.0001706629	0.01671947	0.002736318
	0.01684172	0.001727603	-0.0001533149	-0.0001706629	-0.04458274	-0.02053852	-1.066759e-05	2.759362e-05
	-2.398826e-05	3.055046e-05	0.01671947	0.002736318	-1.066759e-05	2.759362e-05	-0.04490008	-0.01893132
3.6e+08	-0.04566068	-0.01880442	-6.676408e-06	2.561687e-05	0.01683052	0.00104219	-2.296162e-05	3.085455e-05
	-6.676408e-06	2.561687e-05	-0.0459284	-0.01707201	-0.0001699272	-0.0001669515	0.01674739	0.002089996
	0.01683052	0.00104219	-0.0001699272	-0.0001669515	-0.04592649	-0.01865032	-8.381911e-06	2.810448e-05
	-2.296162e-05	3.085455e-05	0.01674739	0.002089996	-8.381911e-06	2.810448e-05	-0.04618335	-0.01697488
3.7e+08	-0.04685127	-0.01684294	-4.410148e-06	2.583023e-05	0.01675578	0.0003606191	-2.19268e-05	3.113464e-05
	-4.410148e-06	2.583023e-05	-0.04705227	-0.01504419	-0.0001867025	-0.0001618034	0.01671481	0.001444639
	0.01675578	0.0003606191	-0.0001867025	-0.0001618034	-0.0471154	-0.0166695	-6.085774e-06	2.840111e-05
	-2.19268e-05	3.113464e-05	0.01671481	0.001444639	-6.085774e-06	2.840111e-05	-0.0473064	-0.01493034
3.8e+08	-0.04788185	-0.01480165	-2.162251e-06	2.582382e-05	0.01661809	-0.0003116437	-2.088529e-05	3.138916e-05
	-2.162251e-06	2.582382e-05	-0.04801107	-0.01294169	-0.0002035055	-0.0001551731	0.01662207	0.0008053939
	0.01661809	-0.0003116437	-0.0002035055	-0.0001551731	-0.04814287	-0.01460892	-3.800644e-06	2.848455e-05
	-2.088529e-05	3.138916e-05	0.01662207	0.0008053939	-3.800644e-06	2.848455e-05	-0.04826302	-0.01281112
3.9e+08	-0.04874688	-0.01269377	4.468772e-08	2.560205e-05	0.01641848	-0.0009692041	-1.983863e-05	3.161677e-05
	4.468772e-08	2.560205e-05	-0.04879971	-0.01077826	-0.0002201945	-0.0001470298	0.01646996	0.0001773533
	0.01641848	-0.0009692041	-0.0002201945	-0.0001470298	-0.0490034	-0.01248191	-1.547838e-06	2.83582e-05
	-1.983863e-05	3.161677e-05	0.01646996	0.0001773533	-1.547838e-06	2.83582e-05	-0.04904812	-0.0106311
4e+08	-0.04944194	-0.01053284	2.18863e-06	2.517193e-05	0.01615846	-0.00160678	-1.878838e-05	3.181636e-05
	2.18863e-06	2.517193e-05	-0.04941423	-0.008567957	-0.0002366234	-0.0001373581	0.01625968	-0.0004344794
	0.01615846	-0.00160678	-0.0002366234	-0.0001373581	-0.04969256	-0.01030215	6.517332e-07	2.802784e-05
	-1.878838e-05	3.181636e-05	0.01625968	-0.0004344794	6.517332e-07	2.802784e-05	-0.04965774	-0.008404436
4.1e+08	-0.04996371	-0.008332694	4.248445e-06	2.454288e-05	0.01583997	-0.002219239	-1.773614e-05	3.198705e-05
	4.248445e-06	2.454288e-05	-0.04985184	-0.006325062	-0.0002526435	-0.0001261581	0.01599284	-0.001025225
	0.01583997	-0.002219239	-0.0002526435	-0.0001261581	-0.05020704	-0.008083598	2.777889e-06	2.750157e-05
	-1.773614e-05	3.198705e-05	0.01599284	-0.001025225	2.777889e-06	2.750157e-05	-0.05008912	-0.006145558
4.2e+08	-0.05030998	-0.006107366	6.204225e-06	2.37267e-05	0.01546537	-0.002801634	-1.668353e-05	3.212818e-05
	6.204225e-06	2.37267e-05	-0.0501109	-0.004064015	-0.0002681047	-0.0001134458	0.01567148	-0.00159016
	0.01546537	-0.002801634	-0.0002681047	-0.0001134458	-0.05054469	-0.005840404	4.811476e-06	2.678966e-05
	-1.668353e-05	3.212818e-05	0.01567148	-0.00159016	4.811476e-06	2.678966e-05	-0.05034065	-0.003869017
4.3e+08	-0.05047968	-0.003870969	8.037514e-06	2.273735e-05	0.01503744	-0.003349235	-1.563214e-05	3.223927e-05
	8.037514e-06	2.273735e-05	-0.05019095	-0.001799292	-0.0002828584	-9.925352e-05	0.01529799	-0.002124751
	0.01503744	-0.003349235	-0.0002828584	-9.925352e-05	-0.05070445	-0.003586806	6.734581e-06	2.590449e-05
	-1.563214e-05	3.223927e-05	0.01529799	-0.002124751	6.734581e-06	2.590449e-05	-0.05041192	-0.001589408
4.4e+08	-0.05047286	-0.001637633	9.731603e-06	2.159079e-05	0.01455935	-0.003857567	-1.458355e-05	3.232002e-05
	9.731603e-06	2.159079e-05	-0.05009271	0.0004546698	-0.0002967581	-8.362928e-05	0.01487514	-0.002624684
	0.01455935	-0.003857567	-0.0002967581	-8.362928e-05	-0.05068645	-0.001337048	8.530809e-06	2.486033e-05
	-1.458355e-05	3.232002e-05	0.01487514	-0.002624684	8.530809e-06	2.486033e-05	-0.05030369	0.0006787192
4.5e+08	-0.0502907	0.0005785922	1.127173e-05	2.030476e-05	0.01403463	-0.004322441	-1.353927e-05	3.237028e-05
	1.127173e-05	2.030476e-05	-0.04981803	0.002683573	-0.0003096622	-6.663686e-05	0.01440607	-0.003085895
	0.01403463	-0.004322441	-0.0003096622	-6.663686e-05	-0.05049192	0.0008947059	1.018548e-05	2.36732e-05
	-1.353927e-05	3.237028e-05	0.01440607	-0.003085895	1.018548e-05	2.36732e-05	-0.05001788	0.002920958
4.6e+08	-0.04993547	0.002763828	1.264534e-05	1.88985e-05	0.01346717	-0.004739979	-1.250082e-05	3.239003e-05
	1.264534e-05	1.88985e-05	-0.04936991	0.004873348	-0.000321435	-4.835486e-05	0.01389422	-0.003504595
	0.01346717	-0.004739979	-0.000321435	-4.835486e-05	-0.05012321	0.003094466	1.168588e-05	2.236052e-05
	-1.250082e-05	3.239003e-05	0.01389422	-0.003504595	1.168588e-05	2.236052e-05	-0.04955758	0.005123155
4.7e+08	-0.04941057	0.004904451	1.384217e-05	1.739248e-05	0.01286115	-0.005106644	-1.14696e-05	3.237941e-05
