!$
! Info: Touchstone file created by Circ.  Input file=Tx_4in_Rx_93ohms_TxVia_10mils_RxVia_20mils.circ
!$
# Hz S RI R 50
0	0.00378705	3.141247e-26	-1.743818e-11	4.120511e-27	3.315015e-05	3.8964e-24	-2.171669e-08	2.65951e-24
	-1.74239e-11	4.119493e-27	0.00378644	4.448613e-26	1.747162e-11	9.765067e-29	3.276148e-05	5.32852e-24
	3.126046e-05	3.84157e-24	1.743622e-11	9.799224e-29	0.00380126	3.269401e-26	1.754233e-08	7.498226e-27
	-2.171743e-08	2.6596e-24	3.42195e-05	5.484327e-24	1.754286e-08	7.497052e-27	0.003792082	4.247052e-26
1e+07	0.005606442	0.0002340976	3.992459e-11	-3.862929e-11	9.251154e-05	0.0007641614	-8.11851e-09	1.882458e-08
	3.992462e-11	-3.862959e-11	0.005535327	-1.400391e-05	-1.135468e-12	-7.239386e-11	9.37968e-05	0.0008294172
	9.247278e-05	0.0007641863	-1.135539e-12	-7.239356e-11	0.005244845	1.225036e-05	-1.007765e-08	1.829651e-08
	-8.11851e-09	1.882458e-08	9.382903e-05	0.0008294058	-1.007765e-08	1.829651e-08	0.005438996	-2.227324e-05
2e+07	0.006939867	-0.0009339828	4.379479e-11	-4.198053e-11	0.0002205175	0.00155194	-9.442411e-09	2.23938e-08
	4.379452e-11	-4.198079e-11	0.006647359	-0.001319614	2.207942e-11	-1.748275e-10	0.0001699525	0.001668673
	0.0002205246	0.001551958	2.207959e-11	-1.748273e-10	0.006458167	-0.001166167	-1.387632e-08	1.755797e-08
	-9.442411e-09	2.23938e-08	0.0001699495	0.001668652	-1.387632e-08	1.755797e-08	0.006572855	-0.001295592
3e+07	0.00776987	-0.002694724	5.0734e-11	-1.009294e-10	0.0004094479	0.002327158	-5.008903e-09	1.759882e-08
	5.073394e-11	-1.009294e-10	0.007299769	-0.003106358	-3.089174e-11	-2.111693e-10	0.0003422812	0.002465178
	0.0004094453	0.002327159	-3.089162e-11	-2.111693e-10	0.007195056	-0.002918322	-1.181205e-08	2.01545e-08
	-5.008903e-09	1.759882e-08	0.0003422761	0.002465176	-1.181205e-08	2.01545e-08	0.007242634	-0.003075295
4e+07	0.00825278	-0.004678395	5.363386e-11	-1.475221e-10	0.0006603172	0.003083932	-3.379647e-09	1.510497e-08
	5.363391e-11	-1.475221e-10	0.007628539	-0.005072956	-1.849279e-12	-2.625718e-10	0.0005982865	0.003231622
	0.0006603123	0.003083935	-1.849239e-12	-2.625719e-10	0.007600877	-0.004876694	-7.145786e-09	1.821923e-08
	-3.379647e-09	1.510497e-08	0.0005982861	0.003231623	-7.145787e-09	1.821923e-08	0.007586327	-0.005043133
5e+07	0.008445732	-0.00678242	6.627452e-11	-1.885431e-10	0.0009718432	0.003816451	-2.277454e-09	1.517039e-08
	6.627455e-11	-1.885431e-10	0.007684244	-0.00713068	-3.46239e-11	-3.254408e-10	0.000911381	0.003968632
	0.000971842	0.003816453	-3.462389e-11	-3.254408e-10	0.007728891	-0.006942724	-3.600287e-09	1.418526e-08
	-2.277454e-09	1.517039e-08	0.0009113805	0.003968633	-3.600287e-09	1.418526e-08	0.007653604	-0.007106239
6e+07	0.008377864	-0.008950415	9.332018e-11	-2.300388e-10	0.001341915	0.004519507	1.981218e-09	1.721504e-08
	9.332016e-11	-2.300387e-10	0.007493438	-0.009228931	-7.302682e-11	-3.661347e-10	0.001279556	0.004672845
	0.001341916	0.004519505	-7.302683e-11	-3.661347e-10	0.007606533	-0.009062218	-1.344537e-09	9.957341e-09
	1.981218e-09	1.721504e-08	0.001279553	0.004672846	-1.344537e-09	9.957341e-09	0.007471939	-0.009212113
7e+07	0.008067634	-0.01114377	1.319226e-10	-2.686862e-10	0.001767932	0.005188354	9.39731e-09	1.322914e-08
	1.319226e-10	-2.68686e-10	0.007073834	-0.01133171	-1.088964e-10	-4.072942e-10	0.001700209	0.005340403
	0.001767933	0.005188349	-1.088965e-10	-4.072943e-10	0.007251625	-0.0111976	2.44114e-11	6.159057e-09
	9.39731e-09	1.322914e-08	0.001700204	0.005340405	2.441141e-11	6.159057e-09	0.007059568	-0.01132455
8e+07	0.00752869	-0.01333306	1.628246e-10	-2.876414e-10	0.002246946	0.005818796	1.00572e-08	7.031643e-09
	1.628247e-10	-2.876413e-10	0.006439599	-0.0134101	-1.423678e-10	-4.612179e-10	0.002170232	0.005967368
	0.002246945	0.00581879	-1.423679e-10	-4.612179e-10	0.006677956	-0.01331945	7.805003e-10	2.943428e-09
	1.00572e-08	7.031643e-09	0.002170227	0.005967372	7.805003e-10	2.943428e-09	0.006430411	-0.01341472
9e+07	0.006772017	-0.01549515	1.421022e-10	-3.215727e-10	0.002775911	0.006407625	8.594269e-09	4.282108e-09
	1.421023e-10	-3.215727e-10	0.005603936	-0.01543839	-1.58694e-10	-5.293388e-10	0.002686071	0.006549915
	0.00277591	0.006407621	-1.586941e-10	-5.293388e-10	0.005897732	-0.0154028	1.026251e-09	2.810557e-10
	8.594269e-09	4.282108e-09	0.002686068	0.006549918	1.026251e-09	2.810557e-10	0.005597084	-0.01545691
1e+08	0.005803506	-0.01761899	1.515356e-10	-4.55078e-10	0.00335358	0.006957069	7.217735e-09	2.870751e-09
	1.515356e-10	-4.55078e-10	0.004584211	-0.01738442	-1.465276e-10	-5.897014e-10	0.003243805	0.007084313
	0.00335358	0.006957069	-1.465276e-10	-5.897014e-10	0.004924067	-0.01742282	8.659823e-10	-1.996458e-09
	7.217735e-09	2.870751e-09	0.003243805	0.007084312	8.659823e-10	-1.996458e-09	0.004575836	-0.01741998
1.1e+08	0.004603462	-0.01965442	1.721236e-10	-5.165501e-10	0.003949015	0.007462866	8.183417e-09	2.493687e-09
	1.721236e-10	-5.165501e-10	0.003427829	-0.01928022	-1.681076e-10	-6.361068e-10	0.003838103	0.007567397
	0.003949015	0.007462866	-1.681076e-10	-6.361068e-10	0.00378192	-0.01938276	1.012196e-09	-2.29555e-09
	8.183417e-09	2.493687e-09	0.003838103	0.007567397	1.012196e-09	-2.29555e-09	0.003410642	-0.01932873
1.2e+08	0.003231413	-0.0215722	1.907926e-10	-5.802519e-10	0.00457701	0.007902561	9.147999e-09	1.985228e-09
	1.907926e-10	-5.802519e-10	0.002086243	-0.02109786	-1.901162e-10	-6.801248e-10	0.004465686	0.00799729
	0.00457701	0.007902561	-1.901162e-10	-6.801248e-10	0.00245834	-0.02125434	1.158113e-09	-2.617018e-09
	9.147999e-09	1.985228e-09	0.004465686	0.00799729	1.158113e-09	-2.617018e-09	0.002059996	-0.02115602
1.3e+08	0.001696959	-0.02337008	2.081685e-10	-6.468126e-10	0.005234978	0.008280419	1.009805e-08	1.343781e-09
	2.081685e-10	-6.468126e-10	0.0005778211	-0.022809	-2.122364e-10	-7.218686e-10	0.005121856	0.008371164
	0.005234977	0.00828042	-2.122364e-10	-7.218686e-10	0.000968452	-0.02301799	1.301829e-09	-2.961954e-09
	1.009805e-08	1.343781e-09	0.005121856	0.008371164	1.301829e-09	-2.961954e-09	0.0005417111	-0.02287515
1.4e+08	1.288977e-05	-0.02503775	2.241718e-10	-7.166686e-10	0.005918029	0.00859575	1.101924e-08	5.69402e-10
	2.241718e-10	-7.166686e-10	-0.001082796	-0.02439736	-2.341503e-10	-7.615411e-10	0.005801663	0.008686809
	0.005918029	0.00859575	-2.341503e-10	-7.615411e-10	-0.0006738755	-0.02465928	1.440815e-09	-3.33112e-09
	1.101924e-08	5.69402e-10	0.005801663	0.00868681	1.440815e-09	-3.33112e-09	-0.00112958	-0.02447005
1.5e+08	-0.001807461	-0.02656483	2.383581e-10	-7.895715e-10	0.006620875	0.008847493	1.18969e-08	-3.363998e-10
	2.383581e-10	-7.895715e-10	-0.002881319	-0.02584965	-2.557308e-10	-7.991007e-10	0.006499986	0.008942501
	0.006620875	0.008847493	-2.557308e-10	-7.991007e-10	-0.002454809	-0.02616574	1.572131e-09	-3.724321e-09
	1.18969e-08	-3.363998e-10	0.006499986	0.008942501	1.572131e-09	-3.724321e-09	-0.002939505	-0.0259275
1.6e+08	-0.003750378	-0.02794173	2.503807e-10	-8.655161e-10	0.007338028	0.009034744	1.271625e-08	-1.370582e-09
	2.503807e-10	-8.655161e-10	-0.004803348	-0.0271545	-2.767586e-10	-8.346504e-10	0.007211586	0.009136983
	0.007338028	0.009034744	-2.767586e-10	-8.346504e-10	-0.00436033	-0.02752648	1.692933e-09	-4.14134e-09
	1.271625e-08	-1.370582e-09	0.007211586	0.009136983	1.692933e-09	-4.14134e-09	-0.004873544	-0.02723612
1.7e+08	-0.005801777	-0.02915979	2.598636e-10	-9.444505e-10	0.008063883	0.009156927	1.346261e-08	-2.528529e-09
	2.598636e-10	-9.444505e-10	-0.00683423	-0.02830213	-2.970238e-10	-8.683121e-10	0.007931144	0.009269464
	0.008063883	0.009156927	-2.970238e-10	-8.683121e-10	-0.006376152	-0.02873203	1.800368e-09	-4.581643e-09
	1.346261e-08	-2.528529e-09	0.007931144	0.009269464	1.800368e-09	-4.581643e-09	-0.00691692	-0.02838613
1.8e+08	-0.007947236	-0.03021148	2.664135e-10	-1.026271e-09	0.008792784	0.009213863	1.412167e-08	-3.804057e-09
	2.664135e-10	-1.026271e-09	-0.008959016	-0.02928421	-3.163281e-10	-9.002261e-10	0.008653305	0.009339617
	0.008792784	0.009213863	-3.163281e-10	-9.002261e-10	-0.008487701	-0.02977421	1.891609e-09	-5.044379e-09
	1.412167e-08	-3.804057e-09	0.008653305	0.009339617	1.891609e-09	-5.044379e-09	-0.009054548	-0.0293692
1.9e+08	-0.01017201	-0.03109037	2.696291e-10	-1.110824e-09	0.009519068	0.009205813	1.467961e-08	-5.18944e-09
	2.696291e-10	-1.110824e-09	-0.01116247	-0.03009377	-3.344863e-10	-9.305508e-10	0.009372717	0.009347577
	0.009519068	0.009205813	-3.344863e-10	-9.305508e-10	-0.01068013	-0.03064612	1.963899e-09	-5.528387e-09
	1.467961e-08	-5.18944e-09	0.009372717	0.009347577	1.963899e-09	-5.528387e-09	-0.01127106	-0.03017837
2e+08	-0.01246109	-0.03179123	2.691099e-10	-1.1979e-09	0.01023711	0.009133492	1.512331e-08	-6.675472e-09
	2.691099e-10	-1.1979e-09	-0.0134291	-0.03072525	-3.513286e-10	-9.594627e-10	0.01008407	0.009293935
	0.01023711	0.009133492	-3.513286e-10	-9.594627e-10	-0.01293833	-0.03134217	2.014577e-09	-6.032201e-09
	1.512331e-08	-6.675472e-09	0.01008407	0.009293935	2.014577e-09	-6.032201e-09	-0.01355085	-0.03080807
2.1e+08	-0.01479943	-0.03231009	2.644755e-10	-1.287231e-09	0.01094846	0.00899042	1.544058e-08	-8.251484e-09
	2.644755e-10	-1.287231e-09	-0.01574324	-0.0311744	-3.66699e-10	-9.871455e-10	0.01078214	0.009179731
	0.01094846	0.008990421	-3.66699e-10	-9.871455e-10	-0.0152472	-0.03185809	2.040951e-09	-6.553989e-09
	1.544058e-08	-8.251484e-09	0.01078214	0.009179731	2.040951e-09	-6.553989e-09	-0.01587812	-0.03125409
2.2e+08	-0.01717177	-0.03264415	2.553527e-10	-1.378501e-09	0.01164765	0.008776489	1.562018e-08	-9.905535e-09
	2.553527e-10	-1.378501e-09	-0.01808912	-0.03143834	-3.804621e-10	-1.013806e-09	0.0114618	0.009006445
	0.01164765	0.008776489	-3.804621e-10	-1.013806e-09	-0.0175914	-0.03219081	2.04062e-09	-7.091646e-09
	1.562018e-08	-9.905535e-09	0.0114618	0.009006445	2.04062e-09	-7.091646e-09	-0.01823697	-0.03151356
2.3e+08	-0.01956251	-0.03279172	2.413729e-10	-1.471349e-09	0.01232048	0.008502878	1.565202e-08	-1.162456e-08
	2.413729e-10	-1.471349e-09	-0.02045093	-0.0315155	-3.925103e-10	-1.039677e-09	0.01211812	0.008775986
	0.01232048	0.008502878	-3.925103e-10	-1.039677e-09	-0.01995527	-0.03233842	2.011615e-09	-7.642942e-09
	1.565202e-08	-1.162456e-08	0.01211812	0.008775986	2.011615e-09	-7.642942e-09	-0.02061149	-0.03158494
2.4e+08	-0.02195626	-0.03275245	2.222119e-10	-1.565351e-09	0.01296196	0.008172208	1.552728e-08	-1.339434e-08
	2.222119e-10	-1.565351e-09	-0.02281295	-0.03140566	-4.027546e-10	-1.064995e-09	0.01274632	0.00849067
	0.01296196	0.008172208	-4.027546e-10	-1.064995e-09	-0.02232338	-0.0323004	1.951983e-09	-8.20533e-09
	1.552728e-08	-1.339434e-08	0.01274632	0.00849067	1.951983e-09	-8.20533e-09	-0.02298583	-0.03146805
2.5e+08	-0.02433781	-0.03252723	1.975837e-10	-1.660036e-09	0.01356735	0.007787517	1.523851e-08	-1.519968e-08
	1.975837e-10	-1.660036e-09	-0.0251596	-0.03110986	-4.1113e-10	-1.090003e-09	0.01334186	0.008153207
	0.01356735	0.007787517	-4.1113e-10	-1.090003e-09	-0.02468044	-0.03207743	1.860016e-09	-8.776038e-09
	1.523851e-08	-1.519968e-08	0.01334186	0.008153207	1.860016e-09	-8.776038e-09	-0.0253443	-0.03116397
2.6e+08	-0.02669212	-0.03211814	1.672507e-10	-1.754885e-09	0.01413219	0.007352225	1.477975e-08	-1.702457e-08
	1.672507e-10	-1.754885e-09	-0.02747556	-0.03063043	-4.17592e-10	-1.11495e-09	0.01390046	0.007766675
	0.01413219	0.007352225	-4.17592e-10	-1.11495e-09	-0.02701136	-0.03167147	1.734272e-09	-9.352095e-09
	1.477975e-08	-1.702457e-08	0.01390046	0.007766675	1.734272e-09	-9.352095e-09	-0.02767146	-0.0306751
2.7e+08	-0.02900446	-0.03152846	1.31022e-10	-1.849335e-09	0.01465234	0.006870116	1.414656e-08	-1.885231e-08
	1.31022e-10	-1.849335e-09	-0.02974583	-0.02997094	-4.221306e-10	-1.140094e-09	0.01441812	0.0073345
	0.01465234	0.006870116	-4.221306e-10	-1.140094e-09	-0.02930133	-0.03108566	1.573596e-09	-9.93035e-09
	1.414656e-08	-1.885231e-08	0.01441812	0.0073345	1.573596e-09	-9.93035e-09	-0.02995223	-0.03000505
2.8e+08	-0.03126048	-0.03076261	8.87673e-11	-1.942789e-09	0.01512399	0.006345305	1.333612e-08	-2.066564e-08
	8.87673e-11	-1.942789e-09	-0.03195585	-0.02913615	-4.247592e-10	-1.165692e-09	0.01489116	0.006860425
	0.01512399	0.006345305	-4.247592e-10	-1.165692e-09	-0.03153596	-0.03032429	1.377139e-09	-1.050751e-08
	1.333612e-08	-2.066564e-08	0.01489116	0.006860425	1.377139e-09	-1.050751e-08	-0.03217194	-0.02915865
2.9e+08	-0.03344632	-0.02982612	4.04221e-11	-2.034617e-09	0.01554372	0.005782206	1.23473e-08	-2.244694e-08
	4.04221e-11	-2.034617e-09	-0.0340916	-0.02813197	-4.25517e-10	-1.191999e-09	0.01531623	0.006348486
	0.01554372	0.005782206	-4.25517e-10	-1.191999e-09	-0.03370129	-0.02939281	1.144377e-09	-1.108015e-08
	1.23473e-08	-2.244694e-08	0.01531623	0.006348486	1.144377e-09	-1.108015e-08	-0.03431647	-0.0281419
3e+08	-0.03554866	-0.0287256	-1.4007e-11	-2.124166e-09	0.01590848	0.005185503	1.118065e-08	-2.417834e-08
	-1.4007e-11	-2.124166e-09	-0.03613963	-0.02696542	-4.244691e-10	-1.219269e-09	0.01569034	0.005802977
	0.01590848	0.005185503	-4.244691e-10	-1.219269e-09	-0.03578393	-0.02829773	8.751237e-10	-1.164478e-08
	1.118065e-08	-2.417834e-08	0.01569034	0.005802977	8.751237e-10	-1.164478e-08	-0.03637231	-0.0269619
3.1e+08	-0.0375548	-0.02746867	-7.443895e-11	-2.210767e-09	0.01621565	0.004560113	9.838456e-09	-2.58419e-08
	-7.443895e-11	-2.210767e-09	-0.0380872	-0.02564455	-4.217065e-10	-1.247747e-09	0.01601089	0.005228422
	0.01621565	0.004560113	-4.217065e-10	-1.247747e-09	-0.03777112	-0.02704662	5.695392e-10	-1.219783e-08
	9.838456e-09	-2.58419e-08	0.01601089	0.005228422	5.695392e-10	-1.219783e-08	-0.03832661	-0.0256268
3.2e+08	-0.03945277	-0.02606392	-1.407135e-10	-2.293747e-09	0.01646305	0.003911148	8.324754e-09	-2.741976e-08
	-1.407135e-10	-2.293747e-09	-0.03992231	-0.0241784	-4.173454e-10	-1.277671e-09	0.01627567	0.004629541
	0.01646305	0.003911148	-4.173454e-10	-1.277671e-09	-0.03965081	-0.02564798	2.281426e-10	-1.273574e-08
	8.324754e-09	-2.741976e-08	0.01627567	0.004629541	2.281426e-10	-1.273574e-08	-0.04016732	-0.02414573
3.3e+08	-0.04123133	-0.02452083	-2.125889e-10	-2.372432e-09	0.01664892	0.003243883	6.645314e-09	-2.889434e-08
	-2.125889e-10	-2.372432e-09	-0.04163378	-0.02257693	-4.115259e-10	-1.309266e-09	0.01648287	0.004011212
	0.01664892	0.003243883	-4.115259e-10	-1.309266e-09	-0.04141169	-0.02411127	-1.481865e-10	-1.325492e-08
	6.645314e-09	-2.889434e-08	0.01648287	0.004011212	-1.481865e-10	-1.325492e-08	-0.04188319	-0.02252874
3.4e+08	-0.04288013	-0.0228497	-2.897417e-10	-2.446166e-09	0.01677199	0.00256371	4.807626e-09	-3.024844e-08
	-2.897417e-10	-2.446166e-09	-0.04321134	-0.0208509	-4.044114e-10	-1.342747e-09	0.01663112	0.003378439
	0.01677199	0.00256371	-4.044114e-10	-1.342747e-09	-0.04304333	-0.02244676	-5.582072e-10	-1.375188e-08
	4.807626e-09	-3.024844e-08	0.01663112	0.003378439	-5.582072e-10	-1.375188e-08	-0.04346391	-0.02078672
3.5e+08	-0.04438966	-0.02106161	-3.717659e-10	-2.514315e-09	0.01683142	0.001876107	2.820872e-09	-3.146545e-08
	-3.717659e-10	-2.514315e-09	-0.04464566	-0.01901185	-3.961866e-10	-1.37831e-09	0.01671947	0.002736318
	0.01683142	0.001876107	-3.961866e-10	-1.37831e-09	-0.04453616	-0.0206655	-1.000318e-09	-1.422319e-08
	2.820872e-09	-3.146545e-08	0.01671947	0.002736318	-1.000318e-09	-1.422319e-08	-0.04490008	-0.01893132
3.6e+08	-0.04575139	-0.0191683	-4.581753e-10	-2.576279e-09	0.01682686	0.00118659	6.958754e-10	-3.25295e-08
	-4.581753e-10	-2.576279e-09	-0.0459284	-0.01707201	-3.870567e-10	-1.416135e-09	0.01674739	0.002089996
	0.01682686	0.00118659	-3.870567e-10	-1.416135e-09	-0.04588157	-0.01877923	-1.472567e-09	-1.466555e-08
	6.958754e-10	-3.25295e-08	0.01674739	0.002089996	-1.472567e-09	-1.466555e-08	-0.04618335	-0.01697488
3.7e+08	-0.04695777	-0.01718215	-5.48406e-10	-2.631505e-09	0.01675843	0.0005006822	-1.554956e-09	-3.342558e-08
	-5.48406e-10	-2.631505e-09	-0.04705227	-0.01504419	-3.772452e-10	-1.456384e-09	0.01671481	0.001444639
	0.01675843	0.0005006822	-3.772452e-10	-1.456384e-09	-0.04707198	-0.01680031	-1.972656e-09	-1.507582e-08
	-1.554956e-09	-3.342558e-08	0.01671481	0.001444639	-1.972656e-09	-1.507582e-08	-0.0473064	-0.01493034
3.8e+08	-0.04800226	-0.01511603	-6.418213e-10	-2.679494e-09	0.01662672	-0.0001761304	-3.917707e-09	-3.413974e-08
	-6.418213e-10	-2.679494e-09	-0.04801107	-0.01294169	-3.669922e-10	-1.499195e-09	0.01662207	0.0008053939
	0.01662672	-0.0001761304	-3.669922e-10	-1.499195e-09	-0.04810078	-0.01474162	-2.497962e-09	-1.545107e-08
	-3.917707e-09	-3.413974e-08	0.01662207	0.0008053939	-2.497962e-09	-1.545107e-08	-0.04826302	-0.01281112
3.9e+08	-0.04887943	-0.01298325	-7.377176e-10	-2.719813e-09	0.01643276	-0.0008384365	-6.377037e-09	-3.465921e-08
	-7.377176e-10	-2.719813e-09	-0.04879971	-0.01077826	-3.565529e-10	-1.544687e-09	0.01646996	0.0001773533
	0.01643276	-0.0008384365	-3.565529e-10	-1.544687e-09	-0.04896247	-0.01261652	-3.045547e-09	-1.578857e-08
	-6.377037e-09	-3.465921e-08	0.01646996	0.0001773533	-3.045547e-09	-1.578857e-08	-0.04904812	-0.0106311
4e+08	-0.04958489	-0.01079751	-8.353308e-10	-2.752102e-09	0.01617806	-0.001480937	-8.916285e-09	-3.497251e-08
	-8.353308e-10	-2.752102e-09	-0.04941423	-0.008567957	-3.46195e-10	-1.592952e-09	0.01625968	-0.0004344794
	0.01617806	-0.001480937	-3.46195e-10	-1.592952e-09	-0.04965266	-0.0104387	-3.612186e-09	-1.608588e-08
	-8.916285e-09	-3.497251e-08	0.01625968	-0.0004344794	-3.612186e-09	-1.608588e-08	-0.04965774	-0.008404436
4.1e+08	-0.05011539	-0.008572738	-9.338464e-10	-2.776084e-09	0.01586455	-0.002098484	-1.151758e-08	-3.506963e-08
	-9.338464e-10	-2.776084e-09	-0.04985184	-0.006325062	-3.36197e-10	-1.64406e-09	0.01599284	-0.001025225
	0.01586455	-0.002098484	-3.36197e-10	-1.64406e-09	-0.05016804	-0.008222131	-4.194387e-09	-1.634084e-08
	-1.151758e-08	-3.506963e-08	0.01599284	-0.001025225	-4.194387e-09	-1.634084e-08	-0.05008912	-0.006145558
4.2e+08	-0.0504688	-0.00632306	-1.032408e-09	-2.791572e-09	0.0154946	-0.002686112	-1.416197e-08	-3.494211e-08
	-1.032408e-09	-2.791572e-09	-0.0501109	-0.004064015	-3.268457e-10	-1.698053e-09	0.01567148	-0.00159016
	0.0154946	-0.002686112	-3.268457e-10	-1.698053e-09	-0.05050646	-0.005980968	-4.788421e-09	-1.655161e-08
	-1.416197e-08	-3.494211e-08	0.01567148	-0.00159016	-4.788421e-09	-1.655161e-08	-0.05034065	-0.003869017
4.3e+08	-0.05064412	-0.004062685	-1.13013e-09	-2.798474e-09	0.015071	-0.00323908	-1.682954e-08	-3.458315e-08
	-1.13013e-09	-2.798474e-09	-0.05019095	-0.001799292	-3.184344e-10	-1.754946e-09	0.01529799	-0.002124751
	0.015071	-0.00323908	-3.184344e-10	-1.754946e-09	-0.05066689	-0.003729461	-5.390353e-09	-1.671669e-08
	-1.682954e-08	-3.458315e-08	0.01529799	-0.002124751	-5.390353e-09	-1.671669e-08	-0.05041192	-0.001589408
4.4e+08	-0.05064148	-0.00180583	-1.226105e-09	-2.796796e-09	0.01459691	-0.003752897	-1.94996e-08	-3.398774e-08
	-1.226105e-09	-2.796796e-09	-0.05009271	0.0004546698	-3.112601e-10	-1.814729e-09	0.01487514	-0.002624684
	0.01459691	-0.003752897	-3.112601e-10	-1.814729e-09	-0.05064946	-0.001481866	-5.996071e-09	-1.683497e-08
	-1.94996e-08	-3.398774e-08	0.01487514	-0.002624684	-5.996071e-09	-1.683497e-08	-0.05030369	0.0006787192
4.5e+08	-0.05046213	0.0004333795	-1.319386e-09	-2.786658e-09	0.01407586	-0.004223357	-2.215077e-08	-3.315272e-08
	-1.319386e-09	-2.786658e-09	-0.04981803	0.002683573	-3.056228e-10	-1.877363e-09	0.01440607	-0.003085895
	0.01407586	-0.004223357	-3.056228e-10	-1.877363e-09	-0.05045542	0.0007476484	-6.601295e-09	-1.69057e-08
	-2.215077e-08	-3.315272e-08	0.01440607	-0.003085895	-6.601295e-09	-1.69057e-08	-0.05001788	0.002920958
4.6e+08	-0.05010846	0.002641009	-1.413537e-09	-2.76694e-09	0.01351174	-0.004646571	-2.476099e-08	-3.2075e-08
	-1.413537e-09	-2.76694e-09	-0.04936991	0.004873348	-3.01616e-10	-1.942699e-09	0.01389422	-0.003504595
	0.01351174	-0.004646571	-3.01616e-10	-1.942699e-09	-0.05008713	0.002945085	-7.206218e-09	-1.692725e-08
	-2.476099e-08	-3.2075e-08	0.01389422	-0.003504595	-7.206218e-09	-1.692725e-08	-0.04955758	0.005123155
4.7e+08	-0.04958391	0.004803346	-1.503468e-09	-2.738831e-09	0.01290874	-0.005018986	-2.730797e-08	-3.075706e-08
	-1.503468e-09	-2.738831e-09	-0.04875245	0.007010239	-2.99697e-10	-2.010738e-09	0.01334335	-0.0038773
