!$
! Info: Touchstone file created by Circ.  Input file=Tx_4in_Rx_85ohms_TxVia_10mils_RxVia_20mils.circ
!$
# Hz S RI R 50
0	0.003335254	3.914583e-26	2.05517e-12	1.265296e-28	3.542163e-05	4.14412e-24	-4.759412e-09	5.828039e-25
	2.056789e-12	1.267185e-28	0.003338125	4.461298e-26	-2.089319e-12	2.420701e-28	3.284984e-05	4.687431e-24
	3.547002e-05	4.146542e-24	-2.138632e-12	2.480847e-28	0.003350247	3.926507e-26	-1.304783e-09	1.597581e-25
	-4.757254e-09	5.825395e-25	3.430804e-05	4.824494e-24	-1.304829e-09	1.597637e-25	0.003343772	4.259121e-26
1e+07	0.004535578	-0.003563976	-5.678692e-13	-2.683312e-12	6.530297e-05	0.0008249482	-9.770433e-09	1.612511e-08
	-5.677942e-13	-2.683583e-12	0.00452615	-0.003497835	-1.431593e-12	-3.687837e-12	9.497269e-05	0.000823565
	6.530748e-05	0.0008249453	-1.431633e-12	-3.687583e-12	0.005085606	-0.003417174	-7.253938e-09	1.571541e-08
	-9.770433e-09	1.612511e-08	9.500484e-05	0.0008235535	-7.253938e-09	1.571541e-08	0.00452874	-0.003494268
2e+07	0.005208408	-0.008211766	6.567325e-15	-4.496805e-12	0.000174651	0.001645043	-7.864714e-09	1.324779e-08
	6.421031e-15	-4.496979e-12	0.00525162	-0.008098151	7.497707e-13	-6.236238e-12	0.00021533	0.001618292
	0.0001746502	0.00164504	7.498826e-13	-6.236045e-12	0.005775885	-0.008164173	-9.042143e-09	1.178001e-08
	-7.864714e-09	1.324779e-08	0.0002153269	0.001618271	-9.042143e-09	1.178001e-08	0.005256056	-0.008087079
3e+07	0.0051293	-0.01334214	-1.309893e-12	-5.921398e-12	0.0003755871	0.002427615	-5.883574e-09	1.178625e-08
	-1.309934e-12	-5.921388e-12	0.005206073	-0.01321426	-2.681106e-12	-9.334307e-12	0.0003976552	0.002393531
	0.0003755871	0.002427614	-2.681063e-12	-9.334317e-12	0.005708689	-0.01333624	-6.134725e-09	1.229713e-08
	-5.883574e-09	1.178625e-08	0.0003976501	0.002393528	-6.134725e-09	1.229713e-08	0.005212397	-0.01319724
4e+07	0.004443557	-0.01858299	-2.717128e-12	-6.568937e-12	0.0006389649	0.003182338	-4.440084e-09	1.090553e-08
	-2.717095e-12	-6.568927e-12	0.004540893	-0.0184509	-4.792335e-12	-1.064261e-11	0.0006415682	0.003146131
	0.0006389657	0.003182337	-4.792372e-12	-1.064262e-11	0.005030309	-0.01861238	-4.035099e-09	1.205164e-08
	-4.440084e-09	1.090553e-08	0.0006415679	0.003146132	-4.035099e-09	1.205164e-08	0.004549088	-0.01843028
5e+07	0.003210936	-0.02381759	-3.594104e-12	-7.778529e-12	0.0009630522	0.003906045	-3.448526e-09	1.066228e-08
	-3.594085e-12	-7.77853e-12	0.003318099	-0.02368622	-6.143109e-12	-1.281886e-11	0.0009450438	0.003871463
	0.0009630531	0.003906044	-6.14313e-12	-1.281886e-11	0.003801015	-0.02388096	-3.237202e-09	1.219047e-08
	-3.448526e-09	1.066228e-08	0.0009450433	0.003871463	-3.237203e-09	1.219047e-08	0.003326621	-0.02366282
6e+07	0.001468428	-0.02897186	-4.950077e-12	-1.261262e-11	0.001345207	0.004594454	-2.623727e-09	1.157123e-08
	-4.950095e-12	-1.261259e-11	0.001575923	-0.02884367	-4.534769e-12	-1.886216e-11	0.001305439	0.004564843
	0.001345208	0.004594453	-4.534742e-12	-1.886219e-11	0.00205795	-0.02906929	-4.93996e-09	1.342799e-08
	-2.623727e-09	1.157123e-08	0.001305436	0.004564843	-4.93996e-09	1.342799e-08	0.001583907	-0.02881735
7e+07	-0.0007543447	-0.03398841	-1.802621e-11	-3.280453e-11	0.001782202	0.005243061	-4.564141e-10	1.662233e-08
	-1.802625e-11	-3.280441e-11	-0.0006552058	-0.03386435	2.074765e-11	2.416627e-12	0.001719641	0.005221703
	0.001782203	0.005243061	2.074777e-11	2.416601e-12	-0.0001692577	-0.03412044	-1.481415e-08	8.909002e-09
	-4.564132e-10	1.662233e-08	0.001719636	0.005221706	-1.481415e-08	8.909002e-09	-0.000648199	-0.03383525
8e+07	-0.003429869	-0.03881861	-5.509675e-10	2.858831e-10	0.002270285	0.00584745	3.399283e-08	-1.122394e-08
	-5.509672e-10	2.858831e-10	-0.003347269	-0.03869891	-3.586486e-11	-1.005134e-11	0.002184093	0.005837746
	0.002270286	0.005847449	-3.586481e-11	-1.005132e-11	-0.002853223	-0.03898619	-6.36546e-09	-2.569942e-09
	3.399283e-08	-1.122394e-08	0.002184089	0.00583775	-6.36546e-09	-2.569942e-09	-0.003341918	-0.03866743
9e+07	-0.006530476	-0.04341925	2.536655e-12	-7.856151e-11	0.00280523	0.006403485	1.550024e-09	-3.181247e-09
	2.536724e-12	-7.856154e-11	-0.006472512	-0.0433043	-1.834041e-11	-2.346367e-11	0.002694877	0.00640916
	0.002805231	0.006403485	-1.834042e-11	-2.346368e-11	-0.005966685	-0.04362417	-1.387897e-09	-1.023115e-09
	1.550024e-09	-3.181247e-09	0.002694874	0.006409164	-1.387897e-09	-1.023115e-09	-0.006469949	-0.04327076
1e+08	-0.01002594	-0.04774799	-1.094918e-11	-1.468469e-11	0.003382504	0.006907653	-9.138987e-12	-3.252191e-12
	-1.094918e-11	-1.468469e-11	-0.010003	-0.04764363	-1.440151e-11	-2.473518e-11	0.003248247	0.006933769
	0.003382504	0.006907653	-1.440151e-11	-2.473518e-11	-0.00948175	-0.04799699	-1.607279e-11	-1.480703e-11
	-9.138987e-12	-3.252191e-12	0.003248247	0.006933769	-1.607279e-11	-1.480703e-11	-0.01000472	-0.04760806
1.1e+08	-0.01387165	-0.05179529	-1.284774e-11	-1.43213e-11	0.003998083	0.007355886	-1.030666e-11	-2.745907e-12
	-1.284774e-11	-1.43213e-11	-0.01391333	-0.05168363	-1.619152e-11	-2.567059e-11	0.003843829	0.007402906
	0.003998083	0.007355886	-1.619152e-11	-2.567059e-11	-0.01336836	-0.05207668	-1.871119e-11	-1.391987e-11
	-1.030666e-11	-2.745907e-12	0.003843829	0.007402906	-1.871119e-11	-1.391987e-11	-0.01391979	-0.0516443
1.2e+08	-0.01806251	-0.05551851	-1.405254e-11	-1.475749e-11	0.00464508	0.007745072	-1.13586e-11	-2.333822e-12
	-1.405254e-11	-1.475749e-11	-0.01816629	-0.05538163	-1.733555e-11	-2.696963e-11	0.004469948	0.007814094
	0.00464508	0.007745072	-1.733555e-11	-2.696963e-11	-0.01759811	-0.05582075	-2.055696e-11	-1.385057e-11
	-1.13586e-11	-2.333822e-12	0.004469948	0.007814094	-2.055696e-11	-1.385057e-11	-0.01817806	-0.05533782
1.3e+08	-0.02256264	-0.05888562	-1.515174e-11	-1.523945e-11	0.005318123	0.008073274	-1.2447e-11	-1.768795e-12
	-1.515174e-11	-1.523945e-11	-0.02272768	-0.05871264	-1.847185e-11	-2.815254e-11	0.005121955	0.00816666
	0.005318123	0.008073274	-1.847185e-11	-2.815254e-11	-0.02213681	-0.05920276	-2.231279e-11	-1.374203e-11
	-1.2447e-11	-1.768795e-12	0.005121955	0.00816666	-2.231279e-11	-1.374203e-11	-0.02274529	-0.05866358
1.4e+08	-0.0273367	-0.06187201	-1.62004e-11	-1.561924e-11	0.006011575	0.00833878	-1.353085e-11	-1.087644e-12
	-1.62004e-11	-1.561924e-11	-0.02756194	-0.06165355	-1.963889e-11	-2.915259e-11	0.00579459	0.008459129
	0.006011575	0.00833878	-1.963889e-11	-2.915259e-11	-0.02694925	-0.06219922	-2.40128e-11	-1.343536e-11
	-1.353085e-11	-1.087644e-12	0.00579459	0.008459129	-2.40128e-11	-1.343536e-11	-0.02758586	-0.06159835
1.5e+08	-0.03234874	-0.06445694	-1.726383e-11	-1.585415e-11	0.006719676	0.008540362	-1.462202e-11	-2.554685e-13
	-1.726383e-11	-1.585415e-11	-0.03263263	-0.06418434	-2.080783e-11	-2.998041e-11	0.00648242	0.008690362
	0.006719676	0.008540362	-2.080783e-11	-2.998041e-11	-0.03199933	-0.06478994	-2.572194e-11	-1.288319e-11
	-1.462202e-11	-2.554685e-13	0.00648242	0.008690362	-2.572194e-11	-1.288319e-11	-0.03266315	-0.06412199
1.6e+08	-0.03756209	-0.06662313	-1.832496e-11	-1.594913e-11	0.007436597	0.008677301	-1.570296e-11	7.241841e-13
	-1.832496e-11	-1.594913e-11	-0.03790245	-0.06628816	-2.195744e-11	-3.064464e-11	0.007179942	0.008859669
	0.007436597	0.008677301	-2.195744e-11	-3.064464e-11	-0.0372502	-0.066958	-2.741033e-11	-1.20943e-11
	-1.570296e-11	7.241841e-13	0.007179942	0.008859669	-2.741033e-11	-1.20943e-11	-0.03793973	-0.06621763
1.7e+08	-0.04293947	-0.06835662	-1.936862e-11	-1.590792e-11	0.008156501	0.008749403	-1.675748e-11	1.848125e-12
	-1.936862e-11	-1.590792e-11	-0.04333345	-0.06795144	-2.30695e-11	-3.115334e-11	0.007881637	0.008966839
	0.008156501	0.008749403	-2.30695e-11	-3.115334e-11	-0.04266436	-0.06868972	-2.905124e-11	-1.107636e-11
	-1.675748e-11	1.848125e-12	0.007881637	0.008966839	-2.905124e-11	-1.107636e-11	-0.04337748	-0.06787163
1.8e+08	-0.04844312	-0.06964668	-2.038062e-11	-1.573414e-11	0.008873593	0.008756997	-1.777017e-11	3.112737e-12
	-2.038062e-11	-1.573414e-11	-0.04888714	-0.06916383	-2.412756e-11	-3.151484e-11	0.008582031	0.009012141
	0.008873593	0.008756997	-2.412756e-11	-3.151484e-11	-0.04820384	-0.06997465	-3.06197e-11	-9.837464e-12
	-1.777017e-11	3.112737e-12	0.008582031	0.009012141	-3.06197e-11	-9.837464e-12	-0.04893777	-0.06907365
1.9e+08	-0.05403496	-0.07048584	-2.134731e-11	-1.543182e-11	0.009582168	0.008700924	-1.872614e-11	4.51357e-12
	-2.134731e-11	-1.543182e-11	-0.05452473	-0.06991825	-2.511651e-11	-3.173823e-11	0.009275737	0.008996315
	0.009582168	0.008700924	-2.511651e-11	-3.173823e-11	-0.05383035	-0.07080553	-3.209196e-11	-8.386893e-12
	-1.872614e-11	4.51357e-12	0.009275737	0.008996316	-3.209196e-11	-8.386893e-12	-0.05458165	-0.06981661
2e+08	-0.05967682	-0.07086979	-2.225548e-11	-1.500574e-11	0.01027666	0.008582523	-1.961098e-11	6.045159e-12
	-2.225548e-11	-1.500574e-11	-0.06020735	-0.07021087	-2.602234e-11	-3.183357e-11	0.009957498	0.008920562
	0.01027666	0.008582523	-2.602234e-11	-3.183357e-11	-0.05950556	-0.07117829	-3.344537e-11	-6.735457e-12
	-1.961098e-11	6.045159e-12	0.009957498	0.008920562	-3.344537e-11	-6.735457e-12	-0.06027012	-0.07009672
2.1e+08	-0.06533067	-0.07079742	-2.309232e-11	-1.446159e-11	0.01095169	0.008403607	-2.041079e-11	7.700908e-12
	-2.309232e-11	-1.446159e-11	-0.06589626	-0.07004107	-2.683222e-11	-3.181194e-11	0.01062223	0.008786519
	0.01095169	0.008403607	-2.683222e-11	-3.181194e-11	-0.06519125	-0.07109204	-3.465837e-11	-4.895712e-12
	-2.041079e-11	7.700908e-12	0.01062223	0.008786519	-3.465837e-11	-4.895712e-12	-0.06596431	-0.06991341
2.2e+08	-0.07095878	-0.07027071	-2.384546e-11	-1.380604e-11	0.01160211	0.008166444	-2.11123e-11	9.473067e-12
	-2.384546e-11	-1.380604e-11	-0.07155312	-0.06941141	-2.753446e-11	-3.168546e-11	0.01126506	0.008596243
	0.01160211	0.008166444	-2.753446e-11	-3.168546e-11	-0.07084957	-0.07054896	-3.57106e-11	-2.881986e-12
	-2.11123e-11	9.473067e-12	0.01126506	0.008596243	-3.57106e-11	-2.881986e-12	-0.07162574	-0.06926929
2.3e+08	-0.07652403	-0.06929468	-2.450306e-11	-1.304678e-11	0.01222301	0.007873725	-2.170288e-11	1.135274e-11
	-2.450306e-11	-1.304678e-11	-0.07714017	-0.06832756	-2.811866e-11	-3.146716e-11	0.01188135	0.008352177
	0.01222301	0.007873725	-2.811866e-11	-3.146716e-11	-0.07644323	-0.06955429	-3.6583e-11	-7.103636e-13
	-2.170288e-11	1.135274e-11	0.01188135	0.008352178	-3.6583e-11	-7.103636e-13	-0.07721655	-0.06817009
2.4e+08	-0.08199005	-0.06787733	-2.505393e-11	-1.21926e-11	0.0128098	0.00752853	-2.217079e-11	1.332989e-11
	-2.505393e-11	-1.21926e-11	-0.08262054	-0.0667982	-2.857574e-11	-3.117105e-11	0.01246674	0.008057131
	0.0128098	0.00752853	-2.857574e-11	-3.117105e-11	-0.08193577	-0.06811623	-3.725807e-11	1.601263e-12
	-2.217079e-11	1.332989e-11	0.01246674	0.008057131	-3.725807e-11	1.601263e-12	-0.08269975	-0.06662459
2.5e+08	-0.0873215	-0.06602952	-2.548756e-11	-1.125329e-11	0.0133582	0.007134304	-2.250523e-11	1.539347e-11
	-2.548756e-11	-1.125329e-11	-0.08795838	-0.06483494	-2.889803e-11	-3.081185e-11	0.01301715	0.007714243
	0.0133582	0.007134304	-2.889803e-11	-3.081185e-11	-0.08729174	-0.06624583	-3.771991e-11	4.033393e-12
	-2.250523e-11	1.539347e-11	0.01301715	0.007714243	-3.771991e-11	4.033393e-12	-0.0880394	-0.06464448
2.6e+08	-0.09248425	-0.06376486	-2.579429e-11	-1.023975e-11	0.01386428	0.006694811	-2.269603e-11	1.753117e-11
	-2.579429e-11	-1.023975e-11	-0.09311916	-0.06245218	-2.907936e-11	-3.040499e-11	0.01352883	0.007326951
	0.01386428	0.006694811	-2.907936e-11	-3.040499e-11	-0.0924769	-0.06395692	-3.795447e-11	6.564958e-12
	-2.269603e-11	1.753117e-11	0.01352883	0.007326951	-3.795447e-11	6.564958e-12	-0.09320087	-0.06224426
2.7e+08	-0.09744556	-0.06109959	-2.596536e-11	-9.163795e-12	0.01432449	0.006214107	-2.27343e-11	1.972985e-11
	-2.596536e-11	-9.163795e-12	-0.09806982	-0.059667	-2.911506e-11	-2.996636e-11	0.01399837	0.006898964
	0.01432449	0.006214107	-2.911506e-11	-2.996636e-11	-0.09745843	-0.06126593	-3.794959e-11	9.173518e-12
	-2.27343e-11	1.972985e-11	0.01399837	0.006898964	-3.794959e-11	9.173518e-12	-0.09815101	-0.05944112
2.8e+08	-0.1021743	-0.05805242	-2.599312e-11	-8.038149e-12	0.01473564	0.005696498	-2.261238e-11	2.197546e-11
	-2.599312e-11	-8.038149e-12	-0.1027789	-0.05649896	-2.900203e-11	-2.951231e-11	0.0144227	0.006434221
	0.01473564	0.005696498	-2.900203e-11	-2.951231e-11	-0.1022051	-0.05819179	-3.769533e-11	1.183537e-11
	-2.261238e-11	2.197546e-11	0.0144227	0.006434221	-3.769533e-11	1.183537e-11	-0.1028584	-0.05625476
2.9e+08	-0.1066411	-0.05464441	-2.587105e-11	-6.876359e-12	0.01509497	0.005146506	-2.232386e-11	2.425318e-11
	-2.587105e-11	-6.876359e-12	-0.107217	-0.05297003	-2.873879e-11	-2.905939e-11	0.01479912	0.005936868
	0.01509497	0.005146506	-2.873879e-11	-2.905939e-11	-0.1066876	-0.05475574	-3.718391e-11	1.452574e-11
	-2.232386e-11	2.425318e-11	0.01479912	0.005936868	-3.718391e-11	1.452574e-11	-0.1072934	-0.05270725
3e+08	-0.1108185	-0.05089878	-2.559383e-11	-5.692684e-12	0.0154001	0.004568834	-2.186363e-11	2.654748e-11
	-2.559383e-11	-5.692684e-12	-0.1113565	-0.04910434	-2.832542e-11	-2.862425e-11	0.01512529	0.005411216
	0.0154001	0.004568834	-2.832542e-11	-2.862425e-11	-0.1108783	-0.05098123	-3.64099e-11	1.721905e-11
	-2.186363e-11	2.654748e-11	0.01512529	0.005411216	-3.64099e-11	1.721905e-11	-0.1114284	-0.04882285
3.1e+08	-0.1146811	-0.04684074	-2.515616e-11	-4.503542e-12	0.01564909	0.003968326	-2.122808e-11	2.884233e-11
	-2.515616e-11	-4.503542e-12	-0.115172	-0.04492801	-2.776555e-11	-2.822983e-11	0.01539925	0.004861716
	0.01564909	0.003968326	-2.776555e-11	-2.822983e-11	-0.1147518	-0.04689366	-3.537032e-11	1.988903e-11
	-2.122808e-11	2.884233e-11	0.01539925	0.004861716	-3.537032e-11	1.988903e-11	-0.115238	-0.04462783
3.2e+08	-0.1182058	-0.04249733	-2.455444e-11	-3.326501e-12	0.0158404	0.003349934	-2.041506e-11	3.112122e-11
	-2.455444e-11	-3.326501e-12	-0.1186404	-0.04046901	-2.706593e-11	-2.789961e-11	0.01561944	0.004292922
	0.0158404	0.003349934	-2.706593e-11	-2.789961e-11	-0.118285	-0.04252027	-3.406464e-11	2.250901e-11
	-2.041506e-11	3.112122e-11	0.01561944	0.004292922	-3.406464e-11	2.250901e-11	-0.1186991	-0.0401503
3.3e+08	-0.1213716	-0.03789719	-2.379061e-11	-2.174444e-12	0.01597292	0.002718685	-1.942386e-11	3.336735e-11
	-2.379061e-11	-2.174444e-12	-0.121741	-0.0357569	-2.622861e-11	-2.763723e-11	0.01578466	0.003709467
	0.01597292	0.002718685	-2.622861e-11	-2.763723e-11	-0.1214569	-0.03788994	-3.249511e-11	2.505209e-11
	-1.942386e-11	3.336735e-11	0.01578466	0.003709467	-3.249511e-11	2.505209e-11	-0.1217911	-0.03541996
3.4e+08	-0.1241601	-0.03307043	-2.286512e-11	-1.063394e-12	0.01604596	0.002079647	-1.82553e-11	3.556337e-11
	-2.286512e-11	-1.063394e-12	-0.1244557	-0.03082271	-2.525782e-11	-2.745426e-11	0.01589409	0.003116027
	0.01604596	0.002079647	-2.525782e-11	-2.745426e-11	-0.1242491	-0.03303296	-3.066431e-11	2.748631e-11
	-1.82553e-11	3.556337e-11	0.01589409	0.003116027	-3.066431e-11	2.748631e-11	-0.1244956	-0.03046798
3.5e+08	-0.1265553	-0.02804839	-2.178015e-11	-9.259038e-15	0.01605924	0.001437897	-1.691201e-11	3.769256e-11
	-2.178015e-11	-9.259039e-15	-0.1267687	-0.02569864	-2.41615e-11	-2.736685e-11	0.01594729	0.002517299
	0.01605924	0.001437897	-2.41615e-11	-2.736685e-11	-0.1266457	-0.02798087	-2.858143e-11	2.978709e-11
	-1.691201e-11	3.769256e-11	0.01594729	0.002517299	-2.858143e-11	2.978709e-11	-0.1267971	-0.02532671
3.6e+08	-0.1285438	-0.02286345	-2.053941e-11	9.722772e-13	0.0160129	0.0007984896	-1.539809e-11	3.973816e-11
	-2.053941e-11	9.722772e-13	-0.1286671	-0.02041794	-2.295051e-11	-2.739199e-11	0.01594419	0.00191797
	0.0160129	0.0007984896	-2.295051e-11	-2.739199e-11	-0.1286332	-0.02276627	-2.625806e-11	3.193089e-11
	-1.539809e-11	3.973816e-11	0.01594419	0.00191797	-2.625806e-11	3.193089e-11	-0.1286828	-0.02002954
3.7e+08	-0.1301149	-0.01754883	-1.914809e-11	1.865682e-12	0.01590747	0.0001664284	-1.371921e-11	4.168357e-11
	-1.914809e-11	1.865682e-12	-0.1301407	-0.01501466	-2.163577e-11	-2.754324e-11	0.0158851	0.001322692
	0.01590747	0.0001664284	-2.163577e-11	-2.754324e-11	-0.1302011	-0.01742255	-2.370689e-11	3.389271e-11
	-1.371921e-11	4.168357e-11	0.0158851	0.001322692	-2.370689e-11	3.389271e-11	-0.1301422	-0.01461066
3.8e+08	-0.1312603	-0.0121384	-1.761288e-11	2.655836e-12	0.01574387	-0.0004533621	-1.18826e-11	4.35126e-11
	-1.761288e-11	2.655836e-12	-0.1311819	-0.009523435	-2.022956e-11	-2.783319e-11	0.01577066	0.0007360586
	0.01574387	-0.0004533621	-2.022956e-11	-2.783319e-11	-0.1313411	-0.01198379	-2.094306e-11	3.564861e-11
	-1.18826e-11	4.35126e-11	0.01577066	0.0007360586	-2.094306e-11	3.564861e-11	-0.1311681	-0.009104835
3.9e+08	-0.1319747	-0.006666456	-1.594198e-11	3.328184e-12	0.01552343	-0.001056064	-9.897049e-12	4.520962e-11
	-1.594198e-11	3.328184e-12	-0.131786	-0.003979284	-1.874551e-11	-2.827341e-11	0.01560189	0.0001625796
	0.01552343	-0.001056064	-1.874551e-11	-2.827341e-11	-0.132048	-0.00648447	-1.798414e-11	3.717597e-11
	-9.897049e-12	4.520962e-11	0.01560189	0.0001625796	-1.798414e-11	3.717597e-11	-0.1317556	-0.003547231
4e+08	-0.1322553	-0.001167529	-1.414499e-11	3.868871e-12	0.01524782	-0.001636992	-7.772832e-12	4.67597e-11
	-1.414499e-11	3.868871e-12	-0.131951	0.001582586	-1.719851e-11	-2.887426e-11	0.01538014	-0.0003933405
	0.01524782	-0.001636992	-1.719851e-11	-2.887426e-11	-0.1323192	-0.0009592875	-1.484995e-11	3.845369e-11
	-7.772832e-12	4.67597e-11	0.01538014	-0.0003933405	-1.484995e-11	3.845369e-11	-0.1319029	0.00202683
4.1e+08	-0.1321021	0.004323817	-1.223291e-11	4.264913e-12	0.0149191	-0.002191617	-5.52168e-12	4.814877e-11
	-1.223291e-11	4.264913e-12	-0.1316775	0.007127017	-1.56046e-11	-2.964478e-11	0.01510708	-0.0009274251
	0.0149191	-0.002191617	-1.56046e-11	-2.964478e-11	-0.1321546	0.004557023	-1.156249e-11	3.94625e-11
	-5.52168e-12	4.814877e-11	0.01510708	-0.0009274251	-1.156249e-11	3.94625e-11	-0.131611	0.007582068
4.2e+08	-0.1315178	0.009773186	-1.021799e-11	4.504311e-12	0.01453965	-0.002715593	-3.156693e-12	4.936372e-11
	-1.021799e-11	4.504311e-12	-0.1309693	0.01261908	-1.398095e-11	-3.059258e-11	0.01478472	-0.001435547
	0.01453965	-0.002715593	-1.398095e-11	-3.059258e-11	-0.1315572	0.01002991	-8.145728e-12	4.018507e-11
	-3.156693e-12	4.936372e-11	0.01478472	-0.001435547	-8.145728e-12	4.018507e-11	-0.1308834	0.01308345
4.3e+08	-0.1305076	0.01514656	-8.113698e-12	4.576183e-12	0.01411222	-0.003204778	-6.922625e-13	5.039258e-11
	-8.113698e-12	4.576183e-12	-0.1298325	0.01802429	-1.234569e-11	-3.172369e-11	0.01441537	-0.001913748
	0.01411222	-0.003204778	-1.234569e-11	-3.172369e-11	-0.1305323	0.0154252	-4.625454e-12	4.060631e-11
	-6.922625e-13	5.039258e-11	0.01441537	-0.001913748	-4.625454e-12	4.060631e-11	-0.1297264	0.01849639
4.4e+08	-0.1290795	0.02041046	-5.934574e-12	4.470866e-12	0.01363984	-0.003655258	1.856028e-12	5.122459e-11
	-5.934574e-12	4.470866e-12	-0.1282761	0.02330883	-1.071783e-11	-3.304242e-11	0.01400165	-0.002358261
	0.01363984	-0.003655258	-1.071783e-11	-3.304242e-11	-0.1290881	0.02070931	-1.029052e-12	4.071346e-11
	1.856028e-12	5.122459e-11	0.01400165	-0.002358261	-1.029052e-12	4.071346e-11	-0.1281493	0.02378698
4.5e+08	-0.1272441	0.0255322	-3.696117e-12	4.180037e-12	0.01312586	-0.004063365	4.471505e-12	5.185034e-11
	-3.696117e-12	4.180037e-12	-0.1263115	0.02843969	-9.117079e-12	-3.455129e-11	0.01354644	-0.002765528
	0.01312586	-0.004063365	-9.117079e-12	-3.455129e-11	-0.1272352	0.0258494	2.614699e-12	4.04963e-11
	4.471505e-12	5.185034e-11	0.01354644	-0.002765528	2.614699e-12	4.04963e-11	-0.1261636	0.02892214
4.6e+08	-0.1250143	0.03048	-1.414669e-12	3.696811e-12	0.01257392	-0.004425705	7.136525e-12	5.22619e-11
	-1.414669e-12	3.696811e-12	-0.1239529	0.03338491	-7.563768e-12	-3.625086e-11	0.01305291	-0.003132219
	0.01257392	-0.004425705	-7.563768e-12	-3.625086e-11	-0.1249869	0.03081361	6.275865e-12	3.994734e-11
	7.136525e-12	5.22619e-11	0.01305291	-0.003132219	6.275865e-12	3.994734e-11	-0.1237836	0.03386986
4.7e+08	-0.1224055	0.03522324	8.927327e-13	3.015784e-12	0.01198792	-0.00473917	9.832601e-12	5.245287e-11
	8.927327e-13	3.015784e-12	-0.1212167	0.03811378	-6.078595e-12	-3.813964e-11	0.01252449	-0.003455254
