!$
! Info: Touchstone file created by Circ.  Input file=Tx_4in_Rx_93ohms_TxVia_10mils_RxVia_20mils.circ
!$
# Hz S RI R 50
0	0.003786832	3.629456e-26	0.9960821	-3.443365e-26	3.333035e-05	3.828595e-24	-3.17628e-05	1.230625e-21
	0.9960821	-3.478765e-26	0.00378644	4.448613e-26	-3.163159e-05	1.214629e-21	3.276148e-05	5.32852e-24
	3.560409e-05	3.837526e-24	-3.157936e-05	1.208254e-21	0.003779568	3.163544e-26	0.996052	-3.047907e-26
	-3.217382e-05	1.280981e-21	3.42195e-05	5.484327e-24	0.996052	-3.199632e-26	0.003792082	4.247052e-26
1e+07	0.005537235	-1.334818e-05	0.993366	-0.04353726	9.506291e-05	0.0008291371	-5.819161e-05	-5.602032e-05
	0.993366	-0.04353726	0.005535327	-1.400391e-05	-5.821486e-05	-5.599666e-05	9.37968e-05	0.0008294172
	9.511086e-05	0.0008291106	-5.817625e-05	-5.601722e-05	0.005440881	-2.159732e-05	0.9934586	-0.04363178
	-5.815301e-05	-5.604089e-05	9.382903e-05	0.0008294058	0.9934586	-0.04363178	0.005438996	-2.227324e-05
2e+07	0.006655052	-0.001318587	0.9892626	-0.08555651	0.0001749093	0.001667657	-3.291002e-05	-0.0001306461
	0.9892626	-0.08555651	0.006647359	-0.001319614	-3.290335e-05	-0.0001306189	0.0001699525	0.001668673
	0.0001749013	0.001667632	-3.290282e-05	-0.0001306476	0.006580301	-0.001294638	0.9893179	-0.08578495
	-3.289991e-05	-0.0001306812	0.0001699495	0.001668652	0.9893179	-0.08578495	0.006572855	-0.001295592
3e+07	0.007317246	-0.003105819	0.983741	-0.1268643	0.0003532302	0.002462757	-3.942367e-05	-0.0001763326
	0.983741	-0.1268643	0.007299769	-0.003106358	-3.942837e-05	-0.0001763256	0.0003422812	0.002465178
	0.0003532308	0.002462754	-3.943076e-05	-0.00017633	0.007259239	-0.003074874	0.9837565	-0.1271971
	-3.94254e-05	-0.000176339	0.0003422761	0.002465176	0.9837565	-0.1271971	0.007242634	-0.003075295
4e+07	0.007659679	-0.005074325	0.9766755	-0.1676946	0.0006174422	0.003226841	-6.674861e-05	-0.0002111623
	0.9766755	-0.1676946	0.007628539	-0.005072956	-6.676228e-05	-0.0002111501	0.0005982865	0.003231622
	0.0006174462	0.003226837	-6.67594e-05	-0.000211149	0.007615929	-0.005044382	0.9766464	-0.168124
	-6.674518e-05	-0.0002111575	0.0005982861	0.003231623	0.9766464	-0.168124	0.007586327	-0.005043133
5e+07	0.007732724	-0.00713589	0.9680329	-0.2080589	0.0009408063	0.003960248	-9.030665e-05	-0.0002416888
	0.9680329	-0.2080589	0.007684244	-0.00713068	-9.031579e-05	-0.0002416792	0.000911381	0.003968632
	0.0009408075	0.003960245	-9.031417e-05	-0.000241679	0.007699873	-0.007111169	0.967953	-0.2085791
	-9.030391e-05	-0.0002416864	0.0009113805	0.003968633	0.967953	-0.2085791	0.007653604	-0.007106239
6e+07	0.007562665	-0.009240383	0.9578073	-0.2479298	0.001321138	0.004659364	-0.0001109512	-0.0002701195
	0.9578073	-0.2479298	0.007493438	-0.009228931	-0.0001109617	-0.0002701257	0.001279556	0.004672845
	0.001321138	0.004659365	-0.000110965	-0.0002701252	0.007538005	-0.009223151	0.9576702	-0.248535
	-0.0001109564	-0.0002701212	0.001279553	0.004672846	0.9576702	-0.248535	0.007471939	-0.009212113
7e+07	0.007166895	-0.01135222	0.9460048	-0.2872645	0.001755643	0.005320115	-0.0001293483	-0.0002977169
	0.9460048	-0.2872645	0.007073834	-0.01133171	-0.0001293725	-0.0002977392	0.001700209	0.005340403
	0.001755644	0.005320119	-0.0001293801	-0.0002977366	0.00714828	-0.01134426	0.9458048	-0.2879492
	-0.0001293626	-0.0002977195	0.001700204	0.005340405	0.9458048	-0.2879492	0.007059568	-0.01132455
8e+07	0.006559235	-0.01344282	0.932639	-0.3260134	0.002241013	0.005938363	-0.0001459859	-0.000325351
	0.932639	-0.3260134	0.006439599	-0.0134101	-0.0001460288	-0.000325379	0.002170232	0.005967368
	0.002241016	0.005938368	-0.0001460377	-0.0003253742	0.006544542	-0.01344596	0.9323706	-0.3267719
	-0.0001460047	-0.0003253518	0.002170227	0.005967372	0.9323706	-0.3267719	0.006430411	-0.01341472
9e+07	0.005752527	-0.01548679	0.917728	-0.3641247	0.002773483	0.006510097	-0.0001612869	-0.0003537262
	0.917728	-0.3641247	0.005603936	-0.01543839	-0.0001613414	-0.0003537471	0.002686071	0.006549915
	0.002773486	0.0065101	-0.0001613476	-0.0003537425	0.005739284	-0.01550299	0.9173861	-0.364951
	-0.0001613015	-0.0003537253	0.002686068	0.006549918	0.9173861	-0.364951	0.005597084	-0.01545691
1e+08	0.004763731	-0.01745225	0.9012892	-0.4015547	0.003348901	0.007031413	-0.0001757131	-0.0003833016
	0.9012892	-0.4015547	0.004584211	-0.01738442	-0.0001757612	-0.0003833067	0.003243805	0.007084313
	0.003348902	0.007031413	-0.000175761	-0.000383307	0.00474843	-0.0174848	0.9008699	-0.4024408
	-0.0001757129	-0.0003833018	0.003243805	0.007084312	0.9008699	-0.4024408	0.004575836	-0.01741998
1.1e+08	0.00364062	-0.01937233	0.8833156	-0.438203	0.003962223	0.007499463	-0.0001896158	-0.0004149562
	0.8833156	-0.438203	0.003427829	-0.01928022	-0.0001897043	-0.0004149778	0.003838103	0.007567397
	0.003962223	0.007499463	-0.0001897041	-0.000414978	0.003615843	-0.01941664	0.8828187	-0.439147
	-0.0001896156	-0.0004149564	0.003838103	0.007567397	0.8828187	-0.439147	0.003410642	-0.01932873
1.2e+08	0.002332957	-0.02121842	0.8638949	-0.4740139	0.004609121	0.007911429	-0.000204308	-0.0004496999
	0.8638949	-0.4740139	0.002086243	-0.02109786	-0.0002044314	-0.0004497188	0.004465686	0.00799729
	0.004609122	0.007911428	-0.0002044313	-0.0004497189	0.002298228	-0.0212714	0.8633142	-0.4750126
	-0.0002043079	-0.0004497001	0.004465686	0.00799729	0.8633142	-0.4750126	0.002059996	-0.02115602
1.3e+08	0.0008587811	-0.02296227	0.8430563	-0.5089459	0.005284619	0.008264611	-0.0002206524	-0.0004874665
	0.8430563	-0.5089459	0.0005778211	-0.022809	-0.0002208034	-0.0004874728	0.005121856	0.008371164
	0.005284619	0.008264611	-0.0002208034	-0.0004874729	0.0008130609	-0.02302225	0.8423864	-0.5099943
	-0.0002206524	-0.0004874667	0.005121856	0.008371164	0.8423864	-0.5099943	0.0005417111	-0.02287515
1.4e+08	-0.0007676283	-0.02458768	0.8208354	-0.5429479	0.005983513	0.008556873	-0.0002394706	-0.0005282254
	0.8208354	-0.5429479	-0.001082796	-0.02439736	-0.0002396431	-0.0005282151	0.005801663	0.008686809
	0.005983513	0.008556873	-0.000239643	-0.0005282152	-0.0008253406	-0.02465309	0.8200714	-0.5440404
	-0.0002394706	-0.0005282255	0.005801663	0.00868681	0.8200714	-0.5440404	-0.00112958	-0.02447005
1.5e+08	-0.002532389	-0.02608144	0.7972708	-0.5759683	0.006700434	0.008786537	-0.0002615636	-0.0005718475
	0.7972708	-0.5759683	-0.002881319	-0.02584965	-0.0002617536	-0.0005718198	0.006499986	0.008942501
	0.006700434	0.008786537	-0.0002617536	-0.0005718199	-0.002602944	-0.02615068	0.7964082	-0.577099
	-0.0002615635	-0.0005718476	0.006499986	0.008942501	0.7964082	-0.577099	-0.002939505	-0.0259275
1.6e+08	-0.004421545	-0.02743223	0.7724037	-0.6079564	0.007429881	0.008952386	-0.0002877069	-0.000618093
	0.7724037	-0.6079564	-0.004803348	-0.0271545	-0.000287913	-0.0006180486	0.007211586	0.009136983
	0.007429881	0.008952386	-0.000287913	-0.0006180487	-0.004505607	-0.02750367	0.7714383	-0.609119
	-0.0002877069	-0.0006180931	0.007211586	0.009136983	0.7714383	-0.609119	-0.004873544	-0.02723612
1.7e+08	-0.006420921	-0.02863025	0.7462777	-0.6388627	0.008166272	0.009053681	-0.0003186417	-0.0006666096
	0.7462777	-0.6388627	-0.00683423	-0.02830213	-0.0003188642	-0.0006665492	0.007931144	0.009269464
	0.008166272	0.009053681	-0.0003188642	-0.0006665492	-0.006518964	-0.02870225	0.7452055	-0.6400506
	-0.0003186417	-0.0006666097	0.007931144	0.009269464	0.7452055	-0.6400506	-0.00691692	-0.02838613
1.8e+08	-0.008516061	-0.02966712	0.7189384	-0.6686394	0.008903977	0.009090167	-0.0003550627	-0.0007169346
	0.7189384	-0.6686394	-0.008959016	-0.02928421	-0.0003553032	-0.0007168581	0.008653305	0.009339617
	0.008903977	0.009090167	-0.0003553032	-0.0007168582	-0.008628375	-0.02973805	0.7177559	-0.6698457
	-0.0003550627	-0.0007169347	0.008653305	0.009339617	0.7177559	-0.6698457	-0.009054548	-0.0293692
1.9e+08	-0.01069223	-0.03053576	0.6904337	-0.6972401	0.00963737	0.009062074	-0.0003976057	-0.0007684998
	0.6904337	-0.6972401	-0.01116247	-0.03009377	-0.0003978669	-0.0007684062	0.009372717	0.009347577
	0.00963737	0.009062074	-0.0003978669	-0.0007684062	-0.01081893	-0.03060402	0.6891377	-0.6984579
	-0.0003976057	-0.0007684998	0.009372717	0.009347577	0.6891377	-0.6984579	-0.01127106	-0.03017837
2e+08	-0.01293443	-0.03123043	0.660813	-0.7246209	0.01036087	0.008970118	-0.0004468352	-0.0008206379
	0.660813	-0.7246209	-0.0134291	-0.03072525	-0.0004471198	-0.0008205252	0.01008407	0.009293935
	0.01036087	0.008970118	-0.0004471198	-0.0008205252	-0.01307549	-0.03129442	0.6594008	-0.7258426
	-0.0004468352	-0.0008206379	0.01008407	0.009293935	0.6594008	-0.7258426	-0.01355085	-0.03080807
2.1e+08	-0.0152275	-0.03174665	0.630128	-0.7507392	0.01106898	0.008815492	-0.0005032315	-0.0008725921
	0.630128	-0.7507392	-0.01574324	-0.0311744	-0.0005035422	-0.000872457	0.01078214	0.009179731
	0.01106898	0.008815492	-0.0005035422	-0.000872457	-0.01538273	-0.03180485	0.6285972	-0.7519575
	-0.0005032315	-0.0008725921	0.01078214	0.009179731	0.6285972	-0.7519575	-0.01587812	-0.03125409
2.2e+08	-0.01755613	-0.03208125	0.5984317	-0.7755552	0.01175634	0.008599861	-0.0005671802	-0.0009235263
	0.5984317	-0.7755552	-0.01808912	-0.03143834	-0.0005675193	-0.0009233647	0.0114618	0.009006445
	0.01175634	0.008599861	-0.0005675193	-0.0009233647	-0.01772519	-0.03213217	0.5967805	-0.7767621
	-0.0005671802	-0.0009235264	0.0114618	0.009006445	0.5967805	-0.7767621	-0.01823697	-0.03151356
2.3e+08	-0.01990493	-0.03223232	0.5657787	-0.7990308	0.01241776	0.008325342	-0.0006389619	-0.0009725377
	0.5657787	-0.7990308	-0.02045093	-0.0315155	-0.0006393309	-0.0009723446	0.01211812	0.008775986
	0.01241776	0.008325342	-0.0006393309	-0.0009723446	-0.02008739	-0.03227451	0.5640056	-0.8002184
	-0.0006389619	-0.0009725377	0.01211812	0.008775986	0.5640056	-0.8002184	-0.02061149	-0.03158494
2.4e+08	-0.02225861	-0.03219923	0.5322252	-0.8211303	0.01304826	0.007994491	-0.0007187436	-0.00101867
	0.5322252	-0.8211303	-0.02281295	-0.03140566	-0.0007191435	-0.00101844	0.01274632	0.00849067
	0.01304826	0.007994491	-0.0007191435	-0.00101844	-0.02245388	-0.03223132	0.5303292	-0.8222906
	-0.0007187436	-0.00101867	0.01274632	0.00849067	0.5303292	-0.8222906	-0.02298583	-0.03146805
2.5e+08	-0.02460193	-0.03198258	0.4978287	-0.8418205	0.01364309	0.007610279	-0.0008065724	-0.001060927
	0.4978287	-0.8418205	-0.0251596	-0.03110986	-0.0008070032	-0.001060654	0.01334186	0.008153207
	0.01364309	0.007610279	-0.0008070032	-0.001060654	-0.02480932	-0.03200326	0.4958093	-0.8429453
	-0.0008065724	-0.001060927	0.01334186	0.008153207	0.4958093	-0.8429453	-0.0253443	-0.03116397
2.6e+08	-0.02691992	-0.03158424	0.4626477	-0.8610704	0.01419782	0.007176069	-0.0009023703	-0.001098291
	0.4626477	-0.8610704	-0.02747556	-0.03063043	-0.0009028312	-0.001097968	0.01390046	0.007766675
	0.01419782	0.007176069	-0.0009028312	-0.001097968	-0.0271386	-0.03159226	0.4605049	-0.8621514
	-0.0009023703	-0.001098291	0.01390046	0.007766675	0.4605049	-0.8621514	-0.02767146	-0.0306751
2.7e+08	-0.02919785	-0.03100724	0.4267421	-0.8788514	0.01470829	0.006695591	-0.001005932	-0.001129735
	0.4267421	-0.8788514	-0.02974583	-0.02997094	-0.001006421	-0.001129356	0.01441812	0.0073345
	0.01470829	0.006695591	-0.001006421	-0.001129356	-0.0294269	-0.03100144	0.4244763	-0.8798803
	-0.001005932	-0.001129735	0.01441812	0.0073345	0.4244763	-0.8798803	-0.02995223	-0.03000505
2.8e+08	-0.03142137	-0.0302558	0.3901726	-0.8951375	0.01517072	0.006172908	-0.001116922	-0.001154241
	0.3901726	-0.8951375	-0.03195585	-0.02913615	-0.001117437	-0.001153799	0.01489116	0.006860425
	0.01517072	0.006172908	-0.001117437	-0.001153799	-0.03165978	-0.0302351	0.3877848	-0.8961059
	-0.001116922	-0.001154241	0.01489116	0.006860425	0.3877848	-0.8961059	-0.03217194	-0.02915865
2.9e+08	-0.03357663	-0.02933525	0.353001	-0.909905	0.01558167	0.005612389	-0.001234881	-0.001170814
	0.353001	-0.909905	-0.0340916	-0.02813197	-0.001235418	-0.001170304	0.01531623	0.006348486
	0.01558167	0.005612389	-0.001235418	-0.001170304	-0.03382327	-0.02929868	0.3504924	-0.9108047
	-0.001234881	-0.001170814	0.01531623	0.006348486	0.3504924	-0.9108047	-0.03431647	-0.0281419
3e+08	-0.0356503	-0.02825202	0.3152895	-0.923133	0.0159381	0.005018676	-0.00135922	-0.001178501
	0.3152895	-0.923133	-0.03613963	-0.02696542	-0.001359775	-0.001177915	0.01569034	0.005802977
	0.0159381	0.005018676	-0.001359775	-0.001177915	-0.03590397	-0.02819869	0.3126622	-0.9239556
	-0.00135922	-0.001178501	0.01569034	0.005802977	0.3126622	-0.9239556	-0.03637231	-0.0269619
3.1e+08	-0.03762968	-0.02701355	0.2771014	-0.9348028	0.01623741	0.004396642	-0.001489235	-0.001176402
	0.2771014	-0.9348028	-0.0380872	-0.02564455	-0.001489802	-0.001175736	0.01601089	0.005228422
	0.01623741	0.004396642	-0.001489802	-0.001175736	-0.03788909	-0.02694269	0.2743577	-0.9355402
	-0.001489235	-0.001176402	0.01601089	0.005228422	0.2743577	-0.9355402	-0.03832661	-0.0256268
3.2e+08	-0.03950276	-0.02562826	0.2385004	-0.9448984	0.01647739	0.003751363	-0.001624107	-0.00116369
	0.2385004	-0.9448984	-0.03992231	-0.0241784	-0.001624681	-0.001162937	0.01627567	0.004629541
	0.01647739	0.003751363	-0.001624681	-0.001162937	-0.03976657	-0.02553922	0.235643	-0.9455424
	-0.001624107	-0.00116369	0.01627567	0.004629541	0.235643	-0.9455424	-0.04016732	-0.02414573
3.3e+08	-0.04125831	-0.02410548	0.1995504	-0.9534065	0.0166563	0.003088073	-0.001762914	-0.00113962
	0.1995504	-0.9534065	-0.04163378	-0.02257693	-0.001763488	-0.001138774	0.01648287	0.004011212
	0.0166563	0.003088073	-0.001763488	-0.001138775	-0.04152508	-0.02399772	0.1965828	-0.953949
	-0.001762914	-0.00113962	0.01648287	0.004011212	0.1965828	-0.953949	-0.04188319	-0.02252874
3.4e+08	-0.04288592	-0.02245536	0.1603162	-0.9603162	0.01677285	0.002412133	-0.001904641	-0.001103541
	0.1603162	-0.9603162	-0.04321134	-0.0208509	-0.001905206	-0.001102599	0.01663112	0.003378439
	0.01677285	0.002412133	-0.001905206	-0.001102599	-0.04315418	-0.02232849	0.1572421	-0.9607492
	-0.001904641	-0.001103541	0.01663112	0.003378439	0.1572421	-0.9607492	-0.04346391	-0.02078672
3.5e+08	-0.04437606	-0.02068884	0.1208623	-0.9656191	0.01682622	0.001728983	-0.002048187	-0.001054911
	0.1208623	-0.9656191	-0.04464566	-0.01901185	-0.002048736	-0.00105387	0.01671947	0.002736318
	0.01682622	0.001728983	-0.002048736	-0.00105387	-0.04464431	-0.02054258	0.117686	-0.9659349
	-0.002048187	-0.001054911	0.01671947	0.002736318	0.117686	-0.9659349	-0.04490008	-0.01893132
3.6e+08	-0.04572014	-0.01881754	0.08125378	-0.9693094	0.01681605	0.00104411	-0.002192387	-0.0009933058
	0.08125378	-0.9693094	-0.0459284	-0.01707201	-0.002192911	-0.0009921611	0.01674739	0.002089996
	0.01681605	0.00104411	-0.002192911	-0.0009921611	-0.04598683	-0.01865177	0.07797997	-0.9695005
	-0.002192387	-0.0009933058	0.01674739	0.002089996	0.07797997	-0.9695005	-0.04618335	-0.01697488
3.7e+08	-0.04691057	-0.01685369	0.0415556	-0.9713841	0.01674244	0.0003630052	-0.002336016	-0.0009184225
	0.0415556	-0.9713841	-0.04705227	-0.01504419	-0.002336506	-0.0009171721	0.01671481	0.001444639
	0.01674244	0.0003630052	-0.002336506	-0.0009171721	-0.04717415	-0.01666842	0.0381894	-0.971443
	-0.002336016	-0.0009184225	0.01671481	0.001444639	0.0381894	-0.971443	-0.0473064	-0.01493034
3.8e+08	-0.04794078	-0.01481007	0.001832715	-0.9718423	0.01660598	-0.0003088749	-0.00247781	-0.0008300907
	0.001832715	-0.9718423	-0.04801107	-0.01294169	-0.002478256	-0.000828733	0.01662207	0.0008053939
	0.01660598	-0.0003088749	-0.002478256	-0.000828733	-0.04819969	-0.01460544	-0.001620306	-0.9717619
	-0.00247781	-0.0008300907	0.01662207	0.0008053939	-0.001620306	-0.9717619	-0.04826302	-0.01281112
3.9e+08	-0.04880525	-0.01269987	-0.03785003	-0.9706859	0.0164077	-0.000966147	-0.002616479	-0.0007282749
	-0.03785003	-0.9706859	-0.04879971	-0.01077826	-0.002616871	-0.0007268092	0.01646996	0.0001773533
	0.0164077	-0.000966147	-0.002616871	-0.0007268092	-0.04905794	-0.01247619	-0.04138387	-0.9704593
	-0.002616479	-0.0007282749	0.01646996	0.0001773533	-0.04138387	-0.9704593	-0.04904812	-0.0106311
4e+08	-0.04949956	-0.01053669	-0.07742798	-0.9679194	0.01614909	-0.001603539	-0.002750725	-0.000613077
	-0.07742798	-0.9679194	-0.04941423	-0.008567957	-0.002751052	-0.0006115036	0.01625968	-0.0004344794
	0.01614909	-0.001603539	-0.002751052	-0.0006115036	-0.04974449	-0.0102944	-0.08103625	-0.9675399
	-0.002750725	-0.000613077	0.01625968	-0.0004344794	-0.08103625	-0.9675399	-0.04965774	-0.008404436
4.1e+08	-0.05002038	-0.008334374	-0.1168369	-0.9635497	0.01583208	-0.002215928	-0.002879253	-0.0004847373
	-0.1168369	-0.9635497	-0.04985184	-0.006325062	-0.002879506	-0.0004830573	0.01599284	-0.001025225
	0.01583208	-0.002215928	-0.002879506	-0.0004830573	-0.05025606	-0.008074051	-0.1205127	-0.9630109
	-0.002879253	-0.0004847373	0.01599284	-0.001025225	-0.1205127	-0.9630109	-0.05008912	-0.006145558
4.2e+08	-0.05036551	-0.006106953	-0.1560127	-0.9575859	0.01545903	-0.002798374	-0.003000792	-0.000343633
	-0.1560127	-0.9575859	-0.0501109	-0.004064015	-0.003000959	-0.0003418486	0.01567148	-0.00159016
	0.01545903	-0.002798374	-0.003000959	-0.0003418486	-0.0505905	-0.005829319	-0.159749	-0.9568819
	-0.003000792	-0.000343633	0.01567148	-0.00159016	-0.159749	-0.9568819	-0.05034065	-0.003869017
4.3e+08	-0.05053389	-0.003868563	-0.194892	-0.9500401	0.01503271	-0.003346158	-0.00311411	-0.000190275
	-0.194892	-0.9500401	-0.05019095	-0.001799292	-0.00311418	-0.0001883894	0.01529799	-0.002124751
	0.01503271	-0.003346158	-0.00311418	-0.0001883894	-0.0507468	-0.003574472	-0.1986812	-0.949165
	-0.00311411	-0.000190275	0.01529799	-0.002124751	-0.1986812	-0.949165	-0.05041192	-0.001589408
4.4e+08	-0.05052558	-0.001633349	-0.2334119	-0.9409265	0.01455628	-0.00385481	-0.003218023	-2.530315e-05
	-0.2334119	-0.9409265	-0.05009271	0.0004546698	-0.003217987	-2.332056e-05	0.01487514	-0.002624684
	0.01455628	-0.00385481	-0.003217987	-2.332056e-05	-0.0507251	-0.001323784	-0.2372461	-0.939875
	-0.003218023	-2.530315e-05	0.01487514	-0.002624684	-0.2372461	-0.939875	-0.05030369	0.0006787192
4.5e+08	-0.05034175	0.0005846239	-0.2715101	-0.9302616	0.01403325	-0.004320147	-0.003311419	0.0001505205
	-0.2715101	-0.9302616	-0.04981803	0.002683573	-0.003311266	0.0001525949	0.01440607	-0.003085895
	0.01403325	-0.004320147	-0.003311266	0.0001525949	-0.05052666	0.0009085602	-0.275381	-0.9290287
	-0.003311419	0.0001505205	0.01440607	-0.003085895	-0.275381	-0.9290287	-0.05001788	0.002920958
4.6e+08	-0.04998471	0.00277146	-0.3091252	-0.9180646	0.0134675	-0.004738296	-0.003393264	0.0003363198
	-0.3091252	-0.9180646	-0.04936991	0.004873348	-0.003392984	0.0003384798	0.01389422	-0.003504595
	0.0134675	-0.004738296	-0.003392984	0.0003384798	-0.05015388	0.003108566	-0.3130242	-0.9166458
	-0.003393264	0.0003363198	0.01389422	-0.003504595	-0.3130242	-0.9166458	-0.04955758	0.005123155
4.7e+08	-0.04945783	0.004913513	-0.3461963	-0.9043569	0.0128632	-0.005105726	-0.003462618	0.0005311156
	-0.3461963	-0.9043569	-0.04875245	0.007010239	-0.0034622	0.0005333539	0.01334335	-0.0038773
	0.0128632	-0.005105726	-0.0034622	0.0005333539	-0.04961025	0.005262466	-0.3501146	-0.9027479
	-0.003462618	0.0005311156	0.01334335	-0.0038773	-0.3501146	-0.9027479	-0.04892697	0.007271441
4.8e+08	-0.04876557	0.006997473	-0.3826638	-0.8891622	0.01222483	-0.005419268	-0.003518642	0.0007338355
	-0.3826638	-0.8891622	-0.04797087	0.009080894	-0.003518078	0.0007361442	0.0127575	-0.004200851
	0.01222483	-0.005419268	-0.003518078	0.0007361442	-0.04890032	0.007356852	-0.3865922	-0.8873592
	-0.003518642	0.0007338355	0.0127575	-0.004200851	-0.3865922	-0.8873592	-0.04813132	0.009352373
4.9e+08	-0.0479134	0.009010446	-0.4184687	-0.8725066	0.01155709	-0.005676144	-0.003560613	0.0009433272
	-0.4184687	-0.8725066	-0.04703138	0.01107244	-0.003559896	0.0009456973	0.01214095	-0.004472437
	0.01155709	-0.005676144	-0.003559896	0.0009456973	-0.0480297	0.009378746	-0.4223978	-0.8705062
	-0.003560613	0.0009433272	0.01214095	-0.004472437	-0.4223978	-0.8705062	-0.04717697	0.011353
5e+08	-0.04690783	0.01094004	-0.4535533	-0.8544184	0.01086495	-0.005873981	-0.003587931	0.001158371
