!$
! Info: Touchstone file created by Circ.  Input file=Tx_4in_Rx_85ohms_TxVia_10mils_RxVia_20mils.circ
!$
# Hz S RI R 50
0	0.003335254	3.914583e-26	-2.186204e-05	-3.015245e-26	3.542163e-05	4.14412e-24	-2.187533e-05	1.586851e-24
	-2.186204e-05	-2.974376e-26	0.003338125	4.461298e-26	-2.18619e-05	-2.031656e-26	3.284984e-05	4.687431e-24
	3.547002e-05	4.146542e-24	-2.186189e-05	-2.074109e-26	0.003350247	3.926507e-26	-2.186357e-05	1.882214e-25
	-2.187533e-05	1.586444e-24	3.430804e-05	4.824494e-24	-2.186357e-05	1.877012e-25	0.003343772	4.259121e-26
1e+07	0.004535578	-0.003563976	-2.15943e-06	-5.657644e-06	6.530297e-05	0.0008249482	-1.093689e-06	-6.534092e-06
	-2.15943e-06	-5.657644e-06	0.00452615	-0.003497835	-3.852596e-06	-4.105447e-07	9.497269e-05	0.000823565
	6.530748e-05	0.0008249453	-3.852596e-06	-4.105446e-07	0.005085606	-0.003417174	-8.502941e-06	3.558366e-07
	-1.093689e-06	-6.534093e-06	9.500484e-05	0.0008235535	-8.502942e-06	3.558366e-07	0.00452874	-0.003494268
2e+07	0.005208408	-0.008211766	-1.987574e-06	-2.335037e-06	0.000174651	0.001645043	-4.809129e-07	-3.46504e-06
	-1.987573e-06	-2.335037e-06	0.00525162	-0.008098151	-9.300093e-06	-6.833486e-06	0.00021533	0.001618292
	0.0001746502	0.00164504	-9.300093e-06	-6.833486e-06	0.005775885	-0.008164173	-1.218362e-05	-3.830531e-06
	-4.80913e-07	-3.46504e-06	0.0002153269	0.001618271	-1.218362e-05	-3.830531e-06	0.005256056	-0.008087079
3e+07	0.0051293	-0.01334214	-1.896498e-06	-1.554864e-06	0.0003755871	0.002427615	-6.319096e-07	-2.765812e-06
	-1.896498e-06	-1.554864e-06	0.005206073	-0.01321426	-1.350662e-05	-7.92859e-06	0.0003976552	0.002393531
	0.0003755871	0.002427614	-1.350662e-05	-7.92859e-06	0.005708689	-0.01333624	-1.500278e-05	-4.27688e-06
	-6.319096e-07	-2.765812e-06	0.0003976501	0.002393528	-1.500278e-05	-4.27688e-06	0.005212397	-0.01319724
4e+07	0.004443557	-0.01858299	-1.822171e-06	-1.156397e-06	0.0006389649	0.003182338	-1.075682e-06	-2.32274e-06
	-1.822171e-06	-1.156397e-06	0.004540893	-0.0184509	-1.702957e-05	-7.594962e-06	0.0006415682	0.003146131
	0.0006389657	0.003182337	-1.702957e-05	-7.594962e-06	0.005030309	-0.01861238	-1.734046e-05	-3.72729e-06
	-1.075682e-06	-2.32274e-06	0.0006415679	0.003146132	-1.734046e-05	-3.72729e-06	0.004549088	-0.01843028
5e+07	0.003210936	-0.02381759	-1.755184e-06	-8.985535e-07	0.0009630522	0.003906045	-1.45625e-06	-1.950232e-06
	-1.755184e-06	-8.985535e-07	0.003318099	-0.02368622	-2.004933e-05	-6.432794e-06	0.0009450438	0.003871463
	0.0009630531	0.003906044	-2.004933e-05	-6.432794e-06	0.003801015	-0.02388096	-1.931897e-05	-2.60351e-06
	-1.45625e-06	-1.950232e-06	0.0009450433	0.003871463	-1.931897e-05	-2.60351e-06	0.003326621	-0.02366282
6e+07	0.001468428	-0.02897186	-1.691013e-06	-7.081492e-07	0.001345207	0.004594454	-1.782587e-06	-1.586968e-06
	-1.691013e-06	-7.081493e-07	0.001575923	-0.02884367	-2.264259e-05	-4.665141e-06	0.001305439	0.004564843
	0.001345208	0.004594453	-2.264259e-05	-4.665141e-06	0.00205795	-0.02906929	-2.098997e-05	-1.060743e-06
	-1.782587e-06	-1.586968e-06	0.001305436	0.004564843	-2.098997e-05	-1.060743e-06	0.001583907	-0.02881735
7e+07	-0.0007543447	-0.03398841	-1.626849e-06	-5.553361e-07	0.001782202	0.005243061	-2.058328e-06	-1.208604e-06
	-1.626849e-06	-5.553361e-07	-0.0006552058	-0.03386435	-2.483806e-05	-2.387952e-06	0.001719641	0.005221703
	0.001782203	0.005243061	-2.483806e-05	-2.387952e-06	-0.0001692577	-0.03412044	-2.237409e-05	8.327819e-07
	-2.058328e-06	-1.208604e-06	0.001719636	0.005221706	-2.237409e-05	8.327819e-07	-0.000648199	-0.03383525
8e+07	-0.003429869	-0.03881861	-1.56059e-06	-4.254507e-07	0.002270285	0.00584745	-2.282688e-06	-8.024097e-07
	-1.56059e-06	-4.254507e-07	-0.003347269	-0.03869891	-2.663144e-05	3.756149e-07	0.002184093	0.005837746
	0.002270286	0.005847449	-2.663144e-05	3.756149e-07	-0.002853223	-0.03898619	-2.345456e-05	3.052789e-06
	-2.282688e-06	-8.024097e-07	0.002184089	0.00583775	-2.345456e-05	3.052789e-06	-0.003341918	-0.03866743
9e+07	-0.006530476	-0.04341925	-1.490232e-06	-3.10644e-07	0.00280523	0.006403485	-2.442252e-06	-3.502012e-07
	-1.490232e-06	-3.106439e-07	-0.006472512	-0.0433043	-2.79719e-05	3.692216e-06	0.002694877	0.00640916
	0.002805231	0.006403485	-2.79719e-05	3.692216e-06	-0.005966685	-0.04362417	-2.419299e-05	5.675487e-06
	-2.442252e-06	-3.502012e-07	0.002694874	0.006409164	-2.419299e-05	5.675486e-06	-0.006469949	-0.04327076
1e+08	-0.01002594	-0.04774799	-1.409084e-06	-2.017285e-07	0.003382504	0.006907653	-2.505148e-06	2.318433e-07
	-1.409084e-06	-2.017285e-07	-0.010003	-0.04764363	-2.856851e-05	8.134289e-06	0.003248247	0.006933769
	0.003382504	0.006907653	-2.856851e-05	8.134289e-06	-0.00948175	-0.04799699	-2.438553e-05	9.108629e-06
	-2.505148e-06	2.318433e-07	0.003248247	0.006933769	-2.438553e-05	9.108629e-06	-0.01000472	-0.04760806
1.1e+08	-0.01387165	-0.05179529	-1.359999e-06	-1.039499e-07	0.003998083	0.007355886	-2.257361e-06	6.738786e-07
	-1.359999e-06	-1.039499e-07	-0.01391333	-0.05168363	-2.657306e-05	1.155516e-05	0.003843829	0.007402906
	0.003998083	0.007355886	-2.657306e-05	1.155516e-05	-0.01336836	-0.05207668	-2.381481e-05	9.18157e-06
	-2.257361e-06	6.738786e-07	0.003843829	0.007402906	-2.381481e-05	9.18157e-06	-0.01391979	-0.0516443
1.2e+08	-0.01806251	-0.05551851	-1.326454e-06	-1.601692e-08	0.00464508	0.007745072	-2.049218e-06	9.694126e-07
	-1.326454e-06	-1.601692e-08	-0.01816629	-0.05538163	-2.604771e-05	1.144355e-05	0.004469948	0.007814094
	0.00464508	0.007745072	-2.604771e-05	1.144355e-05	-0.01759811	-0.05582075	-2.358407e-05	8.67228e-06
	-2.049218e-06	9.694126e-07	0.004469948	0.007814094	-2.358407e-05	8.67228e-06	-0.01817806	-0.05533782
1.3e+08	-0.02256264	-0.05888562	-1.295271e-06	6.383331e-08	0.005318123	0.008073274	-1.904957e-06	1.101429e-06
	-1.295271e-06	6.383331e-08	-0.02272768	-0.05871264	-2.576023e-05	1.10138e-05	0.005121955	0.00816666
	0.005318123	0.008073274	-2.576023e-05	1.10138e-05	-0.02213681	-0.05920276	-2.331369e-05	8.43358e-06
	-1.904957e-06	1.101429e-06	0.005121955	0.00816666	-2.331369e-05	8.43358e-06	-0.02274529	-0.05866358
1.4e+08	-0.0273367	-0.06187201	-1.264278e-06	1.370476e-07	0.006011575	0.00833878	-1.889965e-06	9.966062e-07
	-1.264278e-06	1.370476e-07	-0.02756194	-0.06165355	-2.54448e-05	1.079738e-05	0.00579459	0.008459129
	0.006011575	0.00833878	-2.54448e-05	1.079738e-05	-0.02694925	-0.06219922	-2.302646e-05	8.354273e-06
	-1.889965e-06	9.966062e-07	0.00579459	0.008459129	-2.302646e-05	8.354273e-06	-0.02758586	-0.06159835
1.5e+08	-0.03234874	-0.06445694	-1.232457e-06	2.043127e-07	0.006719676	0.008540362	-1.874841e-06	9.135635e-07
	-1.232457e-06	2.043127e-07	-0.03263263	-0.06418434	-2.511403e-05	1.072475e-05	0.00648242	0.008690362
	0.006719676	0.008540362	-2.511403e-05	1.072475e-05	-0.03199933	-0.06478994	-2.27296e-05	8.381352e-06
	-1.874841e-06	9.135635e-07	0.00648242	0.008690362	-2.27296e-05	8.381352e-06	-0.03266315	-0.06412199
1.6e+08	-0.03756209	-0.06662313	-1.199757e-06	2.666742e-07	0.007436597	0.008677301	-1.860399e-06	8.466914e-07
	-1.199757e-06	2.666742e-07	-0.03790245	-0.06628816	-2.477306e-05	1.075601e-05	0.007179942	0.008859669
	0.007436597	0.008677301	-2.477306e-05	1.075601e-05	-0.0372502	-0.066958	-2.242655e-05	8.485377e-06
	-1.860399e-06	8.466914e-07	0.007179942	0.008859669	-2.242655e-05	8.485377e-06	-0.03793973	-0.06621763
1.7e+08	-0.04293947	-0.06835662	-1.166149e-06	3.248505e-07	0.008156501	0.008749403	-1.847034e-06	7.923592e-07
	-1.166149e-06	3.248505e-07	-0.04333345	-0.06795144	-2.442405e-05	1.086551e-05	0.007881637	0.008966839
	0.008156501	0.008749403	-2.442405e-05	1.086551e-05	-0.04266436	-0.06868972	-2.211855e-05	8.647418e-06
	-1.847034e-06	7.923592e-07	0.007881637	0.008966839	-2.211855e-05	8.647418e-06	-0.04337748	-0.06787163
1.8e+08	-0.04844312	-0.06964668	-1.131614e-06	3.793548e-07	0.008873593	0.008756997	-1.834929e-06	7.480766e-07
	-1.131614e-06	3.793548e-07	-0.04888714	-0.06916383	-2.406762e-05	1.103563e-05	0.008582031	0.009012141
	0.008873593	0.008756997	-2.406762e-05	1.103563e-05	-0.04820384	-0.06997465	-2.180576e-05	8.854453e-06
	-1.834929e-06	7.480766e-07	0.008582031	0.009012141	-2.180576e-05	8.854453e-06	-0.04893777	-0.06907365
1.9e+08	-0.05403496	-0.07048584	-1.096145e-06	4.305644e-07	0.009582168	0.008700924	-1.824165e-06	7.120551e-07
	-1.096145e-06	4.305644e-07	-0.05452473	-0.06991825	-2.370372e-05	1.125363e-05	0.009275737	0.008996315
	0.009582168	0.008700924	-2.370372e-05	1.125363e-05	-0.05383035	-0.07080553	-2.148788e-05	9.097031e-06
	-1.824165e-06	7.120551e-07	0.009275737	0.008996316	-2.148788e-05	9.097031e-06	-0.05458165	-0.06981661
2e+08	-0.05967682	-0.07086979	-1.059743e-06	4.787609e-07	0.01027666	0.008582523	-1.814754e-06	6.829749e-07
	-1.059743e-06	4.787609e-07	-0.06020735	-0.07021087	-2.333189e-05	1.150986e-05	0.009957498	0.008920562
	0.01027666	0.008582523	-2.333189e-05	1.150986e-05	-0.05950556	-0.07117829	-2.116431e-05	9.368011e-06
	-1.814754e-06	6.829749e-07	0.009957498	0.008920562	-2.116431e-05	9.368011e-06	-0.06027012	-0.07009672
2.1e+08	-0.06533067	-0.07079742	-1.022417e-06	5.241574e-07	0.01095169	0.008403607	-1.806679e-06	6.598363e-07
	-1.022417e-06	5.241574e-07	-0.06589626	-0.07004107	-2.29515e-05	1.17968e-05	0.01062223	0.008786519
	0.01095169	0.008403607	-2.29515e-05	1.17968e-05	-0.06519125	-0.07109204	-2.083437e-05	9.661803e-06
	-1.806679e-06	6.598363e-07	0.01062223	0.008786519	-2.083437e-05	9.661803e-06	-0.06596431	-0.06991341
2.2e+08	-0.07095878	-0.07027071	-9.841819e-07	5.669153e-07	0.01160211	0.008166444	-1.799896e-06	6.418742e-07
	-9.841819e-07	5.669153e-07	-0.07155312	-0.06941141	-2.256185e-05	1.210842e-05	0.01126506	0.008596243
	0.01160211	0.008166444	-2.256185e-05	1.210842e-05	-0.07084957	-0.07054896	-2.049735e-05	9.973917e-06
	-1.799896e-06	6.418742e-07	0.01126506	0.008596243	-2.049735e-05	9.973917e-06	-0.07162574	-0.06926929
2.3e+08	-0.07652403	-0.06929468	-9.450583e-07	6.071558e-07	0.01222301	0.007873725	-1.794336e-06	6.284959e-07
	-9.450583e-07	6.071558e-07	-0.07714017	-0.06832756	-2.216218e-05	1.243974e-05	0.01188135	0.008352177
	0.01222301	0.007873725	-2.216218e-05	1.243974e-05	-0.07644323	-0.06955429	-2.015249e-05	1.030065e-05
	-1.794336e-06	6.284959e-07	0.01188135	0.008352178	-2.015249e-05	1.030065e-05	-0.07721655	-0.06817009
2.4e+08	-0.08199005	-0.06787733	-9.050727e-07	6.449719e-07	0.0128098	0.00752853	-1.789931e-06	6.192314e-07
	-9.050727e-07	6.449719e-07	-0.08262054	-0.0667982	-2.175184e-05	1.278658e-05	0.01246674	0.008057131
	0.0128098	0.00752853	-2.175184e-05	1.278658e-05	-0.08193577	-0.06811623	-1.979913e-05	1.063885e-05
	-1.789931e-06	6.192314e-07	0.01246674	0.008057131	-1.979913e-05	1.063885e-05	-0.08269975	-0.06662459
2.5e+08	-0.0873215	-0.06602952	-8.64257e-07	6.804319e-07	0.0133582	0.007134304	-1.786597e-06	6.137118e-07
	-8.64257e-07	6.804319e-07	-0.08795838	-0.06483494	-2.133019e-05	1.314532e-05	0.01301715	0.007714243
	0.0133582	0.007134304	-2.133019e-05	1.314532e-05	-0.08729174	-0.06624583	-1.943664e-05	1.098583e-05
	-1.786597e-06	6.137118e-07	0.01301715	0.007714243	-1.943664e-05	1.098583e-05	-0.0880394	-0.06464448
2.6e+08	-0.09248425	-0.06376486	-8.22648e-07	7.135863e-07	0.01386428	0.006694811	-1.784247e-06	6.116393e-07
	-8.22648e-07	7.135863e-07	-0.09311916	-0.06245218	-2.089665e-05	1.35128e-05	0.01352883	0.007326951
	0.01386428	0.006694811	-2.089665e-05	1.35128e-05	-0.0924769	-0.06395692	-1.906445e-05	1.133919e-05
	-1.784247e-06	6.116393e-07	0.01352883	0.007326951	-1.906445e-05	1.133919e-05	-0.09320087	-0.06224426
2.7e+08	-0.09744556	-0.06109959	-7.802873e-07	7.444705e-07	0.01432449	0.006214107	-1.782777e-06	6.127742e-07
	-7.802873e-07	7.444705e-07	-0.09806982	-0.059667	-2.045073e-05	1.38862e-05	0.01399837	0.006898964
	0.01432449	0.006214107	-2.045073e-05	1.38862e-05	-0.09745843	-0.06126593	-1.868202e-05	1.169681e-05
	-1.782777e-06	6.127742e-07	0.01399837	0.006898964	-1.868202e-05	1.169681e-05	-0.09815101	-0.05944112
2.8e+08	-0.1021743	-0.05805242	-7.372224e-07	7.731091e-07	0.01473564	0.005696498	-1.782093e-06	6.16924e-07
	-7.372224e-07	7.731091e-07	-0.1027789	-0.05649896	-1.999203e-05	1.426299e-05	0.0144227	0.006434221
	0.01473564	0.005696498	-1.999203e-05	1.426299e-05	-0.1022051	-0.05819179	-1.828895e-05	1.205676e-05
	-1.782093e-06	6.16924e-07	0.0144227	0.006434221	-1.828895e-05	1.205676e-05	-0.1028584	-0.05625476
2.9e+08	-0.1066411	-0.05464441	-6.93505e-07	7.995181e-07	0.01509497	0.005146506	-1.782087e-06	6.239304e-07
	-6.93505e-07	7.995181e-07	-0.107217	-0.05297003	-1.952027e-05	1.464086e-05	0.01479912	0.005936868
	0.01509497	0.005146506	-1.952027e-05	1.464086e-05	-0.1066876	-0.05475574	-1.788488e-05	1.241727e-05
	-1.782087e-06	6.239304e-07	0.01479912	0.005936868	-1.788488e-05	1.241727e-05	-0.1072934	-0.05270725
3e+08	-0.1108185	-0.05089878	-6.491916e-07	8.23706e-07	0.0154001	0.004568834	-1.782647e-06	6.336603e-07
	-6.491916e-07	8.23706e-07	-0.1113565	-0.04910434	-1.903522e-05	1.501765e-05	0.01512529	0.005411216
	0.0154001	0.004568834	-1.903522e-05	1.501765e-05	-0.1108783	-0.05098123	-1.74695e-05	1.277669e-05
	-1.782647e-06	6.336603e-07	0.01512529	0.005411216	-1.74695e-05	1.277669e-05	-0.1114284	-0.04882285
3.1e+08	-0.1146811	-0.04684074	-6.043429e-07	8.456754e-07	0.01564909	0.003968326	-1.783663e-06	6.46007e-07
	-6.043429e-07	8.456754e-07	-0.115172	-0.04492801	-1.853669e-05	1.539131e-05	0.01539925	0.004861716
	0.01564909	0.003968326	-1.853669e-05	1.539131e-05	-0.1147518	-0.04689366	-1.704264e-05	1.313349e-05
	-1.783663e-06	6.46007e-07	0.01539925	0.004861716	-1.704264e-05	1.313349e-05	-0.115238	-0.04462783
3.2e+08	-0.1182058	-0.04249733	-5.590237e-07	8.654249e-07	0.0158404	0.003349934	-1.785018e-06	6.608768e-07
	-5.590237e-07	8.654249e-07	-0.1186404	-0.04046901	-1.802457e-05	1.575987e-05	0.01561944	0.004292922
	0.0158404	0.003349934	-1.802457e-05	1.575987e-05	-0.118285	-0.04252027	-1.660417e-05	1.348623e-05
	-1.785018e-06	6.608768e-07	0.01561944	0.004292922	-1.660417e-05	1.348623e-05	-0.1186991	-0.0401503
3.3e+08	-0.1213716	-0.03789719	-5.133082e-07	8.829575e-07	0.01597292	0.002718685	-1.786589e-06	6.781856e-07
	-5.133082e-07	8.829575e-07	-0.121741	-0.0357569	-1.749916e-05	1.612179e-05	0.01578466	0.003709467
	0.01597292	0.002718685	-1.749916e-05	1.612179e-05	-0.1214569	-0.03788994	-1.615401e-05	1.383353e-05
	-1.786589e-06	6.781856e-07	0.01578466	0.003709467	-1.615401e-05	1.383353e-05	-0.1217911	-0.03541996
3.4e+08	-0.1241601	-0.03307043	-4.67274e-07	8.98272e-07	0.01604596	0.002079647	-1.788241e-06	6.978423e-07
	-4.67274e-07	8.98272e-07	-0.1244557	-0.03082271	-1.696056e-05	1.647533e-05	0.01589409	0.003116027
	0.01604596	0.002079647	-1.696056e-05	1.647533e-05	-0.1242491	-0.03303296	-1.569214e-05	1.417398e-05
	-1.788241e-06	6.978423e-07	0.01589409	0.003116027	-1.569214e-05	1.417398e-05	-0.1244956	-0.03046798
3.5e+08	-0.1265553	-0.02804839	-4.209992e-07	9.113668e-07	0.01605924	0.001437897	-1.789864e-06	7.197981e-07
	-4.209992e-07	9.113668e-07	-0.1267687	-0.02569864	-1.640907e-05	1.6819e-05	0.01594729	0.002517299
	0.01605924	0.001437897	-1.640907e-05	1.6819e-05	-0.1266457	-0.02798087	-1.52187e-05	1.450641e-05
	-1.789864e-06	7.197981e-07	0.01594729	0.002517299	-1.52187e-05	1.450641e-05	-0.1267971	-0.02532671
3.6e+08	-0.1285438	-0.02286345	-3.745658e-07	9.222417e-07	0.0160129	0.0007984896	-1.791335e-06	7.439972e-07
	-3.745658e-07	9.222417e-07	-0.1286671	-0.02041794	-1.584512e-05	1.715148e-05	0.01594419	0.00191797
	0.0160129	0.0007984896	-1.584512e-05	1.715148e-05	-0.1286332	-0.02276626	-1.47339e-05	1.482971e-05
	-1.791335e-06	7.439972e-07	0.01594419	0.00191797	-1.47339e-05	1.482971e-05	-0.1286828	-0.02002954
3.7e+08	-0.1301149	-0.01754883	-3.280604e-07	9.308983e-07	0.01590747	0.0001664284	-1.792524e-06	7.703808e-07
	-3.280604e-07	9.308983e-07	-0.1301407	-0.01501466	-1.526914e-05	1.747144e-05	0.0158851	0.001322692
	0.01590747	0.0001664284	-1.526914e-05	1.747144e-05	-0.1302011	-0.01742255	-1.423797e-05	1.514277e-05
	-1.792524e-06	7.703808e-07	0.0158851	0.001322692	-1.423797e-05	1.514277e-05	-0.1301422	-0.01461066
3.8e+08	-0.1312603	-0.0121384	-2.815729e-07	9.373411e-07	0.01574387	-0.0004533621	-1.793304e-06	7.988905e-07
	-2.815729e-07	9.373411e-07	-0.1311819	-0.009523435	-1.468165e-05	1.777764e-05	0.01577066	0.0007360586
	0.01574387	-0.0004533621	-1.468165e-05	1.777764e-05	-0.1313411	-0.01198379	-1.373123e-05	1.544452e-05
	-1.793304e-06	7.988905e-07	0.01577066	0.0007360586	-1.373123e-05	1.544452e-05	-0.1311681	-0.009104835
3.9e+08	-0.1319747	-0.006666456	-2.351956e-07	9.415781e-07	0.01552343	-0.001056064	-1.793546e-06	8.294684e-07
	-2.351956e-07	9.415781e-07	-0.131786	-0.003979284	-1.408322e-05	1.806893e-05	0.01560189	0.0001625796
	0.01552343	-0.001056064	-1.408322e-05	1.806893e-05	-0.132048	-0.00648447	-1.321404e-05	1.573396e-05
	-1.793546e-06	8.294684e-07	0.01560189	0.0001625796	-1.321404e-05	1.573396e-05	-0.1317556	-0.003547231
4e+08	-0.1322553	-0.001167529	-1.890235e-07	9.436212e-07	0.01524782	-0.001636992	-1.793119e-06	8.620527e-07
	-1.890235e-07	9.436212e-07	-0.131951	0.001582586	-1.347451e-05	1.83442e-05	0.01538014	-0.0003933405
	0.01524782	-0.001636992	-1.347451e-05	1.83442e-05	-0.1323192	-0.0009592875	-1.268684e-05	1.601012e-05
	-1.793119e-06	8.620527e-07	0.01538014	-0.0003933405	-1.268684e-05	1.601012e-05	-0.1319029	0.00202683
4.1e+08	-0.1321021	0.004323817	-1.431533e-07	9.434871e-07	0.0149191	-0.002191617	-1.791894e-06	8.965815e-07
	-1.431533e-07	9.434871e-07	-0.1316775	0.007127017	-1.285623e-05	1.860248e-05	0.01510708	-0.0009274251
	0.0149191	-0.002191617	-1.285623e-05	1.860248e-05	-0.1321546	0.004557023	-1.215014e-05	1.62721e-05
	-1.791894e-06	8.965815e-07	0.01510708	-0.0009274251	-1.215014e-05	1.62721e-05	-0.131611	0.007582068
4.2e+08	-0.1315178	0.009773186	-9.768251e-08	9.411976e-07	0.01453965	-0.002715593	-1.789745e-06	9.329911e-07
	-9.768251e-08	9.411976e-07	-0.1309693	0.01261908	-1.222915e-05	1.884284e-05	0.01478472	-0.001435547
	0.01453965	-0.002715593	-1.222915e-05	1.884284e-05	-0.1315572	0.01002991	-1.160448e-05	1.651907e-05
	-1.789745e-06	9.329911e-07	0.01478472	-0.001435547	-1.160448e-05	1.651907e-05	-0.1308834	0.01308345
4.3e+08	-0.1305076	0.01514656	-5.270983e-08	9.367796e-07	0.01411222	-0.003204778	-1.786542e-06	9.712135e-07
	-5.270983e-08	9.367796e-07	-0.1298325	0.01802429	-1.159411e-05	1.906448e-05	0.01441537	-0.001913748
	0.01411222	-0.003204778	-1.159411e-05	1.906448e-05	-0.1305323	0.0154252	-1.105048e-05	1.675022e-05
	-1.786542e-06	9.712135e-07	0.01441537	-0.001913748	-1.105048e-05	1.675022e-05	-0.1297264	0.01849639
4.4e+08	-0.1290795	0.02041046	-8.333536e-09	9.302657e-07	0.01363984	-0.003655258	-1.782161e-06	1.011175e-06
	-8.333536e-09	9.302657e-07	-0.1282761	0.02330883	-1.095196e-05	1.926662e-05	0.01400165	-0.002358261
	0.01363984	-0.003655258	-1.095196e-05	1.926662e-05	-0.1290881	0.02070931	-1.04888e-05	1.696484e-05
	-1.782161e-06	1.011175e-06	0.01400165	-0.002358261	-1.04888e-05	1.696484e-05	-0.1281493	0.02378698
4.5e+08	-0.1272441	0.0255322	3.534828e-08	9.216942e-07	0.01312586	-0.004063365	-1.776478e-06	1.052797e-06
	3.534828e-08	9.216942e-07	-0.1263115	0.02843969	-1.030362e-05	1.944858e-05	0.01354644	-0.002765528
	0.01312586	-0.004063365	-1.030362e-05	1.944858e-05	-0.1272352	0.0258494	-9.920147e-06	1.716222e-05
	-1.776478e-06	1.052797e-06	0.01354644	-0.002765528	-9.920147e-06	1.716222e-05	-0.1261636	0.02892214
4.6e+08	-0.1250143	0.03048	7.823892e-08	9.111094e-07	0.01257392	-0.004425705	-1.769369e-06	1.095998e-06
	7.823892e-08	9.111094e-07	-0.1239529	0.03338491	-9.650051e-06	1.96098e-05	0.01305291	-0.003132219
	0.01257392	-0.004425705	-9.650051e-06	1.96098e-05	-0.1249869	0.03081361	-9.345279e-06	1.734177e-05
	-1.769369e-06	1.095998e-06	0.01305291	-0.003132219	-9.345279e-06	1.734177e-05	-0.1237836	0.03386986
4.7e+08	-0.1224055	0.03522324	1.202435e-07	8.985613e-07	0.01198792	-0.00473917	-1.760717e-06	1.140688e-06
	1.202435e-07	8.985613e-07	-0.1212167	0.03811378	-8.99222e-06	1.974972e-05	0.01252449	-0.003455254
	0.01198792	-0.00473917	-8.99222e-06	1.974972e-05	-0.1223588	0.03557122	-8.764987e-06	1.750291e-05
