!$
! Info: Touchstone file created by Circ.  Input file=Tx_4in_Rx_85ohms_TxVia_10mils_RxVia_20mils.circ
!$
# Hz S RI R 50
0	0.003338516	3.639109e-26	0.9965304	-3.454505e-26	3.341984e-05	3.369127e-24	-3.185176e-05	1.231179e-21
	0.9965304	-3.489986e-26	0.003338125	4.461298e-26	-3.172049e-05	1.215176e-21	3.284984e-05	4.687431e-24
	3.569362e-05	3.377008e-24	-3.166826e-05	1.208798e-21	0.003331278	3.171937e-26	0.9965003	-3.057935e-26
	-3.226298e-05	1.281558e-21	3.430804e-05	4.824494e-24	0.9965003	-3.210087e-26	0.003343772	4.259121e-26
1e+07	0.004529131	-0.003497512	0.994155	-0.04450588	9.635207e-05	0.0008232704	-5.370499e-05	-6.113231e-06
	0.994155	-0.04450588	0.00452615	-0.003497835	-5.372807e-05	-6.090173e-06	9.497269e-05	0.000823565
	9.639988e-05	0.0008232437	-5.368944e-05	-6.110777e-06	0.004531685	-0.003493901	0.9941488	-0.04460085
	-5.366636e-05	-6.133838e-06	9.500484e-05	0.0008235535	0.9941488	-0.04460085	0.00452874	-0.003494268
2e+07	0.005263441	-0.008098087	0.9898124	-0.08763086	0.0002207501	0.001617223	-5.62168e-05	5.797114e-06
	0.9898124	-0.08763086	0.00525162	-0.008098151	-5.620979e-05	5.823081e-06	0.00021533	0.001618292
	0.0002207418	0.001617198	-5.62093e-05	5.794439e-06	0.005267609	-0.008087038	0.989789	-0.08782353
	-5.620674e-05	5.761898e-06	0.0002153269	0.001618271	0.989789	-0.08782353	0.005256056	-0.008087079
3e+07	0.005232712	-0.01321587	0.9839636	-0.1299306	0.0004096207	0.002390937	-4.602532e-05	1.961475e-05
	0.9839636	-0.1299306	0.005206073	-0.01321426	-4.602962e-05	1.961999e-05	0.0003976552	0.002393531
	0.0004096212	0.002390934	-4.603202e-05	1.961567e-05	0.005238128	-0.0131989	0.9839165	-0.1302151
	-4.602707e-05	1.960835e-05	0.0003976501	0.002393528	0.9839165	-0.1302151	0.005212397	-0.01319724
4e+07	0.004588114	-0.01845643	0.9764765	-0.1716999	0.000662481	0.003140933	-2.491117e-05	3.137801e-05
	0.9764765	-0.1716999	0.004540893	-0.0184509	-2.49239e-05	3.13882e-05	0.0006415682	0.003146131
	0.0006624851	0.003140929	-2.492101e-05	3.138929e-05	0.0045947	-0.01843561	0.9763985	-0.1720742
	-2.490772e-05	3.138278e-05	0.0006415679	0.003146132	0.9763985	-0.1720742	0.004549088	-0.01843028
5e+07	0.003391343	-0.02369867	0.9673183	-0.2129504	0.0009771338	0.003862272	6.130065e-06	3.818198e-05
	0.9673183	-0.2129504	0.003318099	-0.02368622	6.122937e-06	3.81889e-05	0.0009450438	0.003871463
	0.0009771351	0.003862269	6.124564e-06	3.818912e-05	0.003397525	-0.02367489	0.9672016	-0.2134119
	6.132822e-06	3.818434e-05	0.0009450433	0.003871463	0.9672016	-0.2134119	0.003326621	-0.02366282
6e+07	0.001680217	-0.02886674	0.9564863	-0.2536481	0.001350736	0.004550001	4.566238e-05	3.769804e-05
	0.9564863	-0.2536481	0.001575923	-0.02884367	4.565513e-05	3.768811e-05	0.001305439	0.004564843
	0.001350736	0.004550002	4.565184e-05	3.768864e-05	0.001684826	-0.02883987	0.9563234	-0.2541934
	4.565712e-05	3.769638e-05	0.001305436	0.004564843	0.9563234	-0.2541934	0.001583907	-0.02881735
7e+07	-0.0005153241	-0.03390236	0.9439917	-0.2937425	0.001779957	0.005199313	9.21074e-05	2.812944e-05
	0.9439917	-0.2937425	-0.0006552058	-0.03386435	9.208792e-05	2.810211e-05	0.001719641	0.005221703
	0.001779958	0.005199318	9.208034e-05	2.810483e-05	-0.0005129804	-0.03387228	0.9437756	-0.2943678
	9.209299e-05	2.812694e-05	0.001719636	0.005221706	0.9437756	-0.2943678	-0.000648199	-0.03383525
8e+07	-0.003167795	-0.03875671	0.9298547	-0.3331752	0.002261014	0.005805695	0.0001438244	7.934703e-06
	0.9298547	-0.3331752	-0.003347269	-0.03869891	0.000143788	7.899929e-06	0.002184093	0.005837746
	0.002261016	0.0058057	0.0001437792	7.904807e-06	-0.003168375	-0.03872351	0.9295787	-0.3338765
	0.0001438056	7.933994e-06	0.002184089	0.00583775	0.9295787	-0.3338765	-0.003341918	-0.03866743
9e+07	-0.006250005	-0.04338724	0.9141018	-0.3718846	0.002789745	0.006365135	0.0001990006	-2.440057e-05
	0.9141018	-0.3718846	-0.006472512	-0.0433043	0.0001989548	-2.443063e-05	0.002694877	0.00640916
	0.002789748	0.006365138	0.0001989486	-2.442601e-05	-0.006254385	-0.04335109	0.9137597	-0.3726575
	0.000198986	-2.439953e-05	0.002694874	0.006409164	0.9137597	-0.3726575	-0.006469949	-0.04327076
1e+08	-0.009734616	-0.04775748	0.8967656	-0.4098065	0.003362143	0.006875274	0.0002550901	-7.148191e-05
	0.8967656	-0.4098065	-0.010003	-0.04764363	0.0002550531	-7.149977e-05	0.003248247	0.006933769
	0.003362143	0.006875274	0.0002550533	-7.149999e-05	-0.009743967	-0.04771856	0.8963514	-0.4106461
	0.0002550903	-7.148214e-05	0.003248247	0.006933769	0.8963514	-0.4106461	-0.01000472	-0.04760806
1.1e+08	-0.01359618	-0.05183551	0.87789	-0.4468851	0.003978114	0.007327771	0.0003046139	-0.0001286112
	0.87789	-0.4468851	-0.01391333	-0.05168363	0.0003045372	-0.0001286487	0.003843829	0.007402906
	0.003978114	0.00732777	0.0003045374	-0.0001286489	-0.01361102	-0.05179164	0.877397	-0.447787
	0.000304614	-0.0001286114	0.003843829	0.007402906	0.877397	-0.447787	-0.01391979	-0.0516443
1.2e+08	-0.01779952	-0.05557791	0.8575042	-0.4830602	0.004624887	0.007719177	0.0003530344	-0.0001960634
	0.8575042	-0.4830602	-0.01816629	-0.05538163	0.0003529237	-0.0001961021	0.004469948	0.007814094
	0.004624887	0.007719176	0.0003529238	-0.0001961023	-0.0178207	-0.05552854	0.8569268	-0.4840184
	0.0003530345	-0.0001960636	0.004469948	0.007814094	0.8569268	-0.4840184	-0.01817806	-0.05533782
1.3e+08	-0.02231097	-0.05895984	0.8356521	-0.5182701	0.005297495	0.008048955	0.0003975384	-0.0002756012
	0.8356521	-0.5182701	-0.02272768	-0.05871264	0.0003974005	-0.0002756319	0.005121955	0.00816666
	0.005297495	0.008048955	0.0003974005	-0.000275632	-0.02233931	-0.05890415	0.8349854	-0.5192786
	0.0003975385	-0.0002756013	0.005121955	0.00816666	0.8349854	-0.5192786	-0.02274529	-0.05866358
1.4e+08	-0.02709562	-0.06195828	0.8123801	-0.5524567	0.005990392	0.00831571	0.0004358043	-0.0003672786
	0.8123801	-0.5524567	-0.02756194	-0.06165355	0.0004356446	-0.0003672979	0.00579459	0.008459129
	0.005990392	0.00831571	0.0004356446	-0.000367298	-0.02713177	-0.0618952	0.8116193	-0.5535093
	0.0004358043	-0.0003672787	0.00579459	0.008459129	0.8116193	-0.5535093	-0.02758586	-0.06159835
1.5e+08	-0.03211768	-0.06455328	0.7877372	-0.5855647	0.006697864	0.008518358	0.0004656448	-0.0004706392
	0.7877372	-0.5855647	-0.03263263	-0.06418434	0.0004654663	-0.0004706467	0.00648242	0.008690362
	0.006697864	0.008518358	0.0004654663	-0.0004706468	-0.03216207	-0.06448157	0.7868779	-0.586655
	0.0004656448	-0.0004706392	0.00648242	0.008690362	0.7868779	-0.586655	-0.03266315	-0.06412199
1.6e+08	-0.03734059	-0.06672801	0.7617749	-0.617541	0.007414117	0.008656263	0.000484998	-0.0005848551
	0.7617749	-0.617541	-0.03790245	-0.06628816	0.0004848014	-0.0005848517	0.007179942	0.008859669
	0.007414117	0.008656263	0.0004848014	-0.0005848517	-0.03739342	-0.06664633	0.760813	-0.6186624
	0.000484998	-0.0005848552	0.007179942	0.008859669	0.760813	-0.6186624	-0.03793973	-0.06621763
1.7e+08	-0.04272712	-0.06846881	0.7345468	-0.6483357	0.008133337	0.008729282	0.000491949	-0.0007087826
	0.7345468	-0.6483357	-0.04333345	-0.06795144	0.0004917328	-0.0007087688	0.007881637	0.008966839
	0.008133337	0.008729282	0.0004917328	-0.0007087689	-0.04278835	-0.0683758	0.7334785	-0.6494813
	0.000491949	-0.0007087826	0.007881637	0.008966839	0.7334785	-0.6494813	-0.04337748	-0.06787163
1.8e+08	-0.04823953	-0.06976518	0.7061083	-0.6779012	0.008849747	0.008737774	0.0004847571	-0.000840998
	0.7061083	-0.6779012	-0.04888714	-0.06916383	0.0004845187	-0.0008409737	0.008582031	0.009012141
	0.008849747	0.008737774	0.0004845187	-0.0008409738	-0.04830894	-0.06965948	0.7049303	-0.679064
	0.0004847571	-0.0008409981	0.008582031	0.009012141	0.7049303	-0.679064	-0.04893777	-0.06907365
1.9e+08	-0.05383979	-0.0706098	0.6765166	-0.706193	0.00955766	0.008682601	0.000461885	-0.0009798302
	0.6765166	-0.706193	-0.05452473	-0.06991825	0.0004616208	-0.000979794	0.009275737	0.008996315
	0.00955766	0.008682601	0.0004616208	-0.000979794	-0.05391695	-0.07049009	0.6752259	-0.7073657
	0.000461885	-0.0009798302	0.009275737	0.008996316	0.6752259	-0.7073657	-0.05458165	-0.06981661
2e+08	-0.05948975	-0.07099851	0.6458305	-0.7331696	0.01025152	0.008565114	0.0004220248	-0.001123392
	0.6458305	-0.7331696	-0.06020735	-0.07021087	0.0004217312	-0.001123342	0.009957498	0.008920562
	0.01025152	0.008565114	0.0004217312	-0.001123342	-0.05957407	-0.07086352	0.6444245	-0.7343446
	0.0004220248	-0.001123392	0.009957498	0.008920562	0.6444245	-0.7343446	-0.06027012	-0.07009672
2.1e+08	-0.06515139	-0.07093029	0.6141097	-0.7587922	0.01092597	0.008387135	0.0003641218	-0.001269617
	0.6141097	-0.7587922	-0.06589626	-0.07004107	0.0003637953	-0.001269547	0.01062223	0.008786519
	0.01092597	0.008387135	0.0003637953	-0.001269547	-0.06524211	-0.07077883	0.6125863	-0.7599618
	0.0003641218	-0.001269617	0.01062223	0.008786519	0.6125863	-0.7599618	-0.06596431	-0.06991341
2.2e+08	-0.07078702	-0.07040721	0.5814154	-0.783025	0.01157586	0.008150936	0.0002873938	-0.001416288
	0.5814154	-0.783025	-0.07155312	-0.06941141	0.0002870314	-0.001416195	0.01126506	0.008596243
	0.01157586	0.008150936	0.0002870314	-0.001416195	-0.07088325	-0.07023818	0.5797729	-0.7841814
	0.0002873938	-0.001416288	0.01126506	0.008596243	0.5797729	-0.7841814	-0.07162574	-0.06926929
2.3e+08	-0.07635951	-0.06943436	0.5478095	-0.8058352	0.01219629	0.007859209	0.0001913465	-0.001561084
	0.5478095	-0.8058352	-0.07714017	-0.06832756	0.0001909461	-0.001560962	0.01188135	0.008352177
	0.01219629	0.007859209	0.0001909461	-0.001560962	-0.07646022	-0.06924674	0.5460466	-0.8069704
	0.0001913465	-0.001561084	0.01188135	0.008352178	0.5460466	-0.8069704	-0.07721655	-0.06817009
2.4e+08	-0.08183253	-0.06801981	0.5133544	-0.8271928	0.01278269	0.007515034	7.578401e-05	-0.001701611
	0.5133544	-0.8271928	-0.08262054	-0.0667982	7.53442e-05	-0.001701453	0.01246674	0.008057131
	0.01278269	0.007515034	7.53442e-05	-0.001701453	-0.08193659	-0.06781269	0.5114704	-0.8282987
	7.578401e-05	-0.001701611	0.01246674	0.008057131	0.5114704	-0.8282987	-0.08269975	-0.06662459
2.5e+08	-0.08717075	-0.06617445	0.4781135	-0.8470707	0.01333078	0.007121852	-5.918582e-05	-0.001835444
	0.4781135	-0.8470707	-0.08795838	-0.06483494	-5.96654e-05	-0.001835243	0.01301715	0.007714243
	0.01333078	0.007121852	-5.96654e-05	-0.001835243	-0.08727693	-0.06594704	0.476108	-0.8481392
	-5.918582e-05	-0.001835444	0.01301715	0.007714243	0.476108	-0.8481392	-0.0880394	-0.06464448
2.6e+08	-0.09234006	-0.06391194	0.4421502	-0.8654447	0.01383663	0.006683426	-0.0002131501	-0.001960165
	0.4421502	-0.8654447	-0.09311916	-0.06245218	-0.0002136688	-0.001959913	0.01352883	0.007326951
	0.01383663	0.006683426	-0.0002136688	-0.001959913	-0.09244701	-0.06366356	0.4400233	-0.8664674
	-0.0002131501	-0.001960165	0.01352883	0.007326951	0.4400233	-0.8664674	-0.09320087	-0.06224426
2.7e+08	-0.09730774	-0.06124855	0.4055283	-0.882293	0.0142967	0.006203804	-0.0003853952	-0.002073399
	0.4055283	-0.882293	-0.09806982	-0.059667	-0.0003859513	-0.002073089	0.01399837	0.006898964
	0.0142967	0.006203804	-0.0003859513	-0.002073089	-0.09741404	-0.06097866	0.4032807	-0.8832617
	-0.0003853952	-0.002073399	0.01399837	0.006898964	0.4032807	-0.8832617	-0.09815101	-0.05944112
2.8e+08	-0.1020427	-0.05820303	0.3683117	-0.8975969	0.01470781	0.005687288	-0.0005749151	-0.002172858
	0.3683117	-0.8975969	-0.1027789	-0.05649896	-0.0005755057	-0.002172483	0.0144227	0.006434221
	0.01470781	0.005687288	-0.0005755057	-0.002172483	-0.1021468	-0.05791123	0.3659447	-0.8985033
	-0.0005749151	-0.002172858	0.0144227	0.006434221	0.3659447	-0.8985033	-0.1028584	-0.05625476
2.9e+08	-0.1065155	-0.05479645	0.3305646	-0.91134	0.0150672	0.005138394	-0.000780424	-0.002256369
	0.3305646	-0.91134	-0.107217	-0.05297003	-0.0007810454	-0.002255919	0.01479912	0.005936868
	0.0150672	0.005138394	-0.0007810454	-0.002255919	-0.106616	-0.05448246	0.3280795	-0.9121758
	-0.000780424	-0.002256369	0.01479912	0.005936868	0.3280795	-0.9121758	-0.1072934	-0.05270725
3e+08	-0.1106988	-0.05105205	0.2923507	-0.9235085	0.01537249	0.004561815	-0.001000374	-0.002321908
	0.2923507	-0.9235085	-0.1113565	-0.04910434	-0.001001021	-0.002321378	0.01512529	0.005411216
	0.01537249	0.004561815	-0.001001021	-0.002321378	-0.110794	-0.05071577	0.2897497	-0.9242654
	-0.001000374	-0.002321908	0.01512529	0.005411216	0.2897497	-0.9242654	-0.1114284	-0.04882285
3.1e+08	-0.1145672	-0.04699505	0.2537337	-0.934091	0.01562174	0.003962388	-0.001232974	-0.002367636
	0.2537337	-0.934091	-0.115172	-0.04492801	-0.001233642	-0.002367018	0.01539925	0.004861716
	0.01562174	0.003962388	-0.001233642	-0.002367018	-0.1146554	-0.04663652	0.2510194	-0.934761
	-0.001232974	-0.002367636	0.01539925	0.004861716	0.2510194	-0.934761	-0.115238	-0.04462783
3.2e+08	-0.1180975	-0.04265251	0.2147773	-0.9430785	0.01581343	0.003345059	-0.001476217	-0.002391922
	0.2147773	-0.9430785	-0.1186404	-0.04046901	-0.001476898	-0.002391209	0.01561944	0.004292922
	0.01581343	0.003345059	-0.001476898	-0.002391209	-0.1181772	-0.04227191	0.2119526	-0.9436535
	-0.001476217	-0.002391922	0.01561944	0.004292922	0.2119526	-0.9436535	-0.1186991	-0.0401503
3.3e+08	-0.1212689	-0.03805308	0.1755447	-0.9504643	0.01594643	0.002714845	-0.001727903	-0.002393367
	0.1755447	-0.9504643	-0.121741	-0.0357569	-0.00172859	-0.002392554	0.01578466	0.003709467
	0.01594643	0.002714845	-0.00172859	-0.002392554	-0.1213383	-0.03765079	0.172613	-0.9509363
	-0.001727903	-0.002393367	0.01578466	0.003709467	0.172613	-0.9509363	-0.1217911	-0.03541996
3.4e+08	-0.1240629	-0.03322686	0.1360987	-0.9562437	0.01602005	0.002076806	-0.001985672	-0.00237083
	0.1360987	-0.9562437	-0.1244557	-0.03082271	-0.001986356	-0.002369911	0.01589409	0.003116027
	0.01602005	0.002076806	-0.001986356	-0.002369911	-0.1241204	-0.03280342	0.133064	-0.956605
	-0.001985672	-0.00237083	0.01589409	0.003116027	0.133064	-0.956605	-0.1244956	-0.03046798
3.5e+08	-0.1264635	-0.02820521	0.09650184	-0.9604145	0.01603403	0.001436008	-0.002247033	-0.002323438
	0.09650184	-0.9604145	-0.1267687	-0.02569864	-0.002247705	-0.002322408	0.01594729	0.002517299
	0.01603403	0.001436008	-0.002247705	-0.002322408	-0.1265075	-0.02776129	0.09336857	-0.9606573
	-0.002247033	-0.002323438	0.01594729	0.002517299	0.09336857	-0.9606573	-0.1267971	-0.02532671
3.6e+08	-0.1284573	-0.0230205	0.05681631	-0.9629761	0.01598847	0.0007974991	-0.002509397	-0.002250604
	0.05681631	-0.9629761	-0.1286671	-0.02041794	-0.002510047	-0.00224946	0.01594419	0.00191797
	0.01598847	0.0007974991	-0.002510047	-0.00224946	-0.1284863	-0.02255697	0.05358923	-0.9630931
	-0.002509397	-0.002250604	0.01594419	0.00191797	0.05358923	-0.9630931	-0.1286828	-0.02002954
3.7e+08	-0.1300336	-0.01770596	0.0171038	-0.9639302	0.01588393	0.0001662731	-0.002770113	-0.002152035
	0.0171038	-0.9639302	-0.1301407	-0.01501466	-0.002770731	-0.002150774	0.0158851	0.001322692
	0.01588393	0.0001662731	-0.002770731	-0.002150774	-0.130046	-0.01722383	0.01378815	-0.9639141
	-0.002770113	-0.002152035	0.0158851	0.001322692	0.01378815	-0.9639141	-0.1301422	-0.01461066
3.8e+08	-0.1311843	-0.01229544	-0.02257443	-0.9632804	0.01572132	-0.0004527538	-0.003026503	-0.002027738
	-0.02257443	-0.9632804	-0.1311819	-0.009523435	-0.003027076	-0.002026358	0.01577066	0.0007360586
	0.01572132	-0.0004527538	-0.003027076	-0.002026358	-0.1311785	-0.01179591	-0.02597297	-0.9631242
	-0.003026503	-0.002027738	0.01577066	0.0007360586	-0.02597297	-0.9631242	-0.1311681	-0.009104835
3.9e+08	-0.1319038	-0.006823252	-0.06215753	-0.961032	0.01550195	-0.001054772	-0.003275891	-0.001878019
	-0.06215753	-0.961032	-0.131786	-0.003979284	-0.00327641	-0.001876519	0.01560189	0.0001625796
	0.01550195	-0.001054772	-0.00327641	-0.001876519	-0.1318787	-0.006307636	-0.06563289	-0.9607289
	-0.003275891	-0.001878019	0.01560189	0.0001625796	-0.06563289	-0.9607289	-0.1317556	-0.003547231
4e+08	-0.1321895	-0.00132392	-0.1015851	-0.9571925	0.0152275	-0.001635104	-0.003515649	-0.001703481
	-0.1015851	-0.9571925	-0.131951	0.001582586	-0.0035161	-0.001701861	0.01538014	-0.0003933405
	0.0152275	-0.001635104	-0.0035161	-0.001701861	-0.1321437	-0.0007937007	-0.1051308	-0.956736
	-0.003515649	-0.001703481	0.01538014	-0.0003933405	-0.1051308	-0.956736	-0.1319029	0.00202683
4.1e+08	-0.1320413	0.004168	-0.1407973	-0.9517709	0.01490002	-0.002189228	-0.003743218	-0.001505018
	-0.1407973	-0.9517709	-0.1316775	0.007127017	-0.00374359	-0.00150328	0.01510708	-0.0009274251
	0.01490002	-0.002189228	-0.00374359	-0.00150328	-0.1319737	0.004711206	-0.1444064	-0.9511547
	-0.003743218	-0.001505018	0.01510708	-0.0009274251	-0.1444064	-0.9511547	-0.131611	0.007582068
4.2e+08	-0.1314619	0.009618113	-0.1797345	-0.9447781	0.01452189	-0.002712807	-0.003956152	-0.001283803
	-0.1797345	-0.9447781	-0.1309693	0.01261908	-0.003956432	-0.001281948	0.01478472	-0.001435547
	0.01452189	-0.002712807	-0.003956432	-0.001281948	-0.1313715	0.01017256	-0.1833998	-0.9439963
	-0.003956152	-0.001283803	0.01478472	-0.001435547	-0.1833998	-0.9439963	-0.1308834	0.01308345
4.3e+08	-0.1304566	0.0149924	-0.2183377	-0.9362269	0.01409583	-0.003201704	-0.004152142	-0.001041273
	-0.2183377	-0.9362269	-0.1298325	0.01802429	-0.004152318	-0.001039307	0.01441537	-0.001913748
	0.01409583	-0.003201704	-0.004152318	-0.001039307	-0.1303426	0.01555624	-0.2220516	-0.9352739
	-0.004152142	-0.001041273	0.01441537	-0.001913748	-0.2220516	-0.9352739	-0.1297264	0.01849639
4.4e+08	-0.1290333	0.0202574	-0.2565483	-0.9261317	0.01362488	-0.00365201	-0.004329048	-0.0007791146
	-0.2565483	-0.9261317	-0.1282761	0.02330883	-0.00432911	-0.0007770404	0.01400165	-0.002358261
	0.01362488	-0.00365201	-0.00432911	-0.0007770405	-0.128895	0.02082866	-0.2603028	-0.9250023
	-0.004329048	-0.0007791146	0.01400165	-0.002358261	-0.2603028	-0.9250023	-0.1281493	0.02378698
4.5e+08	-0.1272026	0.02538042	-0.2943081	-0.9145088	0.01311238	-0.004060066	-0.004484929	-0.0004992374
	-0.2943081	-0.9145088	-0.1263115	0.02843969	-0.004484863	-0.0004970621	0.01354644	-0.002765528
	0.01311238	-0.004060066	-0.004484863	-0.0004970621	-0.1270395	0.02595705	-0.298095	-0.9131981
	-0.004484929	-0.0004992374	0.01354644	-0.002765528	-0.298095	-0.9131981	-0.1261636	0.02892214
4.6e+08	-0.1249774	0.03032969	-0.3315595	-0.9013763	0.01256195	-0.00442248	-0.004618061	-0.0002037545
	-0.3315595	-0.9013763	-0.1239529	0.03338491	-0.004617857	-0.0002014854	0.01305291	-0.003132219
	0.01256195	-0.00442248	-0.004617857	-0.0002014854	-0.1247891	0.03090957	-0.33537	-0.8998797
	-0.004618061	-0.0002037545	0.01305291	-0.003132219	-0.33537	-0.8998797	-0.1237836	0.03386986
4.7e+08	-0.1223732	0.03507457	-0.3682451	-0.8867542	0.01197749	-0.00473615	-0.004726965	0.0001050463
	-0.3682451	-0.8867542	-0.1212167	0.03811378	-0.004726612	0.0001074008	0.01252449	-0.003455254
	0.01197749	-0.00473615	-0.004726612	0.0001074008	-0.1221597	0.03565552	-0.3720703	-0.8850676
	-0.004726965	0.0001050463	0.01252449	-0.003455254	-0.3720703	-0.8850676	-0.121026	0.03859935
4.8e+08	-0.1194078	0.03958576	-0.4043083	-0.870664	0.01136312	-0.004998285	-0.004810423	0.0004247314
	-0.4043083	-0.870664	-0.1181219	0.04259695	-0.00480991	0.0004271617	0.01196483	-0.003731817
	0.01136312	-0.004998285	-0.00480991	0.0004271617	-0.119169	0.04016554	-0.4081388	-0.8687837
	-0.004810423	0.0004247314	0.01196483	-0.003731817	-0.4081388	-0.8687837	-0.1179098	0.04308126
4.9e+08	-0.1161012	0.04383539	-0.4396926	-0.8531296	0.01072322	-0.00520642	-0.004867491	0.0007527519
	-0.4396926	-0.8531296	-0.1146896	0.04680667	-0.004866809	0.0007552477	0.01137783	-0.00395938
	0.01072322	-0.00520642	-0.004866809	0.0007552477	-0.1158374	0.04441175	-0.4435191	-0.8510523
	-0.004867491	0.0007527519	0.01137783	-0.00395938	-0.4435191	-0.8510523	-0.1144563	0.0472878
5e+08	-0.1124754	0.04779726	-0.4743424	-0.8341763	0.01006234	-0.005358439	-0.004897514	0.001086477
	-0.4743424	-0.8341763	-0.110943	0.05071694	-0.004896655	0.001089027	0.01076758	-0.004135714
	0.01006234	-0.005358439	-0.004896655	0.001089027	-0.1121871	0.04836796	-0.478155	-0.8318992
	-0.004897514	0.001086477	0.01076758	-0.004135714	-0.478155	-0.8318992	-0.1106889	0.05119298
