!$
! Info: Touchstone file created by Circ.  Input file=Tx_4in_Rx_85ohms_TxVia_10mils_RxVia_20mils.circ
!$
# Hz S RI R 50
0	0.003337443	3.312874e-26	-2.186106e-05	2.047097e-25	3.47659e-05	3.503952e-24	-2.188697e-05	3.018513e-24
	-2.186107e-05	2.052607e-25	0.003338125	4.461298e-26	-2.185413e-05	9.25239e-26	3.284984e-05	4.687431e-24
	3.34642e-05	3.414167e-24	-2.185413e-05	9.257157e-26	0.003352865	3.472314e-26	-2.186406e-05	3.936758e-25
	-2.188696e-05	3.017819e-24	3.430804e-05	4.824494e-24	-2.186405e-05	3.927152e-25	0.003343772	4.259121e-26
1e+07	0.004515363	-0.003495879	-4.551736e-05	-1.238368e-05	9.637007e-05	0.0008221525	-3.319647e-06	-1.02474e-06
	-4.551736e-05	-1.238368e-05	0.00452615	-0.003497835	-1.733443e-05	3.145329e-05	9.497269e-05	0.000823565
	9.632621e-05	0.000822156	-1.733443e-05	3.145329e-05	0.004544363	-0.003486918	-4.553998e-05	-1.241331e-05
	-3.319647e-06	-1.024739e-06	9.500484e-05	0.0008235535	-4.553998e-05	-1.241331e-05	0.00452874	-0.003494268
2e+07	0.005252731	-0.008089984	-4.273874e-05	3.285409e-06	0.0002206153	0.001615024	-2.223077e-06	-6.916521e-06
	-4.273874e-05	3.285409e-06	0.00525162	-0.008098151	-2.448744e-05	4.137256e-05	0.00021533	0.001618292
	0.0002206056	0.001615052	-2.448744e-05	4.137256e-05	0.005279405	-0.008077863	-4.276009e-05	3.198361e-06
	-2.223077e-06	-6.916521e-06	0.0002153269	0.001618271	-4.276009e-05	3.198362e-06	0.005256056	-0.008087079
3e+07	0.005224583	-0.01320455	-4.165644e-05	-1.274705e-08	0.0004092193	0.002387635	-6.521949e-06	-8.692166e-06
	-4.165644e-05	-1.274713e-08	0.005206073	-0.01321426	-2.741223e-05	5.072324e-05	0.0003976552	0.002393531
	0.00040922	0.00238764	-2.741223e-05	5.072324e-05	0.005249366	-0.01318624	-4.168531e-05	-1.42979e-07
	-6.521949e-06	-8.692166e-06	0.0003976501	0.002393528	-4.168531e-05	-1.42979e-07	0.005212397	-0.01319724
4e+07	0.004582391	-0.01844272	-4.097253e-05	-1.628093e-06	0.0006617075	0.003136575	-1.014917e-05	-8.889051e-06
	-4.097253e-05	-1.628093e-06	0.004540893	-0.0184509	-2.747809e-05	5.861532e-05	0.0006415682	0.003146131
	0.0006617034	0.003136573	-2.747809e-05	5.861532e-05	0.00460541	-0.01841766	-4.10077e-05	-1.80472e-06
	-1.014917e-05	-8.88905e-06	0.0006415679	0.003146132	-4.10077e-05	-1.804721e-06	0.004549088	-0.01843028
5e+07	0.003387939	-0.02368306	-4.057759e-05	-2.521932e-06	0.0009759088	0.003856879	-1.328887e-05	-8.200794e-06
	-4.057759e-05	-2.521932e-06	0.003318099	-0.02368622	-2.532088e-05	6.495109e-05	0.0009450438	0.003871463
	0.0009759071	0.003856878	-2.532088e-05	6.495109e-05	0.003409135	-0.02365102	-4.061953e-05	-2.747971e-06
	-1.328887e-05	-8.200794e-06	0.0009450433	0.003871463	-4.061953e-05	-2.747972e-06	0.003326621	-0.02366282
6e+07	0.001679087	-0.02884958	-4.040515e-05	-2.993786e-06	0.001348961	0.004543592	-1.602e-05	-6.880086e-06
	-4.040515e-05	-2.993786e-06	0.001575923	-0.02884367	-2.138702e-05	6.955314e-05	0.001305439	0.004564843
	0.001348967	0.00454359	-2.138702e-05	6.955314e-05	0.001698261	-0.0288104	-4.045516e-05	-3.272715e-06
	-1.602e-05	-6.880086e-06	0.001305436	0.004564843	-4.045516e-05	-3.272715e-06	0.001583907	-0.02881735
7e+07	-0.0005142062	-0.03388396	-4.040804e-05	-3.166734e-06	0.001777531	0.005191926	-1.837348e-05	-5.036426e-06
	-4.040804e-05	-3.166734e-06	-0.0006552058	-0.03386435	-1.607704e-05	7.217506e-05	0.001719641	0.005221703
	0.001777542	0.005191919	-1.607704e-05	7.217506e-05	-0.0004973354	-0.03383743	-4.046831e-05	-3.502396e-06
	-1.837348e-05	-5.036426e-06	0.001719636	0.005221706	-4.046831e-05	-3.502396e-06	-0.000648199	-0.03383525
8e+07	-0.003164452	-0.03873735	-4.054905e-05	-3.099945e-06	0.002257845	0.005797385	-2.034714e-05	-2.701758e-06
	-4.054905e-05	-3.099944e-06	-0.003347269	-0.03869891	-9.815557e-06	7.248194e-05	0.002184093	0.005837746
	0.002257856	0.005797374	-9.815557e-06	7.248194e-05	-0.003150199	-0.03868321	-4.062286e-05	-3.496388e-06
	-2.034714e-05	-2.701758e-06	0.002184089	0.00583775	-4.062286e-05	-3.496388e-06	-0.003341918	-0.03866743
9e+07	-0.006244474	-0.04336723	-4.079764e-05	-2.826188e-06	0.002785757	0.006355965	-2.189562e-05	1.813252e-07
	-4.079764e-05	-2.826188e-06	-0.006472512	-0.0433043	-3.143449e-06	6.991357e-05	0.002694877	0.00640916
	0.002785764	0.006355955	-3.143449e-06	6.991357e-05	-0.006233153	-0.04330508	-4.088947e-05	-3.287508e-06
	-2.189562e-05	1.813251e-07	0.002694874	0.006409164	-4.088947e-05	-3.287508e-06	-0.006469949	-0.04327076
1e+08	-0.009727005	-0.04773724	-4.113655e-05	-2.374316e-06	0.003357269	0.006865309	-2.274824e-05	4.146418e-06
	-4.113655e-05	-2.374316e-06	-0.010003	-0.04764363	2.649003e-06	6.213456e-05	0.003248247	0.006933769
	0.003357268	0.006865309	2.649003e-06	6.213456e-05	-0.009718856	-0.04766648	-4.125208e-05	-2.904707e-06
	-2.274824e-05	4.146418e-06	0.003248247	0.006933769	-4.125208e-05	-2.904707e-06	-0.01000472	-0.04760806
1.1e+08	-0.01358706	-0.05181514	-4.149188e-05	-1.792301e-06	0.003972152	0.00731703	-2.116118e-05	7.17953e-06
	-4.149188e-05	-1.792301e-06	-0.01391333	-0.05168363	1.662272e-05	4.952331e-05	0.003843829	0.007402906
	0.003972151	0.00731703	1.662272e-05	4.952331e-05	-0.01358088	-0.05173524	-4.163823e-05	-2.39049e-06
	-2.116118e-05	7.17953e-06	0.003843829	0.007402906	-4.163823e-05	-2.39049e-06	-0.01391979	-0.0516443
1.2e+08	-0.0177888	-0.05555723	-4.185458e-05	-1.02039e-06	0.004617809	0.007707777	-1.984443e-05	9.181224e-06
	-4.185458e-05	-1.02039e-06	-0.01816629	-0.05538163	3.154743e-05	3.854897e-05	0.004469948	0.007814094
	0.004617808	0.007707777	3.154743e-05	3.854897e-05	-0.01778533	-0.05546847	-4.203904e-05	-1.688225e-06
	-1.984443e-05	9.181224e-06	0.004469948	0.007814094	-4.203904e-05	-1.688225e-06	-0.01817806	-0.05533782
1.3e+08	-0.0222986	-0.05893887	-4.221147e-05	-8.105712e-08	0.005289272	0.00803698	-1.879517e-05	1.041917e-05
	-4.221147e-05	-8.105712e-08	-0.02272768	-0.05871264	4.631032e-05	2.675177e-05	0.005121955	0.00816666
	0.005289272	0.00803698	4.631032e-05	2.675177e-05	-0.02229849	-0.05884096	-4.244222e-05	-8.198089e-07
	-1.879517e-05	1.041917e-05	0.005121955	0.00816666	-4.244222e-05	-8.198089e-07	-0.02274529	-0.05866358
1.4e+08	-0.02708155	-0.06193711	-4.254431e-05	1.016749e-06	0.005980989	0.008303228	-1.85365e-05	1.01718e-05
	-4.254431e-05	1.016749e-06	-0.02756194	-0.06165355	6.050021e-05	1.359547e-05	0.00579459	0.008459129
	0.005980989	0.008303228	6.050021e-05	1.359547e-05	-0.02708529	-0.06182944	-4.283013e-05	2.067079e-07
	-1.85365e-05	1.01718e-05	0.00579459	0.008459129	-4.283013e-05	2.067079e-07	-0.02758586	-0.06159835
1.5e+08	-0.03210189	-0.06453201	-4.282678e-05	2.254296e-06	0.006687236	0.00850543	-1.825747e-05	1.005685e-05
	-4.282678e-05	2.254296e-06	-0.03263263	-0.06418434	7.378683e-05	-1.132231e-06	0.00648242	0.008690362
	0.006687236	0.00850543	7.378683e-05	-1.132231e-06	-0.03210978	-0.06441381	-4.317713e-05	1.373385e-06
	-1.825747e-05	1.005685e-05	0.00648242	0.008690362	-4.317713e-05	1.373385e-06	-0.03266315	-0.06412199
1.6e+08	-0.03732305	-0.06670677	-4.303977e-05	3.618088e-06	0.007402212	0.008642952	-1.796338e-05	1.003675e-05
	-4.303977e-05	3.618088e-06	-0.03790245	-0.06628816	8.587166e-05	-1.749751e-05	0.007179942	0.008859669
	0.007402212	0.008642952	8.587166e-05	-1.749751e-05	-0.0373352	-0.06657716	-4.346466e-05	2.667849e-06
	-1.796338e-05	1.003675e-05	0.007179942	0.008859669	-4.346466e-05	2.667849e-06	-0.03793973	-0.06621763
1.7e+08	-0.04270783	-0.06844774	-4.3166e-05	5.093561e-06	0.008120101	0.008715656	-1.765648e-05	1.008747e-05
	-4.3166e-05	5.093561e-06	-0.04333345	-0.06795144	9.647718e-05	-3.547717e-05	0.007881637	0.008966839
	0.008120101	0.008715656	9.647718e-05	-3.547717e-05	-0.04272416	-0.06830581	-4.367581e-05	4.076776e-06
	-1.765648e-05	1.008747e-05	0.007881637	0.008966839	-4.367581e-05	4.076776e-06	-0.04337748	-0.06787163
1.8e+08	-0.04821852	-0.06974443	-4.319022e-05	6.665028e-06	0.008835125	0.008723908	-1.733759e-05	1.019244e-05
	-4.319022e-05	6.665028e-06	-0.04888714	-0.06916383	0.0001053461	-5.498368e-05	0.008582031	0.009012141
	0.008835125	0.008723908	0.0001053461	-5.498368e-05	-0.04823878	-0.06958926	-4.379555e-05	5.585808e-06
	-1.733759e-05	1.019244e-05	0.008582031	0.009012141	-4.379555e-05	5.585808e-06	-0.04893777	-0.06907365
1.9e+08	-0.05381709	-0.07058953	-4.309944e-05	8.315773e-06	0.009541599	0.008668576	-1.700683e-05	1.033951e-05
	-4.309944e-05	8.315773e-06	-0.05452473	-0.06991825	0.0001122425	-7.587918e-05	0.009275737	0.008996315
	0.009541599	0.008668576	0.0001122425	-7.587918e-05	-0.0538409	-0.07042022	-4.381093e-05	7.179629e-06
	-1.700683e-05	1.033951e-05	0.009275737	0.008996316	-4.381093e-05	7.179629e-06	-0.05458165	-0.06981661
2e+08	-0.05946542	-0.07097886	-4.288298e-05	1.002822e-05	0.01023398	0.008551016	-1.666396e-05	1.051944e-05
	-4.288298e-05	1.002822e-05	-0.06020735	-0.07021087	0.0001169552	-9.798479e-05	0.009957498	0.008920562
	0.01023398	0.008551017	0.0001169552	-9.798479e-05	-0.05949224	-0.07079459	-4.371113e-05	8.842107e-06
	-1.666396e-05	1.051944e-05	0.009957498	0.008920562	-4.371113e-05	8.842107e-06	-0.06027012	-0.07009672
2.1e+08	-0.06512549	-0.07091141	-4.253264e-05	1.178418e-05	0.01090689	0.008373059	-1.630861e-05	1.072485e-05
	-4.253264e-05	1.178418e-05	-0.06589626	-0.07004107	0.0001192996	-0.0001210875	0.01062223	0.008786519
	0.01090689	0.008373059	0.0001192996	-0.0001210875	-0.06515468	-0.07071139	-4.348756e-05	1.055651e-05
	-1.630861e-05	1.072485e-05	0.01062223	0.008786519	-4.348756e-05	1.055651e-05	-0.06596431	-0.06991341
2.2e+08	-0.07075964	-0.07038923	-4.204262e-05	1.356507e-05	0.01155521	0.008136978	-1.594034e-05	1.094974e-05
	-4.204262e-05	1.356507e-05	-0.07155312	-0.06941141	0.0001191204	-0.0001449461	0.01126506	0.008596243
	0.01155521	0.008136978	0.0001191204	-0.0001449461	-0.07079045	-0.07017275	-4.313392e-05	1.23057e-05
	-1.594034e-05	1.094974e-05	0.01126506	0.008596243	-4.313392e-05	1.23057e-05	-0.07162574	-0.06926929
2.3e+08	-0.07633074	-0.06941742	-4.140961e-05	1.535218e-05	0.01217405	0.007845468	-1.555872e-05	1.118905e-05
	-4.140961e-05	1.535218e-05	-0.07714017	-0.06832756	0.0001162948	-0.0001692971	0.01188135	0.008352177
	0.01217405	0.007845468	0.0001162948	-0.0001692971	-0.07636234	-0.06918384	-4.26461e-05	1.407239e-05
	-1.555872e-05	1.118905e-05	0.01188135	0.008352178	-4.26461e-05	1.407239e-05	-0.07721655	-0.06817009
2.4e+08	-0.08180248	-0.06800402	-4.06327e-05	1.7127e-05	0.01275882	0.007501615	-1.516347e-05	1.143839e-05
	-4.06327e-05	1.7127e-05	-0.08262054	-0.0667982	0.0001107323	-0.0001938588	0.01246674	0.008057131
	0.01275882	0.007501615	0.0001107323	-0.0001938588	-0.08183395	-0.0677528	-4.202225e-05	1.583941e-05
	-1.516347e-05	1.143839e-05	0.01246674	0.008057131	-4.202225e-05	1.583941e-05	-0.08269975	-0.06662459
2.5e+08	-0.08713954	-0.06615992	-3.971329e-05	1.88714e-05	0.01330527	0.00710886	-1.475435e-05	1.169394e-05
	-3.971329e-05	1.88714e-05	-0.08795838	-0.06483494	0.0001023778	-0.0002183373	0.01301715	0.007714243
	0.01330527	0.00710886	0.0001023778	-0.0002183373	-0.08716989	-0.06589059	-4.126264e-05	1.758986e-05
	-1.475435e-05	1.169394e-05	0.01301715	0.007714243	-4.126264e-05	1.758986e-05	-0.0880394	-0.06464448
2.6e+08	-0.09230782	-0.06389878	-3.865499e-05	2.056794e-05	0.01380948	0.006670967	-1.433129e-05	1.195228e-05
	-3.865499e-05	2.056794e-05	-0.09311916	-0.06245218	9.121126e-05	-0.0002424302	0.01352883	0.007326951
	0.01380948	0.006670967	9.121126e-05	-0.0002424302	-0.09233599	-0.06361096	-4.036954e-05	1.930745e-05
	-1.433129e-05	1.195228e-05	0.01352883	0.007326951	-4.036954e-05	1.930745e-05	-0.09320087	-0.06224426
2.7e+08	-0.09727459	-0.06123684	-3.746346e-05	2.220004e-05	0.0142679	0.006191985	-1.389433e-05	1.221032e-05
	-3.746346e-05	2.220004e-05	-0.09806982	-0.059667	7.724927e-05	-0.0002658331	0.01399837	0.006898964
	0.0142679	0.006191985	7.724927e-05	-0.0002658331	-0.09729947	-0.06093027	-3.934712e-05	2.097657e-05
	-1.389433e-05	1.221032e-05	0.01399837	0.006898964	-3.934712e-05	2.097657e-05	-0.09815101	-0.05944112
2.8e+08	-0.1020088	-0.05819285	-3.614628e-05	2.375226e-05	0.01467736	0.005676217	-1.344371e-05	1.246526e-05
	-3.614628e-05	2.375226e-05	-0.1027789	-0.05649896	6.054321e-05	-0.0002882417	0.0144227	0.006434221
	0.01467736	0.005676217	6.054321e-05	-0.0002882417	-0.1020292	-0.05786736	-3.820136e-05	2.258259e-05
	-1.344371e-05	1.246526e-05	0.0144227	0.006434221	-3.820136e-05	2.258259e-05	-0.1028584	-0.05625476
2.9e+08	-0.106481	-0.05478786	-3.471275e-05	2.521044e-05	0.01503511	0.005128178	-1.297979e-05	1.271454e-05
	-3.471275e-05	2.521044e-05	-0.107217	-0.05297003	4.117945e-05	-0.0003093572	0.01479912	0.005936868
	0.01503511	0.005128178	4.117945e-05	-0.0003093572	-0.1064958	-0.05444339	-3.693976e-05	2.411197e-05
	-1.297979e-05	1.271454e-05	0.01479912	0.005936868	-3.693976e-05	2.411197e-05	-0.1072934	-0.05270725
3e+08	-0.1106638	-0.05104511	-3.317367e-05	2.656183e-05	0.01533878	0.004552563	-1.250308e-05	1.295582e-05
	-3.317367e-05	2.656183e-05	-0.1113565	-0.04910434	1.928001e-05	-0.0003288943	0.01512529	0.005411216
	0.01533878	0.004552563	1.928001e-05	-0.0003288943	-0.1106717	-0.05068172	-3.557129e-05	2.555237e-05
	-1.250308e-05	1.295582e-05	0.01512529	0.005411216	-3.557129e-05	2.555237e-05	-0.1114284	-0.04882285
3.1e+08	-0.1145319	-0.04698979	-3.152334e-05	2.778808e-05	0.01558643	0.003954207	-1.201444e-05	1.318685e-05
	-3.152334e-05	2.778808e-05	-0.115172	-0.04492801	-5.741406e-06	-0.0003446591	0.01539925	0.004861716
	0.01558643	0.003954207	-5.741406e-06	-0.0003446591	-0.1145316	-0.04660767	-3.408813e-05	2.688649e-05
	-1.201444e-05	1.318685e-05	0.01539925	0.004861716	-3.408813e-05	2.688649e-05	-0.115238	-0.04462783
3.2e+08	-0.1180621	-0.04264896	-2.975773e-05	2.886776e-05	0.01577655	0.003338057	-1.151489e-05	1.340558e-05
	-2.975773e-05	2.886776e-05	-0.1186404	-0.04046901	-3.411785e-05	-0.0003543681	0.01561944	0.004292922
	0.01577655	0.003338057	-3.411785e-05	-0.0003543681	-0.1180524	-0.04224839	-3.248378e-05	2.80938e-05
	-1.151489e-05	1.340558e-05	0.01561944	0.004292922	-3.248378e-05	2.80938e-05	-0.1186991	-0.0401503
3.3e+08	-0.1212335	-0.03805125	-2.792782e-05	2.980536e-05	0.01590801	0.002709128	-1.100512e-05	1.361059e-05
	-2.792782e-05	2.980536e-05	-0.121741	-0.0357569	-6.398077e-05	-0.0003616263	0.01578466	0.003709467
	0.01590801	0.002709128	-6.398077e-05	-0.0003616263	-0.1212132	-0.03763266	-3.080743e-05	2.917679e-05
	-1.100512e-05	1.361059e-05	0.01578466	0.003709467	-3.080743e-05	2.917679e-05	-0.1217911	-0.03541996
3.4e+08	-0.1240276	-0.03322676	-2.6049e-05	3.059498e-05	0.01598014	0.002072479	-1.048611e-05	1.380025e-05
	-2.6049e-05	3.059498e-05	-0.1244557	-0.03082271	-9.509028e-05	-0.0003662434	0.01589409	0.003116027
	0.01598014	0.002072479	-9.509028e-05	-0.0003662434	-0.1239954	-0.0327907	-2.907248e-05	3.012897e-05
	-1.048611e-05	1.380025e-05	0.01589409	0.003116027	-2.907248e-05	3.012897e-05	-0.1244956	-0.03046798
3.5e+08	-0.1264286	-0.02820681	-2.413721e-05	3.123267e-05	0.01599266	0.001433178	-9.959091e-06	1.397333e-05
	-2.413721e-05	3.123267e-05	-0.1267687	-0.02569864	-0.0001271828	-0.0003680627	0.01594729	0.002517299
	0.01599266	0.001433178	-0.0001271828	-0.0003680627	-0.1263832	-0.02775397	-2.729296e-05	3.094564e-05
	-9.959091e-06	1.397333e-05	0.01594729	0.002517299	-2.729296e-05	3.094564e-05	-0.1267971	-0.02532671
3.6e+08	-0.128423	-0.02302377	-2.22086e-05	3.171641e-05	0.01594571	0.0007962677	-9.425345e-06	1.412875e-05
	-2.22086e-05	3.171641e-05	-0.1286671	-0.02041794	-0.0001599774	-0.000366956	0.01594419	0.00191797
	0.01594571	0.0007962677	-0.0001599774	-0.000366956	-0.1283632	-0.02255496	-2.548313e-05	3.16237e-05
	-9.425345e-06	1.412875e-05	0.01594419	0.00191797	-2.548313e-05	3.16237e-05	-0.1286828	-0.02002954
3.7e+08	-0.1299999	-0.01771086	-2.027929e-05	3.204601e-05	0.01583983	0.0001667427	-8.886175e-06	1.426558e-05
	-2.027929e-05	3.204601e-05	-0.1301407	-0.01501466	-0.0001931784	-0.0003628269	0.0158851	0.001322692
	0.01583983	0.0001667427	-0.0001931784	-0.0003628269	-0.1299247	-0.01722701	-2.365738e-05	3.216167e-05
	-8.886175e-06	1.426558e-05	0.0158851	0.001322692	-2.365738e-05	3.216167e-05	-0.1301422	-0.01461066
3.8e+08	-0.1311514	-0.01230192	-1.836523e-05	3.222308e-05	0.01567596	-0.0004504834	-8.342926e-06	1.438308e-05
	-1.836523e-05	3.222308e-05	-0.1311819	-0.009523435	-0.0002264797	-0.0003556118	0.01577066	0.0007360586
	0.01567596	-0.0004504834	-0.0002264797	-0.0003556118	-0.1310597	-0.0118041	-2.183001e-05	3.25597e-05
	-8.342926e-06	1.438308e-05	0.01577066	0.0007360586	-2.183001e-05	3.25597e-05	-0.1311681	-0.009104835
3.9e+08	-0.1318719	-0.00683123	-1.648195e-05	3.225102e-05	0.0154554	-0.001050604	-7.796972e-06	1.448067e-05
	-1.648195e-05	3.225102e-05	-0.131786	-0.003979284	-0.0002595681	-0.0003452801	0.01560189	0.0001625796
	0.0154554	-0.001050604	-0.0002595681	-0.0003452801	-0.1317627	-0.006320623	-2.001514e-05	3.28195e-05
	-7.796972e-06	1.448067e-05	0.01560189	0.0001625796	-2.001514e-05	3.28195e-05	-0.1317556	-0.003547231
4e+08	-0.1321587	-0.001333319	-1.464442e-05	3.213492e-05	0.01517984	-0.001628943	-7.249686e-06	1.455797e-05
	-1.464442e-05	3.213492e-05	-0.131951	0.001582586	-0.0002921276	-0.0003318359	0.01538014	-0.0003933405
	0.01517984	-0.001628943	-0.0002921276	-0.0003318359	-0.1320311	-0.0008112103	-1.822649e-05	3.294428e-05
	-7.249686e-06	1.455797e-05	0.01538014	-0.0003933405	-1.822649e-05	3.294428e-05	-0.1319029	0.00202683
4.1e+08	-0.1320117	0.004157273	-1.286689e-05	3.188148e-05	0.01485134	-0.002180985	-6.702439e-06	1.461474e-05
	-1.286689e-05	3.188148e-05	-0.1316775	0.007127017	-0.0003238425	-0.0003153171	0.01510708	-0.0009274251
	0.01485134	-0.002180985	-0.0003238425	-0.0003153171	-0.1318649	0.004689486	-1.647726e-05	3.293875e-05
	-6.702439e-06	1.461474e-05	0.01510708	-0.0009274251	-1.647726e-05	3.293875e-05	-0.131611	0.007582068
4.2e+08	-0.1314337	0.009606166	-1.116269e-05	3.149894e-05	0.01447228	-0.002702394	-6.156573e-06	1.465092e-05
	-1.116269e-05	3.149894e-05	-0.1309693	0.01261908	-0.0003544018	-0.0002957955	0.01478472	-0.001435547
	0.01447228	-0.002702394	-0.0003544018	-0.0002957955	-0.131267	0.01014699	-1.477999e-05	3.2809e-05
	-6.156573e-06	1.465092e-05	0.01478472	-0.001435547	-1.477999e-05	3.2809e-05	-0.1308834	0.01308345
4.3e+08	-0.1304299	0.01497935	-9.544134e-06	3.099694e-05	0.0140454	-0.00318904	-5.613388e-06	1.466658e-05
	-9.544134e-06	3.099694e-05	-0.1298325	0.01802429	-0.0003835025	-0.0002733764	0.01441537	-0.001913748
	0.0140454	-0.00318904	-0.0003835025	-0.0002733764	-0.1302428	0.0155272	-1.314643e-05	3.256243e-05
	-5.613388e-06	1.466658e-05	0.01441537	-0.001913748	-1.314643e-05	3.256243e-05	-0.1297264	0.01849639
4.4e+08	-0.1290083	0.02024338	-8.022319e-06	3.038638e-05	0.01357374	-0.003637019	-5.074123e-06	1.466192e-05
	-8.022319e-06	3.038638e-05	-0.1282761	0.02330883	-0.0004108537	-0.0002481972	0.01400165	-0.002358261
	0.01357374	-0.003637019	-0.0004108537	-0.0002481972	-0.1288003	0.02079659	-1.15874e-05	3.220765e-05
	-5.074123e-06	1.466192e-05	0.01400165	-0.002358261	-1.15874e-05	3.220765e-05	-0.1281493	0.02378698
4.5e+08	-0.1271793	0.02536556	-6.607062e-06	2.967933e-05	0.01306065	-0.004042677	-4.539953e-06	1.463725e-05
	-6.607062e-06	2.967933e-05	-0.1263115	0.02843969	-0.0004361794	-0.0002204263	0.01354644	-0.002765528
	0.01306065	-0.004042677	-0.0004361794	-0.0002204263	-0.1269502	0.02592241	-1.011269e-05	3.175437e-05
	-4.539953e-06	1.463725e-05	0.01354644	-0.002765528	-1.011269e-05	3.175437e-05	-0.1261636	0.02892214
4.6e+08	-0.124956	0.03031413	-5.30674e-06	2.888887e-05	0.01250976	-0.004402629	-4.011981e-06	1.459299e-05
	-5.30674e-06	2.888887e-05	-0.1239529	0.03338491	-0.0004592225	-0.0001902606	0.01305291	-0.003132219
	0.01250976	-0.004402629	-0.0004592225	-0.0001902606	-0.1247056	0.03087286	-8.730949e-06	3.121333e-05
	-4.011981e-06	1.459299e-05	0.01305291	-0.003132219	-8.730949e-06	3.121333e-05	-0.1237836	0.03386986
4.7e+08	-0.1223537	0.03505849	-4.128215e-06	2.80289e-05	0.01192497	-0.004713782	-3.491221e-06	1.452964e-05
	-4.128215e-06	2.80289e-05	-0.1212167	0.03811378	-0.0004797474	-0.0001579243	0.01252449	-0.003455254
	0.01192497	-0.004713782	-0.0004797474	-0.0001579243	-0.1220822	0.03561726	-7.449562e-06	3.059614e-05
