!$
! Info: Touchstone file created by Circ.  Input file=Tx_4in_Rx_100ohms_TxVia_10mils_RxVia_20mils.circ
!$
# Hz S RI R 50
0	0.004270978	3.142796e-26	-2.181139e-05	2.010651e-25	3.316316e-05	4.401172e-24	-2.181667e-05	4.778454e-25
	-2.181139e-05	2.012187e-25	0.004270362	4.450835e-26	-2.181211e-05	5.934916e-26	3.277378e-05	6.020526e-24
	3.127351e-05	4.33922e-24	-2.181211e-05	5.951639e-26	0.004285162	3.270989e-26	-2.181117e-05	4.008168e-25
	-2.181667e-05	4.768647e-25	3.423163e-05	6.196566e-24	-2.181116e-05	3.997378e-25	0.004275999	4.249186e-26
1e+07	0.005701862	0.003129993	-3.408571e-05	-1.659367e-05	8.162514e-05	0.0008121769	-9.57482e-05	4.85771e-05
	-3.408571e-05	-1.659368e-05	0.00612055	0.003051609	-1.236085e-05	-5.90394e-06	0.0002235591	0.0008411902
	8.15863e-05	0.0008122017	-1.236085e-05	-5.903941e-06	0.005950603	0.00303071	-3.484214e-06	-5.576234e-06
	-9.57482e-05	4.85771e-05	0.0002235914	0.0008411788	-3.484215e-06	-5.576232e-06	0.006073808	0.003056369
2e+07	0.00746605	0.005039042	-1.706632e-05	-3.347722e-05	0.0001823867	0.001634015	-0.000113451	3.867746e-05
	-1.706632e-05	-3.347722e-05	0.007714343	0.004757325	-9.579107e-06	-6.70283e-06	0.0002632574	0.001739979
	0.0001823936	0.001634033	-9.579106e-06	-6.70283e-06	0.007569489	0.004789971	-3.685741e-06	2.344984e-07
	-0.000113451	3.867746e-05	0.0002632546	0.001739958	-3.685741e-06	2.345002e-07	0.007682544	0.004788752
3e+07	0.008957196	0.006215329	-6.604081e-06	-3.880826e-05	0.0003514171	0.002429054	-0.0001274508	3.541921e-05
	-6.604082e-06	-3.880826e-05	0.009069361	0.005876367	-7.570039e-06	-7.210548e-06	0.0003840398	0.002561161
	0.0003514145	0.002429055	-7.570039e-06	-7.210548e-06	0.008948169	0.005926791	-4.281335e-06	-5.653319e-07
	-0.0001274508	3.541921e-05	0.0003840348	0.002561158	-4.281336e-06	-5.653316e-07	0.00905146	0.00592013
4e+07	0.01033135	0.007084389	-2.098609e-05	-3.70298e-05	0.0005861327	0.003201631	-0.00014005	3.235661e-05
	-2.098609e-05	-3.70298e-05	0.01032524	0.006730316	-5.92928e-06	-7.451613e-06	0.0005875397	0.003346963
	0.0005861278	0.003201634	-5.92928e-06	-7.451613e-06	0.01022843	0.006789664	-5.100685e-06	-1.866582e-06
	-0.00014005	3.235661e-05	0.0005875392	0.003346964	-5.100686e-06	-1.866582e-06	0.01032121	0.006780405
5e+07	0.01164044	0.007741119	-3.330946e-05	-3.2288e-05	0.000883772	0.00394794	-0.0001520924	2.915997e-05
	-3.330946e-05	-3.2288e-05	0.01152874	0.007397145	-4.5015e-06	-7.534125e-06	0.0009275744	0.004085156
	0.0008837707	0.003947942	-4.5015e-06	-7.534125e-06	0.01145754	0.007460144	-6.057092e-06	-2.901445e-06
	-0.0001520924	2.915997e-05	0.0009275739	0.004085156	-6.057092e-06	-2.901445e-06	0.0115373	0.007450311
6e+07	0.01290641	0.008228358	-4.386595e-05	-2.527993e-05	0.00124146	0.004663586	-0.000164033	2.578718e-05
	-4.386595e-05	-2.527993e-05	0.01269988	0.007913545	-3.199635e-06	-7.498751e-06	0.00131873	0.004785777
	0.001241461	0.004663584	-3.199635e-06	-7.498751e-06	0.01265541	0.007975663	-7.14698e-06	-3.740982e-06
	-0.000164033	2.578718e-05	0.001318727	0.004785777	-7.146979e-06	-3.740982e-06	0.01272045	0.007967862
7e+07	0.01413903	0.00857	-5.274752e-05	-1.632894e-05	0.001662587	0.005342173	-0.000176192	2.21568e-05
	-5.274752e-05	-1.632894e-05	0.01384778	0.008300472	-2.738247e-06	-7.121407e-06	0.001758705	0.005446056
	0.001662588	0.005342168	-2.738247e-06	-7.121407e-06	0.01383098	0.008357526	-8.357954e-06	-4.402717e-06
	-0.000176192	2.21568e-05	0.0017587	0.005446059	-8.357953e-06	-4.402717e-06	0.01388019	0.0083539
8e+07	0.01534206	0.008781059	-5.991726e-05	-5.531129e-06	0.002138264	0.005980622	-0.0001888847	1.803647e-05
	-5.991727e-05	-5.531129e-06	0.01497645	0.008571816	-4.089191e-06	-5.92606e-06	0.002244465	0.00606259
	0.002138264	0.005980617	-4.089192e-06	-5.92606e-06	0.014988	0.008619762	-9.678472e-06	-4.892329e-06
	-0.0001888847	1.803647e-05	0.00224446	0.006062594	-9.678472e-06	-4.892329e-06	0.01502016	0.008622016
9e+07	0.01651562	0.00887141	-6.517314e-05	7.310013e-06	0.002663364	0.006575782	-0.0002025942	1.279591e-05
	-6.517314e-05	7.310012e-06	0.01608745	0.008738533	-5.154937e-06	-4.434919e-06	0.00277224	0.006631459
	0.002663363	0.006575778	-5.154937e-06	-4.434919e-06	0.01612769	0.008773244	-1.110739e-05	-5.227228e-06
	-0.0002025942	1.279591e-05	0.002772237	0.006631463	-1.110739e-05	-5.227228e-06	0.01614129	0.008783111
1e+08	0.01765586	0.00884444	-6.73902e-05	2.414464e-05	0.003235269	0.007126421	-0.0002191469	2.878996e-06
	-6.73902e-05	2.414464e-05	0.01718459	0.008817022	-5.764804e-06	-2.376057e-06	0.003336175	0.007145576
	0.003235269	0.007126421	-5.764804e-06	-2.376057e-06	0.01725314	0.008833409	-1.268666e-05	-5.483283e-06
	-0.0002191469	2.878996e-06	0.003336176	0.007145576	-1.268666e-05	-5.483283e-06	0.01724647	0.008853034
1.1e+08	0.01874751	0.008716269	-6.130948e-05	3.504479e-05	0.003857361	0.007619449	-0.0002230765	-1.16066e-05
	-6.130948e-05	3.504479e-05	0.01829449	0.008769633	-5.065558e-06	-9.317135e-07	0.003919707	0.007616901
	0.003857361	0.007619449	-5.065558e-06	-9.317135e-07	0.01838904	0.008765553	-1.400222e-05	-5.709488e-06
	-0.0002230765	-1.16066e-05	0.003919707	0.007616901	-1.400222e-05	-5.709488e-06	0.0183608	0.008798918
1.2e+08	0.01980685	0.00850416	-6.221674e-05	3.163479e-05	0.004512108	0.00805202	-0.0002254038	-1.932914e-05
	-6.221674e-05	3.163479e-05	0.01936385	0.008613592	-4.58982e-06	2.496602e-09	0.004539115	0.008043232
	0.004512108	0.008052021	-4.58982e-06	2.496595e-09	0.01948434	0.008587278	-1.526323e-05	-5.58799e-06
	-0.0002254038	-1.932914e-05	0.004539115	0.008043232	-1.526323e-05	-5.58799e-06	0.01943469	0.00863702
1.3e+08	0.02083006	0.008207038	-6.283438e-05	2.96771e-05	0.005195759	0.008424606	-0.0002275412	-2.43401e-05
	-6.283438e-05	2.96771e-05	0.02039469	0.008364342	-4.153789e-06	7.24197e-07	0.005188281	0.008417275
	0.005195759	0.008424606	-4.153789e-06	7.24197e-07	0.02054057	0.008313238	-1.64984e-05	-5.216099e-06
	-0.0002275412	-2.43401e-05	0.005188281	0.008417275	-1.64984e-05	-5.216099e-06	0.02046975	0.008381847
1.4e+08	0.02181404	0.007827751	-6.328953e-05	2.863862e-05	0.005903481	0.008735731	-0.0002296636	-2.755888e-05
	-6.328953e-05	2.863862e-05	0.02138505	0.008028434	-3.736456e-06	1.311513e-06	0.005862166	0.008735805
	0.005903481	0.008735731	-3.736456e-06	1.311513e-06	0.02155555	0.007949948	-1.769122e-05	-4.620038e-06
	-0.0002296636	-2.755888e-05	0.005862166	0.008735805	-1.769122e-05	-4.620038e-06	0.02146389	0.008039838
1.5e+08	0.02275531	0.007369689	-6.361723e-05	2.826709e-05	0.006630154	0.008983987	-0.0002318013	-2.943814e-05
	-6.361723e-05	2.826709e-05	0.02233198	0.007611059	-3.329506e-06	1.801357e-06	0.006555737	0.008996567
	0.006630154	0.008983987	-3.329506e-06	1.801357e-06	0.02252622	0.007502611	-1.882042e-05	-3.817146e-06
	-0.0002318013	-2.943814e-05	0.006555737	0.008996567	-1.882042e-05	-3.817146e-06	0.02241416	0.007616174
1.6e+08	0.02365015	0.006836544	-6.382287e-05	2.841267e-05	0.007370487	0.009168262	-0.0002339413	-3.025446e-05
	-6.382287e-05	2.841267e-05	0.02323213	0.007116974	-2.928891e-06	2.215038e-06	0.007263891	0.009197945
	0.007370487	0.009168262	-2.928891e-06	2.215038e-06	0.02344903	0.006975989	-1.98639e-05	-2.823013e-06
	-0.0002339413	-3.025446e-05	0.007263891	0.009197945	-1.98639e-05	-2.823013e-06	0.0233172	0.007115614
1.7e+08	0.02449471	0.006232262	-6.390032e-05	2.897387e-05	0.008119075	0.009287825	-0.0002360573	-3.019923e-05
	-6.390032e-05	2.897387e-05	0.02408197	0.006550826	-2.532507e-06	2.566172e-06	0.007981462	0.009338851
	0.008119075	0.009287825	-2.532507e-06	2.566172e-06	0.02432027	0.006374746	-2.080015e-05	-1.653669e-06
	-0.0002360573	-3.019923e-05	0.007981462	0.009338851	-2.080015e-05	-1.653669e-06	0.02416947	0.006542816
1.8e+08	0.02528518	0.005561062	-6.383839e-05	2.987565e-05	0.008870449	0.009342364	-0.0002381195	-2.94162e-05
	-6.383839e-05	2.987565e-05	0.02487794	0.005917297	-2.139206e-06	2.864115e-06	0.008703247	0.009418688
	0.008870449	0.009342364	-2.139206e-06	2.864115e-06	0.02513613	0.005703601	-2.160893e-05	-3.264122e-07
	-0.0002381195	-2.94162e-05	0.008703247	0.009418688	-2.160893e-05	-3.264122e-07	0.0249674	0.005902484
1.9e+08	0.02601782	0.004827415	-6.362489e-05	3.106053e-05	0.009619118	0.009332001	-0.0002400997	-2.802032e-05
	-6.362489e-05	3.106053e-05	0.02561658	0.005221187	-1.957951e-06	2.908787e-06	0.009424033	0.009437326
	0.009619118	0.009332001	-1.957951e-06	2.908787e-06	0.02589291	0.004967414	-2.227229e-05	1.142118e-06
	-0.0002400997	-2.802032e-05	0.009424033	0.009437326	-2.227229e-05	1.142118e-06	0.02570751	0.005199431
2e+08	0.02668907	0.004036041	-6.324649e-05	3.247769e-05	0.01035961	0.009257306	-0.0002419731	-2.610771e-05
	-6.324649e-05	3.247769e-05	0.02629457	0.00446742	-1.93173e-06	2.805075e-06	0.01013863	0.009395092
	0.01035961	0.009257306	-1.93173e-06	2.805075e-06	0.02658702	0.004171206	-2.277331e-05	2.730949e-06
	-0.0002419731	-2.610771e-05	0.01013863	0.009395092	-2.277331e-05	2.730949e-06	0.02638649	0.004438612
2.1e+08	0.0272956	0.003191886	-6.26911e-05	3.408106e-05	0.01108652	0.009119297	-0.0002437201	-2.376127e-05
	-6.26911e-05	3.408106e-05	0.02690883	0.00366107	-1.901544e-06	2.719311e-06	0.0108419	0.009292756
	0.01108652	0.009119297	-1.901544e-06	2.719311e-06	0.02721512	0.003320185	-2.309745e-05	4.416418e-06
	-0.0002437201	-2.376127e-05	0.0108419	0.009292756	-2.309745e-05	4.416418e-06	0.02700124	0.003625124
2.2e+08	0.02783435	0.002300113	-6.194885e-05	3.583029e-05	0.01179454	0.008919435	-0.0002453264	-2.105412e-05
	-6.194885e-05	3.583029e-05	0.02745653	0.002807353	-1.86757e-06	2.648212e-06	0.01152881	0.009131522
	0.01179454	0.008919436	-1.86757e-06	2.648212e-06	0.0277741	0.002419743	-2.323337e-05	6.17521e-06
	-0.0002453264	-2.105412e-05	0.01152881	0.009131522	-2.323337e-05	6.17521e-06	0.02754892	0.002764216
2.3e+08	0.02830257	0.00136608	-6.101193e-05	3.768793e-05	0.01247849	0.00865962	-0.0002467829	-1.805173e-05
	-6.101193e-05	3.768793e-05	0.02793514	0.001911627	-1.829915e-06	2.589103e-06	0.01219444	0.008913017
	0.01247849	0.00865962	-1.829915e-06	2.589103e-06	0.02826118	0.001475448	-2.317252e-05	7.982962e-06
	-0.0002467829	-1.805173e-05	0.01219444	0.008913017	-2.317252e-05	7.982962e-06	0.02802698	0.001861284
2.4e+08	0.02869785	0.0003953059	-5.987527e-05	3.961852e-05	0.01313338	0.008342176	-0.0002480868	-1.481263e-05
	-5.987527e-05	3.961852e-05	0.02834244	0.0009793541	-1.788768e-06	2.539694e-06	0.01283404	0.008639278
	0.01313338	0.008342176	-1.788768e-06	2.539694e-06	0.02867391	0.00049301	-2.290935e-05	9.814603e-06
	-0.0002480868	-1.481263e-05	0.01283404	0.008639278	-2.290935e-05	9.814603e-06	0.0284332	0.0009218323
2.5e+08	0.02901813	-0.0006065412	-5.853627e-05	4.158842e-05	0.01375443	0.007969836	-0.0002492402	-1.138957e-05
	-5.853627e-05	4.158842e-05	0.02867656	1.611283e-05	-1.744276e-06	2.498074e-06	0.01344303	0.008312733
	0.01375443	0.007969836	-1.744276e-06	2.498074e-06	0.02901022	-0.0005217135	-2.244134e-05	1.164464e-05
	-0.0002492402	-1.138957e-05	0.01344303	0.008312733	-2.244134e-05	1.164464e-05	0.02876571	-4.851611e-05
2.6e+08	0.02926174	-0.001633682	-5.699522e-05	4.35655e-05	0.0143371	0.007545726	-0.0002502503	-7.829483e-06
	-5.699522e-05	4.35655e-05	0.02893598	-0.0009724442	-1.696641e-06	2.462592e-06	0.01401708	0.007936185
	0.0143371	0.007545726	-1.696641e-06	2.462592e-06	0.0292684	-0.001562769	-2.176908e-05	1.344754e-05
	-0.0002502503	-7.829483e-06	0.01401709	0.007936185	-2.176908e-05	1.344754e-05	0.029023	-0.001044066
2.7e+08	0.02942738	-0.002680245	-5.525506e-05	4.551918e-05	0.01487714	0.007073341	-0.0002511289	-4.174332e-06
	-5.525506e-05	4.551918e-05	0.02911957	-0.001980607	-1.646067e-06	2.431826e-06	0.01455211	0.007512792
	0.01487714	0.007073341	-1.646067e-06	2.431826e-06	0.02944715	-0.002624116	-2.089622e-05	1.519807e-05
	-0.0002511289	-4.174332e-06	0.01455211	0.007512792	-2.089622e-05	1.519807e-05	0.02920391	-0.00205906
2.8e+08	0.02951418	-0.003740295	-5.332173e-05	4.742049e-05	0.01537061	0.006556524	-0.0002518923	-4.599197e-07
	-5.332173e-05	4.742049e-05	0.02922654	-0.003002621	-1.592831e-06	2.404534e-06	0.01504429	0.007046045
	0.01537061	0.006556524	-1.592831e-06	2.404534e-06	0.02954559	-0.003699652	-1.98295e-05	1.687166e-05
	-0.0002518923	-4.599197e-07	0.01504429	0.007046045	-1.98295e-05	1.687166e-05	0.02930771	-0.003087692
2.9e+08	0.02952166	-0.004807864	-5.120389e-05	4.924216e-05	0.01581388	0.005999432	-0.0002525605	3.283352e-06
	-5.120389e-05	4.924216e-05	0.02925651	-0.004032724	-1.53724e-06	2.379635e-06	0.01549013	0.006539741
	0.01581388	0.005999432	-1.53724e-06	2.379635e-06	0.02956325	-0.004783255	-1.857857e-05	1.844481e-05
	-0.0002525605	3.283352e-06	0.01549013	0.006539741	-1.857857e-05	1.844481e-05	0.029334	-0.004124157
3e+08	0.02944976	-0.005876985	-4.891274e-05	5.095876e-05	0.01620373	0.005406515	-0.0002531562	7.030144e-06
	-4.891274e-05	5.095876e-05	0.02920948	-0.005065168	-1.479623e-06	2.356194e-06	0.01588647	0.005997955
	0.01620373	0.005406515	-1.479623e-06	2.356194e-06	0.02950008	-0.005868804	-1.715587e-05	1.989531e-05
	-0.0002531562	7.030144e-06	0.01588647	0.005997955	-1.715587e-05	1.989531e-05	0.02928282	-0.005162659
3.1e+08	0.02929882	-0.006941701	-4.646212e-05	5.254701e-05	0.01653729	0.004782481	-0.0002537053	1.076179e-05
	-4.646212e-05	5.254701e-05	0.02908584	-0.006094235	-1.420367e-06	2.333404e-06	0.01623049	0.005425017
	0.01653729	0.004782481	-1.420367e-06	2.333404e-06	0.02935647	-0.006950203	-1.557651e-05	2.120273e-05
	-0.0002537053	1.076179e-05	0.01623049	0.005425017	-1.557651e-05	2.120273e-05	0.02915457	-0.006197437
3.2e+08	0.02906963	-0.007996121	-4.386811e-05	5.398581e-05	0.01681212	0.00413226	-0.0002542352	1.446492e-05
	-4.386811e-05	5.398581e-05	0.02888637	-0.007114278	-1.35988e-06	2.310573e-06	0.01651976	0.004825474
	0.01681212	0.00413226	-1.35988e-06	2.310573e-06	0.02913322	-0.008021421	-1.385794e-05	2.234862e-05
	-0.0002542352	1.446492e-05	0.01651976	0.004825474	-1.385794e-05	2.234862e-05	0.02895008	-0.007222799
3.3e+08	0.02876336	-0.009034434	-4.11488e-05	5.525647e-05	0.01702618	0.003460975	-0.0002547741	1.813125e-05
	-4.11488e-05	5.525647e-05	0.02861223	-0.008119738	-1.29859e-06	2.287119e-06	0.01675222	0.004204064
	0.01702618	0.003460975	-1.29859e-06	2.287119e-06	0.02883157	-0.009076519	-1.201978e-05	2.331671e-05
	-0.0002547741	1.813125e-05	0.01675222	0.004204064	-1.201978e-05	2.331671e-05	0.02867053	-0.008233149
3.4e+08	0.02838162	-0.01005093	-3.832424e-05	5.634299e-05	0.0171779	0.0027739	-0.0002553517	2.175937e-05
	-3.832424e-05	5.634299e-05	0.02826497	-0.009105163	-1.236962e-06	2.262568e-06	0.01692623	0.003565678
	0.0171779	0.0027739	-1.236962e-06	2.262568e-06	0.02845316	-0.01010967	-1.008349e-05	2.409335e-05
	-0.0002553517	2.175937e-05	0.01692623	0.003565678	-1.008349e-05	2.409335e-05	0.02831751	-0.009223
3.5e+08	0.02792639	-0.01104006	-3.541592e-05	5.723204e-05	0.01726615	0.002076427	-0.0002559966	2.53527e-05
	-3.541592e-05	5.723204e-05	0.0278465	-0.01006525	-1.175477e-06	2.236548e-06	0.01704058	0.002915331
	0.01726615	0.002076427	-1.175477e-06	2.236548e-06	0.02800006	-0.0111152	-8.071944e-06	2.466678e-05
	-0.0002559966	2.53527e-05	0.01704058	0.002915331	-8.071944e-06	2.466678e-05	0.02789298	-0.01018702
3.6e+08	0.02740007	-0.01199642	-3.244667e-05	5.791321e-05	0.01729025	0.001374026	-0.0002567353	2.891871e-05
	-3.244667e-05	5.791321e-05	0.02735909	-0.01099486	-1.112654e-06	2.206672e-06	0.01709445	0.002258121
	0.01729025	0.001374026	-1.112654e-06	2.206672e-06	0.02747472	-0.01208763	-6.033047e-06	2.527213e-05
	-0.0002567353	2.891871e-05	0.01709445	0.002258121	-6.033047e-06	2.527213e-05	0.02739925	-0.01112003
3.7e+08	0.02680543	-0.01291482	-2.944013e-05	5.837906e-05	0.01725	0.0006722025	-0.0002575964	3.247348e-05
	-2.944013e-05	5.837906e-05	0.02680539	-0.01188904	-1.050836e-06	2.174166e-06	0.01708748	0.001599196
	0.01725	0.0006722025	-1.050836e-06	2.174166e-06	0.02687998	-0.01302164	-3.951448e-06	2.570775e-05
	-0.0002575964	3.247348e-05	0.01708748	0.001599196	-3.951448e-06	2.570775e-05	0.026839	-0.01201706
3.8e+08	0.02614559	-0.01379029	-2.642052e-05	5.862516e-05	0.01714566	-2.353459e-05	-0.0002586047	3.603698e-05
	-2.642052e-05	5.862516e-05	0.02618835	-0.01274307	-9.909517e-07	2.139354e-06	0.01701974	0.000943718
	0.01714566	-2.35346e-05	-9.909517e-07	2.139354e-06	0.02621906	-0.0139122	-1.846405e-06	2.592231e-05
	-0.0002586047	3.603698e-05	0.01701974	0.000943718	-1.846405e-06	2.592231e-05	0.02621526	-0.01287336
3.9e+08	0.02542404	-0.0146181	-2.34123e-05	5.865012e-05	0.01697796	-0.0007077178	-0.000259782	3.963372e-05
	-2.34123e-05	5.865012e-05	0.02551126	-0.01355243	-9.335083e-07	2.102257e-06	0.01689173	0.0002968258
	0.01697796	-0.0007077178	-9.335083e-07	2.102257e-06	0.02549553	-0.0147545	2.560913e-07	2.591581e-05
	-0.000259782	3.963372e-05	0.01689173	0.0002968258	2.560913e-07	2.591581e-05	0.02553137	-0.01368441
4e+08	0.02464461	-0.01539381	-2.043979e-05	5.845558e-05	0.01674808	-0.001374958	-0.0002611468	4.329189e-05
	-2.043979e-05	5.845558e-05	0.02477775	-0.0143129	-8.789862e-07	2.062979e-06	0.01670438	-0.0003364009
	0.01674808	-0.001374958	-8.789862e-07	2.062979e-06	0.0247133	-0.01554403	2.330324e-06	2.569134e-05
	-0.0002611468	4.329189e-05	0.01670438	-0.0003364009	2.330324e-06	2.569134e-05	0.02479097	-0.01444598
4.1e+08	0.02381143	-0.01611328	-1.752683e-05	5.804617e-05	0.01645767	-0.002019985	-0.0002627137	4.704382e-05
	-1.752683e-05	5.804617e-05	0.02399168	-0.01502053	-8.278384e-07	2.021704e-06	0.01645904	-0.0009509778
	0.01645767	-0.002019985	-8.278384e-07	2.021704e-06	0.0238766	-0.01627658	4.351222e-06	2.525507e-05
	-0.0002627137	4.704382e-05	0.01645904	-0.0009509778	4.351222e-06	2.525507e-05	0.02399803	-0.01515409
4.2e+08	0.02292891	-0.01677266	-1.469647e-05	5.74294e-05	0.01610881	-0.002637682	-0.0002644931	5.092573e-05
	-1.469647e-05	5.74294e-05	0.02315721	-0.01567165	-7.804827e-07	1.978688e-06	0.01615748	-0.00154205
	0.01610881	-0.002637682	-7.804827e-07	1.978688e-06	0.02298992	-0.01694829	6.294737e-06	2.461612e-05
	-0.0002644931	5.092573e-05	0.01615748	-0.00154205	6.294737e-06	2.461612e-05	0.02315673	-0.01580509
4.3e+08	0.02200174	-0.01736849	-1.197057e-05	5.661555e-05	0.01570401	-0.003223125	-0.0002664902	5.497624e-05
	-1.197057e-05	5.661555e-05	0.02227875	-0.01626295	-7.372896e-07	1.934256e-06	0.01580187	-0.002104929
	0.01570401	-0.003223125	-7.372896e-07	1.934256e-06	0.02205808	-0.01755563	8.138182e-06	2.378644e-05
	-0.0002664902	5.497624e-05	0.01580187	-0.002104929	8.138182e-06	2.378644e-05	0.02227154	-0.01639566
4.4e+08	0.02103485	-0.01789764	-9.369523e-06	5.561743e-05	0.01524621	-0.003771619	-0.0002687054	5.923595e-05
	-9.369523e-06	5.561743e-05	0.02136092	-0.01679142	-6.985792e-07	1.88879e-06	0.01539479	-0.002635121
	0.01524621	-0.003771619	-6.985792e-07	1.88879e-06	0.02108608	-0.01809544	9.86057e-06	2.278059e-05
	-0.0002687054	5.923595e-05	0.01539479	-0.002635121	9.86057e-06	2.278059e-05	0.02134714	-0.01692282
4.5e+08	0.02003339	-0.01835736	-6.911995e-06	5.445027e-05	0.0147387	-0.004278728	-0.0002711343	6.37449e-05
	-6.911995e-06	5.445027e-05	0.02040853	-0.01725442	-6.646126e-07	1.842725e-06	0.01493915	-0.003128366
	0.0147387	-0.004278728	-6.646126e-07	1.842725e-06	0.02007918	-0.01856498	1.144291e-05	2.161554e-05
	-0.0002711343	6.37449e-05	0.01493915	-0.003128366	1.144291e-05	2.161554e-05	0.0203884	-0.01738392
4.6e+08	0.01900269	-0.01874531	-4.614704e-06	5.313205e-05	0.01418517	-0.004740314	-0.0002737815	6.84971e-05
	-4.614704e-06	5.313205e-05	0.01942659	-0.01764969	-6.355823e-07	1.79654e-06	0.01443823	-0.00358066
	0.01418517	-0.004740314	-6.355823e-07	1.79654e-06	0.01904279	-0.01896188	1.286843e-05	2.031105e-05
	-0.0002737815	6.84971e-05	0.01443823	-0.00358066	1.286843e-05	2.031105e-05	0.01940037	-0.01777672
4.7e+08	0.01794821	-0.01905953	-2.482986e-06	5.159826e-05	0.01358964	-0.00515256	-0.0002743874	7.993281e-05
	-2.482986e-06	5.159826e-05	0.01842024	-0.01797531	-6.125237e-07	1.751689e-06	0.01389565	-0.003988292
	0.01358964	-0.00515256	-6.125237e-07	1.751689e-06	0.01798251	-0.0192842	1.412756e-05	1.880293e-05
	-0.0002743874	7.993281e-05	0.01389565	-0.003988292	1.412756e-05	1.880293e-05	0.01838822	-0.01809931
