!$
! Info: Touchstone file created by Circ.  Input file=Tx_4in_Rx_93ohms_TxVia_10mils_RxVia_20mils.circ
!$
# Hz S RI R 50
0	0.003786832	3.629456e-26	3.253695e-09	1.607253e-27	3.333035e-05	3.828595e-24	-3.563109e-09	4.698335e-25
	3.253687e-09	1.607435e-27	0.00378644	4.448613e-26	-2.976073e-09	4.132567e-25	3.276148e-05	5.32852e-24
	3.560409e-05	3.837526e-24	-2.974121e-09	4.130153e-25	0.003779568	3.163544e-26	1.252304e-08	1.091349e-29
	-3.560358e-09	4.694949e-25	3.42195e-05	5.484327e-24	1.252313e-08	1.075307e-29	0.003792082	4.247052e-26
1e+07	0.005537235	-1.334818e-05	4.829918e-09	8.353563e-09	9.506291e-05	0.0008291371	5.50118e-09	5.763625e-08
	4.829918e-09	8.353564e-09	0.005535327	-1.400391e-05	3.631669e-10	5.831699e-08	9.37968e-05	0.0008294172
	9.511086e-05	0.0008291106	3.631671e-10	5.831699e-08	0.005440881	-2.159732e-05	-1.170679e-08	4.520406e-08
	5.50118e-09	5.763625e-08	9.382903e-05	0.0008294058	-1.170679e-08	4.520406e-08	0.005438996	-2.227324e-05
2e+07	0.006655052	-0.001318587	7.002974e-09	1.489102e-08	0.0001749093	0.001667657	1.741388e-08	7.958039e-08
	7.002973e-09	1.489101e-08	0.006647359	-0.001319614	4.145736e-09	8.171668e-08	0.0001699525	0.001668673
	0.0001749013	0.001667632	4.145736e-09	8.171668e-08	0.006580301	-0.001294638	-8.406104e-09	4.673743e-08
	1.741388e-08	7.958039e-08	0.0001699495	0.001668652	-8.406105e-09	4.673743e-08	0.006572855	-0.001295592
3e+07	0.007317246	-0.003105819	9.451781e-09	2.103806e-08	0.0003532302	0.002462757	3.79665e-08	1.019525e-07
	9.451781e-09	2.103806e-08	0.007299769	-0.003106358	1.154567e-08	1.086423e-07	0.0003422812	0.002465178
	0.0003532308	0.002462754	1.154567e-08	1.086423e-07	0.007259239	-0.003074874	-5.235932e-09	5.514885e-08
	3.79665e-08	1.019525e-07	0.0003422761	0.002465176	-5.235932e-09	5.514885e-08	0.007242634	-0.003075295
4e+07	0.007659679	-0.005074325	1.225256e-08	2.670178e-08	0.0006174422	0.003226841	6.003476e-08	1.207925e-07
	1.225256e-08	2.670178e-08	0.007628539	-0.005072956	1.736202e-08	1.344187e-07	0.0005982865	0.003231622
	0.0006174462	0.003226837	1.736202e-08	1.344187e-07	0.007615929	-0.005044382	-3.237167e-10	6.286839e-08
	6.003476e-08	1.207925e-07	0.0005982861	0.003231623	-3.23717e-10	6.286839e-08	0.007586327	-0.005043133
5e+07	0.007732724	-0.00713589	1.538137e-08	3.19037e-08	0.0009408063	0.003960248	8.400153e-08	1.36997e-07
	1.538137e-08	3.19037e-08	0.007684244	-0.00713068	2.177203e-08	1.600567e-07	0.000911381	0.003968632
	0.0009408075	0.003960245	2.177203e-08	1.600567e-07	0.007699873	-0.007111169	6.29294e-09	6.870548e-08
	8.400153e-08	1.36997e-07	0.0009113805	0.003968633	6.29294e-09	6.870548e-08	0.007653604	-0.007106239
6e+07	0.007562665	-0.009240383	1.881463e-08	3.664409e-08	0.001321138	0.004659364	1.103125e-07	1.503233e-07
	1.881463e-08	3.664409e-08	0.007493438	-0.009228931	2.538311e-08	1.858201e-07	0.001279556	0.004672845
	0.001321138	0.004659365	2.538311e-08	1.858201e-07	0.007538005	-0.009223151	1.415291e-08	7.246297e-08
	1.103125e-07	1.503233e-07	0.001279553	0.004672846	1.415291e-08	7.246297e-08	0.007471939	-0.009212113
7e+07	0.007166895	-0.01135222	2.252358e-08	4.090454e-08	0.001755643	0.005320115	1.389748e-07	1.602709e-07
	2.252359e-08	4.090454e-08	0.007073834	-0.01133171	2.859015e-08	2.116948e-07	0.001700209	0.005340403
	0.001755644	0.005320119	2.859015e-08	2.116948e-07	0.00714828	-0.01134426	2.268852e-08	7.420604e-08
	1.389748e-07	1.602709e-07	0.001700204	0.005340405	2.268852e-08	7.420604e-08	0.007059568	-0.01132455
8e+07	0.006559235	-0.01344282	2.646959e-08	4.465738e-08	0.002241013	0.005938363	1.697097e-07	1.663552e-07
	2.646959e-08	4.465739e-08	0.006439599	-0.0134101	3.163052e-08	2.376152e-07	0.002170232	0.005967368
	0.002241016	0.005938368	3.163051e-08	2.376152e-07	0.006544542	-0.01344596	3.136836e-08	7.410631e-08
	1.697097e-07	1.663552e-07	0.002170227	0.005967372	3.136836e-08	7.410631e-08	0.006430411	-0.01341472
9e+07	0.005752527	-0.01548679	3.060419e-08	4.787336e-08	0.002773483	0.006510097	2.020741e-07	1.681775e-07
	3.060419e-08	4.787336e-08	0.005603936	-0.01543839	3.461056e-08	2.635214e-07	0.002686071	0.006549915
	0.002773486	0.0065101	3.461056e-08	2.635214e-07	0.005739284	-0.01550299	3.974428e-08	7.239628e-08
	2.020741e-07	1.681775e-07	0.002686068	0.006549918	3.974428e-08	7.239628e-08	0.005597084	-0.01545691
1e+08	0.004763731	-0.01745225	3.487087e-08	5.052507e-08	0.003348901	0.007031413	2.355291e-07	1.654434e-07
	3.487087e-08	5.052507e-08	0.004584211	-0.01738442	3.76218e-08	2.893452e-07	0.003243805	0.007084313
	0.003348902	0.007031413	3.76218e-08	2.893452e-07	0.00474843	-0.0174848	4.746649e-08	6.933929e-08
	2.355291e-07	1.654434e-07	0.003243805	0.007084312	4.746649e-08	6.933929e-08	0.004575836	-0.01741998
1.1e+08	0.00364062	-0.01937233	3.917689e-08	5.262134e-08	0.003962223	0.007499463	2.694627e-07	1.603884e-07
	3.917689e-08	5.262134e-08	0.003427829	-0.01928022	3.869575e-08	3.165533e-07	0.003838103	0.007567397
	0.003962223	0.007499463	3.869575e-08	3.165533e-07	0.003615843	-0.01941664	5.323026e-08	7.228282e-08
	2.694627e-07	1.603884e-07	0.003838103	0.007567397	5.323026e-08	7.228282e-08	0.003410642	-0.01932873
1.2e+08	0.002332957	-0.02121842	4.347961e-08	5.416142e-08	0.004609121	0.007911429	3.037194e-07	1.508135e-07
	4.347961e-08	5.416142e-08	0.002086243	-0.02109786	3.956038e-08	3.438234e-07	0.004465686	0.00799729
	0.004609122	0.007911428	3.956038e-08	3.438234e-07	0.002298228	-0.0212714	5.898493e-08	7.448741e-08
	3.037194e-07	1.508135e-07	0.004465686	0.00799729	5.898493e-08	7.448741e-08	0.002059996	-0.02115602
1.3e+08	0.0008587811	-0.02296227	4.772421e-08	5.514163e-08	0.005284619	0.008264611	3.378151e-07	1.36645e-07
	4.772421e-08	5.514163e-08	0.0005778211	-0.022809	4.025814e-08	3.711863e-07	0.005121856	0.008371164
	0.005284619	0.008264611	4.025814e-08	3.711863e-07	0.0008130609	-0.02302225	6.465836e-08	7.594866e-08
	3.378151e-07	1.36645e-07	0.005121856	0.008371164	6.465836e-08	7.594866e-08	0.0005417111	-0.02287515
1.4e+08	-0.0007676283	-0.02458768	5.185257e-08	5.556335e-08	0.005983513	0.008556873	3.712461e-07	1.178585e-07
	5.185257e-08	5.556335e-08	-0.001082796	-0.02439736	4.082386e-08	3.986667e-07	0.005801663	0.008686809
	0.005983513	0.008556873	4.082386e-08	3.986667e-07	-0.0008253406	-0.02465309	7.017389e-08	7.666881e-08
	3.712461e-07	1.178585e-07	0.005801663	0.00868681	7.017389e-08	7.666881e-08	-0.00112958	-0.02447005
1.5e+08	-0.002532389	-0.02608144	5.580477e-08	5.543335e-08	0.006700434	0.008786537	4.034987e-07	9.448068e-08
	5.580477e-08	5.543335e-08	-0.002881319	-0.02584965	4.12894e-08	4.262841e-07	0.006499986	0.008942501
	0.006700434	0.008786537	4.12894e-08	4.262841e-07	-0.002602944	-0.02615068	7.545244e-08	7.665724e-08
	4.034987e-07	9.448068e-08	0.006499986	0.008942501	7.545244e-08	7.665724e-08	-0.002939505	-0.0259275
1.6e+08	-0.004421545	-0.02743223	5.952006e-08	5.47644e-08	0.007429881	0.008952386	4.34056e-07	6.65911e-08
	5.952006e-08	5.47644e-08	-0.004803348	-0.0271545	4.168449e-08	4.540538e-07	0.007211586	0.009136983
	0.007429881	0.008952386	4.168449e-08	4.540538e-07	-0.004505607	-0.02750367	8.041377e-08	7.593132e-08
	4.34056e-07	6.65911e-08	0.007211586	0.009136983	8.041377e-08	7.593132e-08	-0.004873544	-0.02723612
1.7e+08	-0.006420921	-0.02863025	6.293772e-08	5.357558e-08	0.008166272	0.009053681	4.624042e-07	3.432374e-08
	6.293772e-08	5.357558e-08	-0.00683423	-0.02830213	4.203743e-08	4.819876e-07	0.007931144	0.009269464
	0.008166272	0.009053681	4.203743e-08	4.819876e-07	-0.006518964	-0.02870225	8.497776e-08	7.451683e-08
	4.624042e-07	3.432374e-08	0.007931144	0.009269464	8.497776e-08	7.451683e-08	-0.00691692	-0.02838613
1.8e+08	-0.008516061	-0.02966712	6.599799e-08	5.189253e-08	0.008903977	0.009090167	4.880401e-07	-2.133085e-09
	6.599799e-08	5.189253e-08	-0.008959016	-0.02928421	4.237556e-08	5.100946e-07	0.008653305	0.009339617
	0.008903977	0.009090167	4.237556e-08	5.100946e-07	-0.008628375	-0.02973805	8.90656e-08	7.24482e-08
	4.880401e-07	-2.133085e-09	0.008653305	0.009339617	8.90656e-08	7.24482e-08	-0.009054548	-0.0293692
1.9e+08	-0.01069223	-0.03053576	6.864294e-08	4.974735e-08	0.00963737	0.009062074	5.104762e-07	-4.253766e-08
	6.864294e-08	4.974735e-08	-0.01116247	-0.03009377	4.272559e-08	5.383816e-07	0.009372717	0.009347577
	0.00963737	0.009062074	4.272559e-08	5.383816e-07	-0.01081893	-0.03060402	9.2601e-08	6.976844e-08
	5.104762e-07	-4.253766e-08	0.009372717	0.009347577	9.2601e-08	6.976844e-08	-0.01127106	-0.03017837
2e+08	-0.01293443	-0.03123043	7.081721e-08	4.717856e-08	0.01036087	0.008970118	5.292477e-07	-8.65965e-08
	7.081721e-08	4.717856e-08	-0.0134291	-0.03072525	4.31138e-08	5.668526e-07	0.01008407	0.009293935
	0.01036087	0.008970118	4.31138e-08	5.668526e-07	-0.01307549	-0.03129442	9.551121e-08	6.652895e-08
	5.292477e-07	-8.65965e-08	0.01008407	0.009293935	9.551121e-08	6.652895e-08	-0.01355085	-0.03080807
2.1e+08	-0.0152275	-0.03174665	7.246885e-08	4.423081e-08	0.01106898	0.008815492	5.43917e-07	-1.339667e-07
	7.246885e-08	4.423081e-08	-0.01574324	-0.0311744	4.356617e-08	5.955095e-07	0.01078214	0.009179731
	0.01106898	0.008815492	4.356617e-08	5.955095e-07	-0.01538273	-0.03180485	9.772803e-08	6.278916e-08
	5.43917e-07	-1.339667e-07	0.01078214	0.009179731	9.772803e-08	6.278916e-08	-0.01587812	-0.03125409
2.2e+08	-0.01755613	-0.03208125	7.354997e-08	4.095457e-08	0.01175634	0.008599861	5.540794e-07	-1.842588e-07
	7.354997e-08	4.095457e-08	-0.01808912	-0.03143834	4.410831e-08	6.243517e-07	0.0114618	0.009006445
	0.01175634	0.008599861	4.410831e-08	6.243517e-07	-0.01772519	-0.03213217	9.918874e-08	5.86161e-08
	5.540794e-07	-1.842588e-07	0.0114618	0.009006445	9.918874e-08	5.86161e-08	-0.01823697	-0.03151356
2.3e+08	-0.01990493	-0.03223232	7.401744e-08	3.740577e-08	0.01241776	0.008325342	5.593678e-07	-2.3704e-07
	7.401744e-08	3.740577e-08	-0.02045093	-0.0315155	4.476551e-08	6.533763e-07	0.01211812	0.008775986
	0.01241776	0.008325342	4.476551e-08	6.533763e-07	-0.02008739	-0.03227451	9.983696e-08	5.408386e-08
	5.593678e-07	-2.3704e-07	0.01211812	0.008775986	9.983696e-08	5.408386e-08	-0.02061149	-0.03158494
2.4e+08	-0.02225861	-0.03219923	7.383347e-08	3.364526e-08	0.01304826	0.007994491	5.594568e-07	-2.918383e-07
	7.383347e-08	3.364526e-08	-0.02281295	-0.03140566	4.55625e-08	6.825777e-07	0.01274632	0.00849067
	0.01304826	0.007994491	4.55625e-08	6.825777e-07	-0.02245388	-0.03223132	9.962338e-08	4.92729e-08
	5.594568e-07	-2.918383e-07	0.01274632	0.00849067	9.962338e-08	4.92729e-08	-0.02298583	-0.03146805
2.5e+08	-0.02460193	-0.03198258	7.296615e-08	2.973834e-08	0.01364309	0.007610279	5.540666e-07	-3.48146e-07
	7.296615e-08	2.973834e-08	-0.0251596	-0.03110986	4.652338e-08	7.119481e-07	0.01334186	0.008153207
	0.01364309	0.007610279	4.652338e-08	7.119481e-07	-0.02480932	-0.03200326	9.850651e-08	4.426942e-08
	5.540666e-07	-3.48146e-07	0.01334186	0.008153207	9.850651e-08	4.426942e-08	-0.0253443	-0.03116397
2.6e+08	-0.02691992	-0.03158424	7.138984e-08	2.575421e-08	0.01419782	0.007176069	5.429667e-07	-4.054248e-07
	7.138984e-08	2.575421e-08	-0.02747556	-0.03063043	4.767137e-08	7.414771e-07	0.01390046	0.007766675
	0.01419782	0.007176069	4.767137e-08	7.414771e-07	-0.0271386	-0.03159226	9.645326e-08	3.916452e-08
	5.429667e-07	-4.054248e-07	0.01390046	0.007766675	9.645326e-08	3.916452e-08	-0.02767146	-0.0306751
2.7e+08	-0.02919785	-0.03100724	6.908598e-08	2.176522e-08	0.01470829	0.006695591	5.259787e-07	-4.631102e-07
	6.908598e-08	2.176522e-08	-0.02974583	-0.02997094	4.902866e-08	7.71152e-07	0.01441812	0.0073345
	0.01470829	0.006695591	4.902866e-08	7.71152e-07	-0.0294269	-0.03100144	9.343949e-08	3.405341e-08
	5.259787e-07	-4.631102e-07	0.01441812	0.0073345	9.343949e-08	3.405341e-08	-0.02995223	-0.03000505
2.8e+08	-0.03142137	-0.0302558	6.60431e-08	1.78463e-08	0.01517072	0.006172908	5.02979e-07	-5.206164e-07
	6.60431e-08	1.78463e-08	-0.03195585	-0.02913615	5.061613e-08	8.009576e-07	0.01489116	0.006860425
	0.01517072	0.006172908	5.061613e-08	8.009576e-07	-0.03165978	-0.0302351	8.945044e-08	2.903454e-08
	5.02979e-07	-5.206164e-07	0.01489116	0.006860425	8.945044e-08	2.903454e-08	-0.03217194	-0.02915865
2.9e+08	-0.03357663	-0.02933525	6.225722e-08	1.40742e-08	0.01558167	0.005612389	4.739007e-07	-5.773421e-07
	6.225722e-08	1.40742e-08	-0.0340916	-0.02813197	5.245314e-08	8.308767e-07	0.01531623	0.006348486
	0.01558167	0.005612389	5.245314e-08	8.308767e-07	-0.03382327	-0.02929868	8.448116e-08	2.420861e-08
	4.739007e-07	-5.773421e-07	0.01531623	0.006348486	8.448116e-08	2.420861e-08	-0.03431647	-0.0281419
3e+08	-0.0356503	-0.02825202	5.773204e-08	1.052674e-08	0.0159381	0.005018676	4.387354e-07	-6.326751e-07
	5.773204e-08	1.052674e-08	-0.03613963	-0.02696542	5.455731e-08	8.608896e-07	0.01569034	0.005802977
	0.0159381	0.005018676	5.455731e-08	8.608896e-07	-0.03590397	-0.02819869	7.853669e-08	1.967768e-08
	4.387354e-07	-6.326751e-07	0.01569034	0.005802977	7.853669e-08	1.967768e-08	-0.03637231	-0.0269619
3.1e+08	-0.03762968	-0.02701355	5.247914e-08	7.282063e-09	0.01623741	0.004396642	3.975344e-07	-6.859985e-07
	5.247914e-08	7.282063e-09	-0.0380872	-0.02564455	5.694431e-08	8.909749e-07	0.01601089	0.005228422
	0.01623741	0.004396642	5.694431e-08	8.909749e-07	-0.03788909	-0.02694269	7.163231e-08	1.554415e-08
	3.975344e-07	-6.859985e-07	0.01601089	0.005228422	7.163231e-08	1.554415e-08	-0.03832661	-0.0256268
3.2e+08	-0.03950276	-0.02562826	4.651806e-08	4.417847e-09	0.01647739	0.003751363	3.504091e-07	-7.36696e-07
	4.651806e-08	4.417847e-09	-0.03992231	-0.0241784	5.962762e-08	9.211095e-07	0.01627567	0.004629541
	0.01647739	0.003751363	5.962762e-08	9.211095e-07	-0.03976657	-0.02553922	6.379361e-08	1.190975e-08
	3.504091e-07	-7.36696e-07	0.01627567	0.004629541	6.379361e-08	1.190975e-08	-0.04016732	-0.02414573
3.3e+08	-0.04125831	-0.02410548	3.987626e-08	2.010482e-09	0.0166563	0.003088073	2.975308e-07	-7.841574e-07
	3.987626e-08	2.010482e-09	-0.04163378	-0.02257693	6.261835e-08	9.512683e-07	0.01648287	0.004011212
	0.0166563	0.003088073	6.261835e-08	9.512683e-07	-0.04152508	-0.02399772	5.505643e-08	8.8745e-09
	2.975308e-07	-7.841574e-07	0.01648287	0.004011212	5.505643e-08	8.8745e-09	-0.04188319	-0.02252874
3.4e+08	-0.04288592	-0.02245536	3.258905e-08	1.342795e-10	0.01677285	0.002412133	2.391311e-07	-8.277848e-07
	3.258905e-08	1.342795e-10	-0.04321134	-0.0208509	6.592509e-08	9.814253e-07	0.01663112	0.003378439
	0.01677285	0.002412133	6.592509e-08	9.814253e-07	-0.04315418	-0.02232849	4.54668e-08	6.53574e-09
	2.391311e-07	-8.277848e-07	0.01663112	0.003378439	4.54668e-08	6.53574e-09	-0.04346391	-0.02078672
3.5e+08	-0.04437606	-0.02068884	2.469944e-08	-1.139313e-09	0.01682622	0.001728983	1.755001e-07	-8.669978e-07
	2.469944e-08	-1.139313e-09	-0.04464566	-0.01901185	6.955371e-08	1.011553e-06	0.01671947	0.002736318
	0.01682622	0.001728983	6.955371e-08	1.011553e-06	-0.04464431	-0.02054258	3.508069e-08	4.987083e-09
	1.755001e-07	-8.669978e-07	0.01671947	0.002736318	3.508069e-08	4.987083e-09	-0.04490008	-0.01893132
3.6e+08	-0.04572014	-0.01881754	1.625787e-08	-1.742508e-09	0.01681605	0.00104411	1.069857e-07	-9.012391e-07
	1.625787e-08	-1.742508e-09	-0.0459284	-0.01707201	7.350729e-08	1.041624e-06	0.01674739	0.002089996
	0.01681605	0.00104411	7.350729e-08	1.041624e-06	-0.04598683	-0.01865177	2.396367e-08	4.317429e-09
	1.069857e-07	-9.012391e-07	0.01674739	0.002089996	2.396367e-08	4.317429e-09	-0.04618335	-0.01697488
3.7e+08	-0.04691057	-0.01685369	7.321898e-09	-1.611928e-09	0.01674244	0.0003630052	3.39908e-08	-9.299801e-07
	7.321898e-09	-1.611928e-09	-0.04705227	-0.01504419	7.778599e-08	1.071608e-06	0.01671481	0.001444639
	0.01674244	0.0003630052	7.778599e-08	1.071608e-06	-0.04717415	-0.01666842	1.219054e-08	4.610012e-09
	3.39908e-08	-9.299801e-07	0.01671481	0.001444639	1.219054e-08	4.610012e-09	-0.0473064	-0.01493034
3.8e+08	-0.04794078	-0.01481007	-2.044227e-09	-6.893324e-10	0.01660598	-0.0003088749	-4.302823e-08	-9.52726e-07
	-2.044227e-09	-6.893324e-10	-0.04801107	-0.01294169	8.238698e-08	1.101478e-06	0.01662207	0.0008053939
	0.01660598	-0.0003088749	8.238698e-08	1.101478e-06	-0.04819969	-0.01460544	-1.55198e-10	5.941469e-09
	-4.302823e-08	-9.52726e-07	0.01662207	0.0008053939	-1.55198e-10	5.941469e-09	-0.04826302	-0.01281112
3.9e+08	-0.04880525	-0.01269987	-1.177003e-08	1.077697e-09	0.0164077	-0.000966147	-1.235651e-07	-9.690209e-07
	-1.177003e-08	1.077697e-09	-0.04879971	-0.01077826	8.730444e-08	1.131204e-06	0.01646996	0.0001773533
	0.0164077	-0.000966147	8.730444e-08	1.131204e-06	-0.04905794	-0.01247619	-1.298198e-08	8.380971e-09
	-1.235651e-07	-9.690209e-07	0.01646996	0.0001773533	-1.298198e-08	8.380971e-09	-0.04904812	-0.0106311
4e+08	-0.04949956	-0.01053669	-2.177935e-08	3.735114e-09	0.01614909	-0.001603539	-2.070667e-07	-9.784525e-07
	-2.177935e-08	3.735114e-09	-0.04941423	-0.008567957	9.252953e-08	1.160758e-06	0.01625968	-0.0004344794
	0.01614909	-0.001603539	9.252953e-08	1.160758e-06	-0.04974449	-0.0102944	-2.619082e-08	1.198941e-08
	-2.070667e-07	-9.784525e-07	0.01625968	-0.0004344794	-2.619082e-08	1.198941e-08	-0.04965774	-0.008404436
4.1e+08	-0.05002038	-0.008334374	-3.199099e-08	7.321823e-09	0.01583208	-0.002215928	-2.929369e-07	-9.806569e-07
	-3.199099e-08	7.321823e-09	-0.04985184	-0.006325062	9.805045e-08	1.190112e-06	0.01599284	-0.001025225
	0.01583208	-0.002215928	9.805045e-08	1.190112e-06	-0.05025606	-0.008074051	-3.967611e-08	1.681864e-08
	-2.929369e-07	-9.806569e-07	0.01599284	-0.001025225	-3.967611e-08	1.681864e-08	-0.05008912	-0.006145558
4.2e+08	-0.05036551	-0.006106953	-4.231936e-08	1.186917e-08	0.01545903	-0.002798374	-3.80541e-07	-9.753223e-07
	-4.231936e-08	1.186917e-08	-0.0501109	-0.004064015	1.038525e-07	1.219239e-06	0.01567148	-0.00159016
	0.01545903	-0.002798374	1.038525e-07	1.219239e-06	-0.0505905	-0.005829319	-5.332647e-08	2.291081e-08
	-3.80541e-07	-9.753223e-07	0.01567148	-0.00159016	-5.332647e-08	2.291081e-08	-0.05034065	-0.003869017
4.3e+08	-0.05053389	-0.003868563	-5.26752e-08	1.740046e-08	0.01503271	-0.003346158	-4.692101e-07	-9.621932e-07
	-5.26752e-08	1.740046e-08	-0.05019095	-0.001799292	1.099181e-07	1.248114e-06	0.01529799	-0.002124751
	0.01503271	-0.003346158	1.099181e-07	1.248114e-06	-0.0507468	-0.003574472	-6.702562e-08	3.029778e-08
	-4.692101e-07	-9.621932e-07	0.01529799	-0.002124751	-6.702562e-08	3.029778e-08	-0.05041192	-0.001589408
4.4e+08	-0.05052558	-0.001633349	-6.296637e-08	2.393062e-08	0.01455628	-0.00385481	-5.582458e-07	-9.410735e-07
	-6.296637e-08	2.393062e-08	-0.05009271	0.0004546698	1.162271e-07	1.276714e-06	0.01487514	-0.002624684
	0.01455628	-0.00385481	1.162271e-07	1.276714e-06	-0.0507251	-0.001323784	-8.065341e-08	3.90006e-08
	-5.582458e-07	-9.410735e-07	0.01487514	-0.002624684	-8.065341e-08	3.90006e-08	-0.05030369	0.0006787192
4.5e+08	-0.05034175	0.0005846239	-7.309867e-08	3.146585e-08	0.01403325	-0.004320147	-6.469264e-07	-9.118297e-07
	-7.309867e-08	3.146585e-08	-0.04981803	0.002683573	1.227568e-07	1.305015e-06	0.01440607	-0.003085895
	0.01403325	-0.004320147	1.227568e-07	1.305015e-06	-0.05052666	0.0009085602	-9.408679e-08	4.902909e-08
	-6.469264e-07	-9.118297e-07	0.01440607	-0.003085895	-9.408679e-08	4.902909e-08	-0.05001788	0.002920958
4.6e+08	-0.04998471	0.00277146	-8.297665e-08	4.000341e-08	0.0134675	-0.004738296	-7.345112e-07	-8.743934e-07
	-8.297665e-08	4.000341e-08	-0.04936991	0.004873348	1.294823e-07	1.332999e-06	0.01389422	-0.003504595
	0.0134675	-0.004738296	1.294823e-07	1.332999e-06	-0.05015388	0.003108566	-1.072009e-07	6.038177e-08
	-7.345112e-07	-8.743934e-07	0.01389422	-0.003504595	-1.072009e-07	6.038177e-08	-0.04955758	0.005123155
4.7e+08	-0.04945783	0.004913513	-9.250446e-08	4.953152e-08	0.0128632	-0.005105726	-8.202472e-07	-8.287632e-07
	-9.250446e-08	4.953152e-08	-0.04875245	0.007010239	1.363765e-07	1.360648e-06	0.01334335	-0.0038773
	0.0128632	-0.005105726	1.363765e-07	1.360648e-06	-0.04961025	0.005262466	-1.1987e-07	7.304502e-08
	-8.202472e-07	-8.287632e-07	0.01334335	-0.0038773	-1.1987e-07	7.304502e-08	-0.04892697	0.007271441
4.8e+08	-0.04876557	0.006997473	-1.015868e-07	6.002924e-08	0.01222483	-0.005419268	-9.03375e-07	-7.750063e-07
