!$
! Info: Touchstone file created by Circ.  Input file=Tx_4in_Rx_85ohms_TxVia_10mils_RxVia_20mils.circ
!$
# Hz S RI R 50
0	0.003338729	3.149944e-26	-1.745394e-11	4.122283e-27	3.323787e-05	3.428769e-24	-2.173625e-08	2.661899e-24
	-1.743965e-11	4.121265e-27	0.003338125	4.461298e-26	1.748464e-11	9.613575e-29	3.284984e-05	4.687431e-24
	3.134814e-05	3.380537e-24	1.74492e-11	9.647772e-29	0.003352964	3.278472e-26	1.755813e-08	7.497788e-27
	-2.173699e-08	2.661989e-24	3.430804e-05	4.824494e-24	1.755865e-08	7.496614e-27	0.003343772	4.259121e-26
1e+07	0.00507026	-0.003416633	3.896857e-11	-3.917232e-11	6.513149e-05	0.0008205576	-8.094284e-09	1.885888e-08
	3.89686e-11	-3.917263e-11	0.00452615	-0.003497835	-2.445791e-12	-7.276777e-11	9.497269e-05	0.000823565
	6.509283e-05	0.0008205826	-2.445862e-12	-7.276746e-11	0.004550706	-0.003566179	-1.005436e-08	1.833621e-08
	-8.094284e-09	1.885888e-08	9.500484e-05	0.0008235535	-1.005436e-08	1.833621e-08	0.00452874	-0.003494268
2e+07	0.005758073	-0.008161058	4.299813e-11	-4.338027e-11	0.0001712026	0.001637511	-9.368163e-09	2.245339e-08
	4.299786e-11	-4.338053e-11	0.00525162	-0.008098151	2.039545e-11	-1.765223e-10	0.00021533	0.001618292
	0.0001712098	0.001637529	2.039562e-11	-1.765221e-10	0.005222926	-0.00821703	-1.381731e-08	1.762946e-08
	-9.368163e-09	2.245339e-08	0.0002153269	0.001618271	-1.381731e-08	1.762946e-08	0.005256056	-0.008087079
3e+07	0.00569003	-0.01332868	5.159942e-11	-9.976677e-11	0.0003694703	0.002418604	-4.904877e-09	1.764578e-08
	5.159936e-11	-9.976674e-11	0.005206073	-0.01321426	-3.101429e-11	-2.122159e-10	0.0003976552	0.002393531
	0.0003694678	0.002418605	-3.101417e-11	-2.122159e-10	0.005142285	-0.01335051	-1.168936e-08	2.02401e-08
	-4.904877e-09	1.764578e-08	0.0003976501	0.002393528	-1.168936e-08	2.02401e-08	0.005212397	-0.01319724
4e+07	0.005012201	-0.01859975	5.648034e-11	-1.427574e-10	0.0006304408	0.003172504	-3.24701e-09	1.514434e-08
	5.648039e-11	-1.427574e-10	0.004540893	-0.0184509	1.484935e-12	-2.615919e-10	0.0006415682	0.003146131
	0.000630436	0.003172506	1.484973e-12	-2.61592e-10	0.004454138	-0.01859447	-6.978189e-09	1.828431e-08
	-3.24701e-09	1.514434e-08	0.0006415679	0.003146132	-6.978189e-09	1.828431e-08	0.004549088	-0.01843028
5e+07	0.003784766	-0.02386294	7.097474e-11	-1.795958e-10	0.0009523432	0.003895834	-2.099551e-09	1.520161e-08
	7.097477e-11	-1.795958e-10	0.003318099	-0.02368622	-2.579828e-11	-3.219823e-10	0.0009450438	0.003871463
	0.0009523419	0.003895836	-2.579828e-11	-3.219823e-10	0.003218159	-0.02383212	-3.414476e-09	1.421987e-08
	-2.099551e-09	1.520161e-08	0.0009450433	0.003871463	-3.414476e-09	1.421987e-08	0.003326621	-0.02366282
6e+07	0.002044894	-0.02904576	9.926127e-11	-2.14748e-10	0.001332496	0.0045842	2.229891e-09	1.719796e-08
	9.926126e-11	-2.147479e-10	0.001575923	-0.02884367	-5.814824e-11	-3.600058e-10	0.001305439	0.004564843
	0.001332497	0.004584198	-5.814824e-11	-3.600058e-10	0.001471267	-0.02898926	-1.15707e-09	9.963338e-09
	2.229891e-09	1.719796e-08	0.001305436	0.004564843	-1.15707e-09	9.963338e-09	0.001583907	-0.02881735
7e+07	-0.0001777662	-0.0340915	1.423204e-10	-2.456408e-10	0.001767634	0.00523306	9.645862e-09	1.310091e-08
	1.423205e-10	-2.456406e-10	-0.0006552058	-0.03386435	-8.691601e-11	-3.989941e-10	0.001719641	0.005221703
	0.001767635	0.005233055	-8.691604e-11	-3.989942e-10	-0.0007569361	-0.03400832	2.069594e-10	6.139975e-09
	9.645862e-09	1.310091e-08	0.001719636	0.005221706	2.069594e-10	6.139975e-09	-0.000648199	-0.03383525
8e+07	-0.002855838	-0.03895211	1.790249e-10	-2.592483e-10	0.00225399	0.00583802	1.025491e-08	6.86645e-09
	1.79025e-10	-2.592482e-10	-0.003347269	-0.03869891	-1.127279e-10	-4.513338e-10	0.002184093	0.005837746
	0.002253989	0.005838014	-1.12728e-10	-4.513339e-10	-0.003438921	-0.03884052	9.548816e-10	2.901344e-09
	1.025491e-08	6.86645e-09	0.002184089	0.00583775	9.548816e-10	2.901344e-09	-0.003341918	-0.03866743
9e+07	-0.005962083	-0.04358536	1.62674e-10	-2.872242e-10	0.002787362	0.006395023	8.777243e-09	4.114367e-09
	1.626741e-10	-2.872242e-10	-0.006472512	-0.0433043	-1.212391e-10	-5.187633e-10	0.002694877	0.00640916
	0.00278736	0.006395019	-1.212392e-10	-5.187634e-10	-0.006546978	-0.04344249	1.191233e-09	2.212371e-10
	8.777243e-09	4.114367e-09	0.002694874	0.006409164	1.191233e-09	2.212371e-10	-0.006469949	-0.04327076
1e+08	-0.009468513	-0.04795369	1.736251e-10	-4.140755e-10	0.003363385	0.006900896	7.402849e-09	2.703841e-09
	1.736251e-10	-4.140755e-10	-0.010003	-0.04764363	-1.011198e-10	-5.796144e-10	0.003248247	0.006933769
	0.003363385	0.006900896	-1.011198e-10	-5.796144e-10	-0.01005082	-0.04777177	1.020934e-09	-2.067725e-09
	7.402849e-09	2.703841e-09	0.003248247	0.006933769	1.020934e-09	-2.067725e-09	-0.01000472	-0.04760806
1.1e+08	-0.01334517	-0.05203057	1.952848e-10	-4.703926e-10	0.003979036	0.007350268	8.382288e-09	2.281157e-09
	1.952848e-10	-4.703926e-10	-0.01391333	-0.05168363	-1.164946e-10	-6.284475e-10	0.003843829	0.007402906
	0.003979036	0.007350268	-1.164946e-10	-6.284475e-10	-0.01390484	-0.05181827	1.189479e-09	-2.389961e-09
	8.382288e-09	2.281157e-09	0.003843829	0.007402906	1.189479e-09	-2.389961e-09	-0.01391979	-0.0516443
1.2e+08	-0.01756392	-0.05577313	2.164603e-10	-5.297303e-10	0.004625916	0.007740093	9.35655e-09	1.721243e-09
	2.164603e-10	-5.297303e-10	-0.01816629	-0.05538163	-1.317218e-10	-6.759213e-10	0.004469948	0.007814094
	0.004625916	0.007740093	-1.317218e-10	-6.759213e-10	-0.01810506	-0.05554017	1.358318e-09	-2.738735e-09
	9.35655e-09	1.721243e-09	0.004469948	0.007814094	1.358318e-09	-2.738735e-09	-0.01817806	-0.05533782
1.3e+08	-0.02209062	-0.05915494	2.371826e-10	-5.924456e-10	0.005298771	0.008068792	1.031082e-08	1.023596e-09
	2.371826e-10	-5.924456e-10	-0.02272768	-0.05871264	-1.467862e-10	-7.220672e-10	0.005121955	0.00816666
	0.005298771	0.008068792	-1.467862e-10	-7.220672e-10	-0.02261553	-0.058905	1.52471e-09	-3.115031e-09
	1.031082e-08	1.023596e-09	0.005121955	0.00816666	1.52471e-09	-3.115031e-09	-0.02274529	-0.05866358
1.4e+08	-0.02689023	-0.06215272	2.571449e-10	-6.587429e-10	0.005991991	0.008334732	1.122981e-08	1.891075e-10
	2.571449e-10	-6.587429e-10	-0.02756194	-0.06165355	-1.615695e-10	-7.669835e-10	0.00579459	0.008459129
	0.00599199	0.008334732	-1.615695e-10	-7.669835e-10	-0.02740069	-0.06188787	1.685454e-09	-3.519328e-09
	1.122981e-08	1.891075e-10	0.00579459	0.008459129	1.685454e-09	-3.519328e-09	-0.02758586	-0.06159835
1.5e+08	-0.03192694	-0.06474641	2.759553e-10	-7.287847e-10	0.006699825	0.008536722	1.209805e-08	-7.797846e-10
	2.759553e-10	-7.287847e-10	-0.03263263	-0.06418434	-1.759531e-10	-8.107852e-10	0.00648242	0.008690362
	0.006699825	0.008536722	-1.759531e-10	-8.107852e-10	-0.03242436	-0.06446783	1.837218e-09	-3.951732e-09
	1.209805e-08	-7.797846e-10	0.00648242	0.008690362	1.837218e-09	-3.951732e-09	-0.03266315	-0.06412199
1.6e+08	-0.03716414	-0.06691917	2.931592e-10	-8.026854e-10	0.007416458	0.008674067	1.290009e-08	-1.879005e-09
	2.931592e-10	-8.026854e-10	-0.03790245	-0.06628816	-1.898277e-10	-8.535992e-10	0.007179942	0.008859669
	0.007416458	0.008674067	-1.898277e-10	-8.535992e-10	-0.03764963	-0.06662752	1.976604e-09	-4.411972e-09
	1.290009e-08	-1.879005e-09	0.007179942	0.008859669	1.976604e-09	-4.411972e-09	-0.03793973	-0.06621763
1.7e+08	-0.04256457	-0.06865733	3.082527e-10	-8.805029e-10	0.008136059	0.008746591	1.362077e-08	-3.102816e-09
	3.082527e-10	-8.805029e-10	-0.04333345	-0.06795144	-2.030977e-10	-8.955629e-10	0.007881637	0.008966839
	0.008136059	0.008746591	-2.030977e-10	-8.955629e-10	-0.04303896	-0.0683529	2.1002e-09	-4.899394e-09
	1.362077e-08	-3.102816e-09	0.007881637	0.008966839	2.1002e-09	-4.899394e-09	-0.04337748	-0.06787163
1.8e+08	-0.04809049	-0.06995042	3.206934e-10	-9.622293e-10	0.008852841	0.008754632	1.424543e-08	-4.443837e-09
	3.206934e-10	-9.622293e-10	-0.04888714	-0.06916383	-2.156828e-10	-9.368223e-10	0.008582031	0.009012141
	0.008852841	0.008754632	-2.156828e-10	-9.368223e-10	-0.04855438	-0.06963327	2.204628e-09	-5.412961e-09
	1.424543e-08	-4.443837e-09	0.008582031	0.009012141	2.204628e-09	-5.412961e-09	-0.04893777	-0.06907365
1.9e+08	-0.05370383	-0.07079114	3.299109e-10	-1.047783e-09	0.009561108	0.00869904	1.47601e-08	-5.893104e-09
	3.299109e-10	-1.047783e-09	-0.05452473	-0.06991825	-2.275199e-10	-9.775304e-10	0.009275737	0.008996315
	0.009561109	0.00869904	-2.275199e-10	-9.775304e-10	-0.05415761	-0.07046116	2.286585e-09	-5.951256e-09
	1.47601e-08	-5.893104e-09	0.009275737	0.008996316	2.286585e-09	-5.951256e-09	-0.05458165	-0.06981661
2e+08	-0.05936643	-0.07117535	3.353187e-10	-1.137002e-09	0.01025531	0.008581159	1.515171e-08	-7.44015e-09
	3.353187e-10	-1.137002e-09	-0.06020735	-0.07021087	-2.385641e-10	-1.017845e-09	0.009957498	0.008920562
	0.01025531	0.008581159	-2.385641e-10	-1.017845e-09	-0.05981029	-0.07083235	2.342886e-09	-6.512483e-09
	1.515171e-08	-7.44015e-09	0.009957498	0.008920562	2.342886e-09	-6.512483e-09	-0.06027012	-0.07009672
2.1e+08	-0.06504025	-0.07110208	3.363265e-10	-1.229638e-09	0.01093006	0.008402807	1.540821e-08	-9.073106e-09
	3.363265e-10	-1.229638e-09	-0.06589626	-0.07004107	-2.487897e-10	-1.057927e-09	0.01062223	0.008786519
	0.01093006	0.008402807	-2.487897e-10	-1.057927e-09	-0.06547419	-0.07074577	2.370507e-09	-7.094487e-09
	1.540821e-08	-9.073106e-09	0.01062223	0.008786519	2.370507e-09	-7.094487e-09	-0.06596431	-0.06991341
2.2e+08	-0.07068759	-0.07057342	3.323532e-10	-1.325355e-09	0.01158023	0.00816625	1.551874e-08	-1.077882e-08
	3.323532e-10	-1.325355e-09	-0.07155312	-0.06941141	-2.5819e-10	-1.097937e-09	0.01126506	0.008596243
	0.01158023	0.00816625	-2.5819e-10	-1.097937e-09	-0.07111146	-0.07020349	2.366622e-09	-7.694758e-09
	1.551874e-08	-1.077882e-08	0.01126506	0.008596243	2.366622e-09	-7.694758e-09	-0.07162574	-0.06926929
2.3e+08	-0.07627131	-0.06959451	3.228414e-10	-1.423727e-09	0.01220092	0.007874179	1.547378e-08	-1.2543e-08
	3.228414e-10	-1.423727e-09	-0.07714017	-0.06832756	-2.667771e-10	-1.138033e-09	0.01188135	0.008352177
	0.01220092	0.007874179	-2.667771e-10	-1.138033e-09	-0.0766848	-0.06921065	2.328646e-09	-8.310457e-09
	1.547378e-08	-1.2543e-08	0.01188135	0.008352178	2.328646e-09	-8.310457e-09	-0.07721655	-0.06817009
2.4e+08	-0.08175507	-0.06817344	3.072703e-10	-1.524238e-09	0.01278755	0.007529674	1.526519e-08	-1.435031e-08
	3.072703e-10	-1.524238e-09	-0.08262054	-0.0667982	-2.745818e-10	-1.17837e-09	0.01246674	0.008057131
	0.01278755	0.007529674	-2.745818e-10	-1.17837e-09	-0.08215774	-0.06777534	2.254269e-09	-8.938438e-09
	1.526519e-08	-1.435031e-08	0.01246674	0.008057131	2.254269e-09	-8.938438e-09	-0.08269975	-0.06662459
2.5e+08	-0.08710353	-0.06632116	2.851712e-10	-1.626289e-09	0.01333584	0.007136174	1.488638e-08	-1.618458e-08
	2.851712e-10	-1.626289e-09	-0.08795838	-0.06483494	-2.81652e-10	-1.219095e-09	0.01301715	0.007714243
	0.01333584	0.007136174	-2.81652e-10	-1.219095e-09	-0.08749481	-0.06590853	2.141491e-09	-9.575273e-09
	1.488638e-08	-1.618458e-08	0.01301715	0.007714243	2.141491e-09	-9.575273e-09	-0.0880394	-0.06464448
2.6e+08	-0.09228258	-0.06405136	2.561401e-10	-1.729197e-09	0.01384187	0.00669744	1.433233e-08	-1.802891e-08
	2.561401e-10	-1.729197e-09	-0.09311916	-0.06245218	-2.880517e-10	-1.260345e-09	0.01352883	0.007326951
	0.01384187	0.00669744	-2.880517e-10	-1.260345e-09	-0.09266175	-0.06362397	1.988656e-09	-1.021728e-08
	1.433233e-08	-1.802891e-08	0.01352883	0.007326951	1.988656e-09	-1.021728e-08	-0.09320087	-0.06224426
2.7e+08	-0.0972595	-0.06138034	2.198519e-10	-1.832211e-09	0.01430208	0.006217523	1.35997e-08	-1.986582e-08
	2.198519e-10	-1.832211e-09	-0.09806982	-0.059667	-2.938589e-10	-1.30225e-09	0.01399837	0.006898964
	0.01430208	0.006217523	-2.938589e-10	-1.30225e-09	-0.09762575	-0.06093803	1.794481e-09	-1.086058e-08
	1.35997e-08	-1.986582e-08	0.01399837	0.006898964	1.794481e-09	-1.086058e-08	-0.09815101	-0.05944112
2.8e+08	-0.1020032	-0.05832688	1.760711e-10	-1.934514e-09	0.01471331	0.005700721	1.268681e-08	-2.167746e-08
	1.760711e-10	-1.934514e-09	-0.1027789	-0.05649896	-2.991642e-10	-1.344925e-09	0.0144227	0.006434221
	0.01471331	0.005700721	-2.991642e-10	-1.344925e-09	-0.1023556	-0.05786957	1.55808e-09	-1.150109e-08
	1.268681e-08	-2.167746e-08	0.0144227	0.006434221	1.55808e-09	-1.150109e-08	-0.1028584	-0.05625476
2.9e+08	-0.1064842	-0.0549121	1.24663e-10	-2.03524e-09	0.01507279	0.005151553	1.159375e-08	-2.344571e-08
	1.24663e-10	-2.03524e-09	-0.107217	-0.05297003	-3.040686e-10	-1.388472e-09	0.01479912	0.005936868
	0.01507279	0.005151553	-3.040686e-10	-1.388472e-09	-0.1068218	-0.05443979	1.278984e-09	-1.21346e-08
	1.159375e-08	-2.344571e-08	0.01479912	0.005936868	1.278984e-09	-1.21346e-08	-0.1072934	-0.05270725
3e+08	-0.1106752	-0.05115928	6.560392e-11	-2.133484e-09	0.01537815	0.004574711	1.032235e-08	-2.515239e-08
	6.560392e-11	-2.133484e-09	-0.1113565	-0.04910434	-3.086814e-10	-1.432982e-09	0.01512529	0.005411216
	0.01537815	0.004574711	-3.086814e-10	-1.432982e-09	-0.1109969	-0.05067207	9.571652e-10	-1.275683e-08
	1.032235e-08	-2.515239e-08	0.01512529	0.005411216	9.571652e-10	-1.275683e-08	-0.1114284	-0.04882285
3.1e+08	-0.1145509	-0.04709365	-1.013137e-12	-2.22832e-09	0.01562744	0.003975034	8.876191e-09	-2.677938e-08
	-1.013137e-12	-2.22832e-09	-0.115172	-0.04492801	-3.13116e-10	-1.478529e-09	0.01539925	0.004861716
	0.01562744	0.003975034	-3.13116e-10	-1.478529e-09	-0.1148554	-0.04659178	5.930401e-10	-1.336343e-08
	8.876191e-09	-2.677938e-08	0.01539925	0.004861716	5.930401e-10	-1.336343e-08	-0.115238	-0.04462783
3.2e+08	-0.1180879	-0.04274231	-7.497315e-11	-2.318816e-09	0.01581913	0.003357467	7.260607e-09	-2.830881e-08
	-7.497315e-11	-2.318816e-09	-0.1186404	-0.04046901	-3.174898e-10	-1.525176e-09	0.01561944	0.004292922
	0.01581913	0.003357467	-3.174898e-10	-1.525176e-09	-0.1183741	-0.04222613	1.874836e-10	-1.395006e-08
	7.260607e-09	-2.830881e-08	0.01561944	0.004292922	1.874836e-10	-1.395006e-08	-0.1186991	-0.0401503
3.3e+08	-0.1212656	-0.03813395	-1.559317e-10	-2.404044e-09	0.01595212	0.002727029	5.482661e-09	-2.972321e-08
	-1.559317e-10	-2.404044e-09	-0.121741	-0.0357569	-3.2193e-10	-1.572972e-09	0.01578466	0.003709467
	0.01595212	0.002727029	-3.2193e-10	-1.572972e-09	-0.1215322	-0.03760394	-2.581612e-10	-1.451241e-08
	5.482661e-09	-2.972321e-08	0.01578466	0.003709467	-2.581612e-10	-1.451241e-08	-0.1217911	-0.03541996
3.4e+08	-0.1240653	-0.0332987	-2.472823e-10	-2.484205e-09	0.0160257	0.002088779	3.549826e-09	-3.100466e-08
	-2.472823e-10	-2.484205e-09	-0.1244557	-0.03082271	-3.26517e-10	-1.621837e-09	0.01589409	0.003116027
	0.0160257	0.002088779	-3.26517e-10	-1.621837e-09	-0.1243112	-0.0327555	-7.459558e-10	-1.504745e-08
	3.549826e-09	-3.100466e-08	0.01589409	0.003116027	-7.459558e-10	-1.504745e-08	-0.1244956	-0.03046798
3.5e+08	-0.1264713	-0.02826792	-3.453163e-10	-2.557216e-09	0.01603961	0.001447787	1.473757e-09	-3.21376e-08
	-3.453163e-10	-2.557216e-09	-0.1267687	-0.02569864	-3.313899e-10	-1.67189e-09	0.01594729	0.002517299
	0.01603961	0.001447787	-3.313899e-10	-1.67189e-09	-0.126695	-0.02771231	-1.270551e-09	-1.554985e-08
	1.473757e-09	-3.21376e-08	0.01594729	0.002517299	-1.270551e-09	-1.554985e-08	-0.1267971	-0.02532671
3.6e+08	-0.12847	-0.02307403	-4.487346e-10	-2.622087e-09	0.01599397	0.0008090999	-7.333339e-10	-3.310683e-08
	-4.487346e-10	-2.622087e-09	-0.1286671	-0.02041794	-3.366743e-10	-1.723164e-09	0.01594419	0.00191797
	0.01599397	0.0008090999	-3.366743e-10	-1.723164e-09	-0.1286704	-0.02250693	-1.828681e-09	-1.601556e-08
	-7.333339e-10	-3.310683e-08	0.01594419	0.00191797	-1.828681e-09	-1.601556e-08	-0.1286828	-0.02002954
3.7e+08	-0.1300508	-0.01775027	-5.566898e-10	-2.678094e-09	0.01588931	0.0001777141	-3.057922e-09	-3.389798e-08
	-5.566898e-10	-2.678094e-09	-0.1301407	-0.01501466	-3.424886e-10	-1.775668e-09	0.0158851	0.001322692
	0.01588931	0.0001777141	-3.424886e-10	-1.775668e-09	-0.1302265	-0.01717277	-2.41722e-09	-1.644094e-08
	-3.057922e-09	-3.389798e-08	0.0158851	0.001322692	-2.41722e-09	-1.644094e-08	-0.1301422	-0.01461066
3.8e+08	-0.1312054	-0.01233054	-6.682333e-10	-2.724608e-09	0.01572656	-0.0004414534	-5.485053e-09	-3.449783e-08
	-6.682333e-10	-2.724608e-09	-0.1311819	-0.009523435	-3.489494e-10	-1.829399e-09	0.01577066	0.0007360586
	0.01572656	-0.0004414534	-3.489494e-10	-1.829399e-09	-0.1313554	-0.01174385	-3.032652e-09	-1.682267e-08
	-5.485053e-09	-3.449783e-08	0.01577066	0.0007360586	-3.032652e-09	-1.682267e-08	-0.1311681	-0.009104835
3.9e+08	-0.1319286	-0.006849142	-7.823286e-10	-2.761115e-09	0.01550703	-0.001043592	-7.998433e-09	-3.489443e-08
	-7.823286e-10	-2.761115e-09	-0.131786	-0.003979284	-3.561709e-10	-1.88435e-09	0.01560189	0.0001625796
	0.01550703	-0.001043592	-3.561709e-10	-1.88435e-09	-0.1320517	-0.006254649	-3.671096e-09	-1.715773e-08
	-7.998433e-09	-3.489443e-08	0.01560189	0.0001625796	-3.671096e-09	-1.715773e-08	-0.1317556	-0.003547231
4e+08	-0.1322175	-0.001340633	-8.978644e-10	-2.787223e-09	0.01523241	-0.001624022	-1.058054e-08	-3.507721e-08
	-8.978644e-10	-2.787223e-09	-0.131951	0.001582586	-3.642653e-10	-1.940506e-09	0.01538014	-0.0003933405
	0.01523241	-0.001624022	-3.642653e-10	-1.940506e-09	-0.1323127	-0.0007398523	-4.328341e-09	-1.74435e-08
	-1.058054e-08	-3.507721e-08	0.01538014	-0.0003933405	-4.328341e-09	-1.74435e-08	-0.1319029	0.00202683
4.1e+08	-0.1320721	0.004160413	-1.013672e-09	-2.802677e-09	0.01490472	-0.002178222	-1.321271e-08	-3.503711e-08
	-1.013672e-09	-2.802677e-09	-0.1316775	0.007127017	-3.733432e-10	-1.997845e-09	0.01510708	-0.0009274251
	0.01490472	-0.002178222	-3.733432e-10	-1.997845e-09	-0.1321385	0.004765825	-4.999884e-09	-1.767775e-08
	-1.321271e-08	-3.503711e-08	0.01510708	-0.0009274251	-4.999884e-09	-1.767775e-08	-0.131611	0.007582068
4.2e+08	-0.1314952	0.009619587	-1.128544e-09	-2.807364e-09	0.01452637	-0.002701852	-1.587533e-08	-3.476667e-08
	-1.128544e-09	-2.807364e-09	-0.1309693	0.01261908	-3.835136e-10	-2.056343e-09	0.01478472	-0.001435547
	0.01452637	-0.002701852	-3.835136e-10	-2.056343e-09	-0.1315319	0.01022784	-5.680969e-09	-1.785868e-08
	-1.587533e-08	-3.476667e-08	0.01478472	-0.001435547	-5.680969e-09	-1.785868e-08	-0.1308834	0.01308345
4.3e+08	-0.1304921	0.01500285	-1.241249e-09	-2.80132e-09	0.01410008	-0.003190774	-1.854786e-08	-3.426014e-08
	-1.241249e-09	-2.80132e-09	-0.1298325	0.01802429	-3.948854e-10	-2.115968e-09	0.01441537	-0.001913748
	0.01410008	-0.003190774	-3.948854e-10	-2.115968e-09	-0.1304983	0.01561205	-6.366636e-09	-1.798497e-08
	-1.854786e-08	-3.426014e-08	0.01441537	-0.001913748	-6.366636e-09	-1.798497e-08	-0.1297264	0.01849639
4.4e+08	-0.1290706	0.02027674	-1.350557e-09	-2.784733e-09	0.01362888	-0.00364108	-2.120909e-08	-3.351357e-08
	-1.350557e-09	-2.784733e-09	-0.1282761	0.02330883	-4.075672e-10	-2.176682e-09	0.01400165	-0.002358261
	0.01362888	-0.00364108	-4.075672e-10	-2.176682e-09	-0.1290459	0.02088485	-7.051766e-09	-1.805579e-08
	-2.120909e-08	-3.351357e-08	0.01400165	-0.002358261	-7.051766e-09	-1.805579e-08	-0.1281493	0.02378698
4.5e+08	-0.1272414	0.02540853	-1.455256e-09	-2.757943e-09	0.01311611	-0.004049107	-2.383722e-08	-3.252488e-08
	-1.455256e-09	-2.757943e-09	-0.1263115	0.02843969	-4.216683e-10	-2.238445e-09	0.01354644	-0.002765528
	0.01311611	-0.004049107	-4.216683e-10	-2.238445e-09	-0.1271854	0.02601344	-7.73113e-09	-1.807078e-08
	-2.383722e-08	-3.252488e-08	0.01354644	-0.002765528	-7.73113e-09	-1.807078e-08	-0.1261636	0.02892214
4.6e+08	-0.1250175	0.03036646	-1.554171e-09	-2.721439e-09	0.01256541	-0.004411464	-2.641003e-08	-3.129395e-08
	-1.554171e-09	-2.721439e-09	-0.1239529	0.03338491	-4.372992e-10	-2.301208e-09	0.01305291	-0.003132219
	0.01256541	-0.004411464	-4.372992e-10	-2.301208e-09	-0.1249299	0.03096596	-8.399442e-09	-1.803012e-08
	-2.641003e-08	-3.129395e-08	0.01305291	-0.003132219	-8.399442e-09	-1.803012e-08	-0.1237836	0.03386986
4.7e+08	-0.1224143	0.03511988	-1.646189e-09	-2.675854e-09	0.01198066	-0.004725047	-2.890506e-08	-2.982262e-08
	-1.646189e-09	-2.675854e-09	-0.1212167	0.03811378	-4.545719e-10	-2.364914e-09	0.01252449	-0.003455254
