!$
! Info: Touchstone file created by Circ.  Input file=Tx_4in_Rx_100ohms_TxVia_10mils_RxVia_20mils.circ
!$
# Hz S RI R 50
0	0.004270978	3.142796e-26	-1.742199e-11	4.118533e-27	3.316316e-05	4.401172e-24	-2.16956e-08	2.656932e-24
	-1.740772e-11	4.117517e-27	0.004270362	4.450835e-26	1.745236e-11	9.963245e-29	3.277378e-05	6.020526e-24
	3.127351e-05	4.33922e-24	1.741699e-11	9.997362e-29	0.004285162	3.270989e-26	1.752529e-08	7.49825e-27
	-2.169633e-08	2.657022e-24	3.423163e-05	6.196566e-24	1.752582e-08	7.497077e-27	0.004275999	4.249186e-26
1e+07	0.005701862	0.003129993	4.142611e-11	-4.022138e-11	8.162514e-05	0.0008121769	-8.138711e-09	1.881129e-08
	4.142614e-11	-4.022168e-11	0.00612055	0.003051609	1.613088e-12	-7.159957e-11	0.0002235591	0.0008411902
	8.15863e-05	0.0008122017	1.613017e-12	-7.159927e-11	0.005950603	0.00303071	-1.008762e-08	1.826591e-08
	-8.138711e-09	1.881129e-08	0.0002235914	0.0008411788	-1.008762e-08	1.826591e-08	0.006073808	0.003056369
2e+07	0.00746605	0.005039042	4.986498e-11	-4.298349e-11	0.0001823867	0.001634015	-9.487435e-09	2.237003e-08
	4.986471e-11	-4.298375e-11	0.007714343	0.004757325	2.833059e-11	-1.683353e-10	0.0002632574	0.001739979
	0.0001823936	0.001634033	2.833076e-11	-1.683351e-10	0.007569489	0.004789971	-1.390404e-08	1.750807e-08
	-9.487435e-09	2.237003e-08	0.0002632546	0.001739958	-1.390404e-08	1.750807e-08	0.007682544	0.004788752
3e+07	0.008957196	0.006215329	5.904516e-11	-1.010592e-10	0.0003514171	0.002429054	-5.065168e-09	1.758547e-08
	5.904511e-11	-1.010592e-10	0.009069361	0.005876367	-2.223421e-11	-1.994947e-10	0.0003840398	0.002561161
	0.0003514145	0.002429055	-2.223409e-11	-1.994948e-10	0.008948169	0.005926791	-1.187901e-08	2.009212e-08
	-5.065168e-09	1.758547e-08	0.0003840348	0.002561158	-1.187901e-08	2.009212e-08	0.00905146	0.00592013
4e+07	0.01033135	0.007084389	6.429437e-11	-1.482146e-10	0.0005861327	0.003201631	-3.448924e-09	1.509525e-08
	6.429442e-11	-1.482146e-10	0.01032524	0.006730316	7.0057e-12	-2.482342e-10	0.0005875397	0.003346963
	0.0005861278	0.003201634	7.005741e-12	-2.482343e-10	0.01022843	0.006789664	-7.243787e-09	1.816871e-08
	-3.448924e-09	1.509525e-08	0.0005875392	0.003346964	-7.243788e-09	1.816871e-08	0.01032121	0.006780405
5e+07	0.01164044	0.007741119	8.009763e-11	-1.915525e-10	0.000883772	0.00394794	-2.371585e-09	1.51637e-08
	8.009765e-11	-1.915525e-10	0.01152874	0.007397145	-2.628625e-11	-3.102495e-10	0.0009275744	0.004085156
	0.0008837707	0.003947942	-2.628625e-11	-3.102495e-10	0.01145754	0.007460144	-3.713208e-09	1.415619e-08
	-2.371585e-09	1.51637e-08	0.0009275739	0.004085156	-3.713208e-09	1.415619e-08	0.0115373	0.007450311
6e+07	0.01290641	0.008228358	1.09861e-10	-2.367462e-10	0.00124146	0.004663586	1.841485e-09	1.723662e-08
	1.09861e-10	-2.367462e-10	0.01269988	0.007913545	-6.787081e-11	-3.489674e-10	0.00131873	0.004785777
	0.001241461	0.004663584	-6.787081e-11	-3.489674e-10	0.01265541	0.007975663	-1.461003e-09	9.950429e-09
	1.841485e-09	1.723662e-08	0.001318727	0.004785777	-1.461003e-09	9.950429e-09	0.01272045	0.007967862
7e+07	0.01413903	0.00857	1.474291e-10	-2.80157e-10	0.001662587	0.005342173	9.251958e-09	1.332266e-08
	1.474291e-10	-2.801569e-10	0.01384778	0.008300472	-1.08106e-10	-3.872724e-10	0.001758705	0.005446056
	0.001662588	0.005342168	-1.08106e-10	-3.872724e-10	0.01383098	0.008357526	-9.195642e-11	6.171821e-09
	9.251958e-09	1.332266e-08	0.0017587	0.005446059	-9.195641e-11	6.171821e-09	0.01388019	0.0083539
8e+07	0.01534206	0.008781059	1.755596e-10	-3.009713e-10	0.002138264	0.005980622	9.942131e-09	7.155085e-09
	1.755597e-10	-3.009712e-10	0.01497645	0.008571816	-1.46895e-10	-4.374655e-10	0.002244465	0.00606259
	0.002138264	0.005980617	-1.468951e-10	-4.374656e-10	0.014988	0.008619762	6.653263e-10	2.976576e-09
	9.942131e-09	7.155085e-09	0.00224446	0.006062594	6.653262e-10	2.976576e-09	0.01502016	0.008622016
9e+07	0.01651562	0.00887141	1.531654e-10	-3.364748e-10	0.002663364	0.006575782	8.486868e-09	4.413632e-09
	1.531655e-10	-3.364747e-10	0.01608745	0.008738533	-1.693217e-10	-5.00405e-10	0.00277224	0.006631459
	0.002663363	0.006575778	-1.693217e-10	-5.00405e-10	0.01612769	0.008773244	9.143199e-10	3.33316e-10
	8.486868e-09	4.413632e-09	0.002772237	0.006631463	9.143199e-10	3.33316e-10	0.01614129	0.008783111
1e+08	0.01765586	0.00884444	1.614312e-10	-4.706474e-10	0.003235269	0.007126421	7.107379e-09	3.01002e-09
	1.614312e-10	-4.706474e-10	0.01718459	0.008817022	-1.648715e-10	-5.534041e-10	0.003336175	0.007145576
	0.003235269	0.007126421	-1.648715e-10	-5.534041e-10	0.01725314	0.008833409	7.585989e-10	-1.927856e-09
	7.107379e-09	3.01002e-09	0.003336176	0.007145576	7.585989e-10	-1.927856e-09	0.01724647	0.008853034
1.1e+08	0.01874751	0.008716269	1.801334e-10	-5.338196e-10	0.003857361	0.007619449	8.058461e-09	2.669179e-09
	1.801334e-10	-5.338196e-10	0.01829449	0.008769633	-1.929673e-10	-5.924831e-10	0.003919707	0.007616901
	0.003857361	0.007619449	-1.929673e-10	-5.924831e-10	0.01838904	0.008765553	8.863945e-10	-2.208929e-09
	8.058461e-09	2.669179e-09	0.003919707	0.007616901	8.863945e-10	-2.208929e-09	0.0183608	0.008798918
1.2e+08	0.01980685	0.00850416	1.979819e-10	-6.011024e-10	0.004512108	0.00805202	9.013444e-09	2.196715e-09
	1.979819e-10	-6.011024e-10	0.01936385	0.008613592	-2.174832e-10	-6.314808e-10	0.004539115	0.008043232
	0.004512108	0.008052021	-2.174832e-10	-6.314808e-10	0.01948434	0.008587278	1.013321e-09	-2.509319e-09
	9.013444e-09	2.196715e-09	0.004539115	0.008043232	1.013321e-09	-2.509319e-09	0.01943469	0.00863702
1.3e+08	0.02083006	0.008207038	2.138951e-10	-6.711883e-10	0.005195759	0.008424606	9.956628e-09	1.59524e-09
	2.138951e-10	-6.711883e-10	0.02039469	0.008364342	-2.4232e-10	-6.676649e-10	0.005188281	0.008417275
	0.005195759	0.008424606	-2.4232e-10	-6.676649e-10	0.02054057	0.008313238	1.137905e-09	-2.830026e-09
	9.956628e-09	1.59524e-09	0.005188281	0.008417275	1.137905e-09	-2.830026e-09	0.02046975	0.008381847
1.4e+08	0.02181404	0.007827751	2.27673e-10	-7.440753e-10	0.005903481	0.008735731	1.087445e-08	8.644941e-10
	2.27673e-10	-7.440753e-10	0.02138505	0.008028434	-2.671009e-10	-7.01133e-10	0.005862166	0.008735805
	0.005903481	0.008735731	-2.671009e-10	-7.01133e-10	0.02155555	0.007949948	1.257895e-09	-3.171391e-09
	1.087445e-08	8.644941e-10	0.005862166	0.008735805	1.257895e-09	-3.171391e-09	0.02146389	0.008039838
1.5e+08	0.02275531	0.00736969	2.390377e-10	-8.196798e-10	0.006630154	0.008983987	1.175293e-08	5.621011e-12
	2.390377e-10	-8.196798e-10	0.02233198	0.007611059	-2.915085e-10	-7.319733e-10	0.006555737	0.008996567
	0.006630154	0.008983987	-2.915085e-10	-7.319733e-10	0.02252622	0.007502611	1.370912e-09	-3.533441e-09
	1.175293e-08	5.621011e-12	0.006555737	0.008996567	1.370912e-09	-3.533441e-09	0.02241416	0.007616174
1.6e+08	0.02365015	0.006836544	2.476849e-10	-8.978597e-10	0.007370487	0.009168262	1.257795e-08	-9.787883e-10
	2.476849e-10	-8.978597e-10	0.02323213	0.007116974	-3.152477e-10	-7.602871e-10	0.007263891	0.009197945
	0.007370487	0.009168262	-3.152477e-10	-7.602871e-10	0.02344903	0.006975989	1.474539e-09	-3.915919e-09
	1.257795e-08	-9.787883e-10	0.007263891	0.009197945	1.474539e-09	-3.915919e-09	0.0233172	0.007115614
1.7e+08	0.02449471	0.006232262	2.533101e-10	-9.784267e-10	0.008119075	0.009287825	1.333545e-08	-2.084662e-09
	2.533101e-10	-9.784267e-10	0.02408197	0.006550826	-3.380381e-10	-7.861962e-10	0.007981462	0.009338851
	0.008119075	0.009287825	-3.380381e-10	-7.861962e-10	0.02432027	0.006374746	1.566372e-09	-4.318294e-09
	1.333545e-08	-2.084662e-09	0.007981462	0.009338851	1.566372e-09	-4.318294e-09	0.02416947	0.006542816
1.8e+08	0.02528518	0.005561062	2.556208e-10	-1.061153e-09	0.008870449	0.009342364	1.401164e-08	-3.306448e-09
	2.556208e-10	-1.061153e-09	0.02487794	0.005917297	-3.596119e-10	-8.098453e-10	0.008703247	0.009418688
	0.008870449	0.009342364	-3.596119e-10	-8.098453e-10	0.02513613	0.005703601	1.644049e-09	-4.739776e-09
	1.401164e-08	-3.306448e-09	0.008703247	0.009418688	1.644049e-09	-4.739776e-09	0.0249674	0.005902484
1.9e+08	0.02601782	0.004827415	2.543303e-10	-1.145929e-09	0.009619118	0.009332001	1.459319e-08	-4.637135e-09
	2.543303e-10	-1.145929e-09	0.02561658	0.005221187	-3.797011e-10	-8.314717e-10	0.009424033	0.009437326
	0.009619118	0.009332001	-3.797011e-10	-8.314717e-10	0.02589291	0.004967414	1.705275e-09	-5.179475e-09
	1.459319e-08	-4.637135e-09	0.009424033	0.009437326	1.705275e-09	-5.179475e-09	0.02570751	0.005199431
2e+08	0.02668907	0.004036041	2.49161e-10	-1.232419e-09	0.01035961	0.009257306	1.506737e-08	-6.06831e-09
	2.49161e-10	-1.232419e-09	0.02629457	0.00446742	-3.98083e-10	-8.512525e-10	0.01013863	0.009395092
	0.01035961	0.009257306	-3.98083e-10	-8.512525e-10	0.02658702	0.004171206	1.747836e-09	-5.636063e-09
	1.506737e-08	-6.06831e-09	0.01013863	0.009395092	1.747836e-09	-5.636063e-09	0.02638649	0.004438612
2.1e+08	0.0272956	0.003191886	2.398941e-10	-1.320184e-09	0.01108652	0.009119297	1.542225e-08	-7.590223e-09
	2.398941e-10	-1.320184e-09	0.02690883	0.00366107	-4.145516e-10	-8.693533e-10	0.0108419	0.009292756
	0.01108652	0.009119297	-4.145516e-10	-8.693533e-10	0.02721512	0.003320185	1.769674e-09	-6.107909e-09
	1.542225e-08	-7.590223e-09	0.0108419	0.009292756	1.769674e-09	-6.107909e-09	0.02700124	0.003625124
2.2e+08	0.02783435	0.002300113	2.263409e-10	-1.408877e-09	0.01179454	0.008919435	1.564679e-08	-9.191867e-09
	2.263409e-10	-1.408877e-09	0.02745653	0.002807353	-4.289077e-10	-8.860144e-10	0.01152881	0.009131522
	0.01179454	0.008919436	-4.289077e-10	-8.860144e-10	0.0277741	0.002419743	1.768877e-09	-6.593283e-09
	1.564679e-08	-9.191867e-09	0.01152881	0.009131522	1.768877e-09	-6.593283e-09	0.02754892	0.002764216
2.3e+08	0.02830257	0.00136608	2.083451e-10	-1.498132e-09	0.01247849	0.00865962	1.573098e-08	-1.086107e-08
	2.083451e-10	-1.498132e-09	0.02793514	0.001911627	-4.409753e-10	-9.014971e-10	0.01219444	0.008913017
	0.01247849	0.00865962	-4.409753e-10	-9.014971e-10	0.02826118	0.001475448	1.743697e-09	-7.090259e-09
	1.573098e-08	-1.086107e-08	0.01219444	0.008913017	1.743697e-09	-7.090259e-09	0.02802698	0.001861284
2.4e+08	0.02869785	0.0003953059	1.857846e-10	-1.587568e-09	0.01313338	0.008342176	1.566597e-08	-1.258461e-08
	1.857846e-10	-1.587568e-09	0.02834244	0.0009793541	-4.506042e-10	-9.160826e-10	0.01283404	0.008639278
	0.01313338	0.008342176	-4.506042e-10	-9.160826e-10	0.02867391	0.00049301	1.692567e-09	-7.59673e-09
	1.566597e-08	-1.258461e-08	0.01283404	0.008639278	1.692567e-09	-7.59673e-09	0.0284332	0.0009218323
2.5e+08	0.02901813	-0.0006065412	1.585716e-10	-1.676791e-09	0.01375443	0.007969836	1.544416e-08	-1.434831e-08
	1.585716e-10	-1.676791e-09	0.02867656	1.611283e-05	-4.576724e-10	-9.300691e-10	0.01344303	0.008312733
	0.01375443	0.007969836	-4.576724e-10	-9.300691e-10	0.02901022	-0.0005217135	1.614117e-09	-8.110426e-09
	1.544416e-08	-1.434831e-08	0.01344303	0.008312733	1.614117e-09	-8.110426e-09	0.02876571	-4.851611e-05
2.6e+08	0.02926174	-0.001633682	1.266533e-10	-1.765399e-09	0.0143371	0.007545726	1.505928e-08	-1.613716e-08
	1.266533e-10	-1.765399e-09	0.02893598	-0.0009724442	-4.620875e-10	-9.437692e-10	0.01401708	0.007936185
	0.0143371	0.007545726	-4.620875e-10	-9.437692e-10	0.0292684	-0.001562769	1.507193e-09	-8.628932e-09
	1.505928e-08	-1.613716e-08	0.01401709	0.007936185	1.507193e-09	-8.628932e-09	0.029023	-0.001044066
2.7e+08	0.02942738	-0.002680245	9.001229e-11	-1.852983e-09	0.01487714	0.007073341	1.450649e-08	-1.793546e-08
	9.001229e-11	-1.852983e-09	0.02911957	-0.001980607	-4.637889e-10	-9.575068e-10	0.01455211	0.007512792
	0.01487714	0.007073341	-4.637889e-10	-9.575068e-10	0.02944715	-0.002624116	1.370859e-09	-9.149709e-09
	1.450649e-08	-1.793546e-08	0.01455211	0.007512792	1.370859e-09	-9.149709e-09	0.02920391	-0.00205906
2.8e+08	0.02951418	-0.003740295	4.866585e-11	-1.93913e-09	0.01537061	0.006556524	1.378242e-08	-1.972694e-08
	4.866585e-11	-1.93913e-09	0.02922654	-0.003002621	-4.627493e-10	-9.716146e-10	0.01504429	0.007046045
	0.01537061	0.006556524	-4.627493e-10	-9.716146e-10	0.02954559	-0.003699652	1.204419e-09	-9.67011e-09
	1.378242e-08	-1.972694e-08	0.01504429	0.007046045	1.204419e-09	-9.67011e-09	0.02930771	-0.003087692
2.9e+08	0.02952166	-0.004807864	2.666372e-12	-2.023428e-09	0.01581388	0.005999432	1.288526e-08	-2.149489e-08
	2.666371e-12	-2.023428e-09	0.02925651	-0.004032724	-4.58975e-10	-9.864299e-10	0.01549013	0.006539741
	0.01581388	0.005999432	-4.58975e-10	-9.864299e-10	0.02956325	-0.004783255	1.007419e-09	-1.018741e-08
	1.288526e-08	-2.149489e-08	0.01549013	0.006539741	1.007419e-09	-1.018741e-08	0.029334	-0.004124157
3e+08	0.02944976	-0.005876985	-4.789846e-11	-2.105462e-09	0.01620373	0.005406515	1.181477e-08	-2.322232e-08
	-4.789846e-11	-2.105462e-09	0.02920948	-0.005065168	-4.525072e-10	-1.002292e-09	0.01588647	0.005997955
	0.01620373	0.005406515	-4.525072e-10	-1.002292e-09	0.02950008	-0.005868804	7.79657e-10	-1.06988e-08
	1.181477e-08	-2.322232e-08	0.01588647	0.005997955	7.79657e-10	-1.06988e-08	0.02928282	-0.005162659
3.1e+08	0.02929882	-0.006941701	-1.029069e-10	-2.184825e-09	0.01653729	0.004782481	1.057232e-08	-2.489209e-08
	-1.029069e-10	-2.184825e-09	0.02908584	-0.006094235	-4.434223e-10	-1.019538e-09	0.01623049	0.005425017
	0.01653729	0.004782481	-4.434223e-10	-1.019538e-09	0.02935647	-0.006950203	5.211908e-10	-1.120147e-08
	1.057232e-08	-2.489209e-08	0.01623049	0.005425017	5.211908e-10	-1.120147e-08	0.02915457	-0.006197437
3.2e+08	0.02906963	-0.007996121	-1.622019e-10	-2.261111e-09	0.01681212	0.00413226	9.160913e-09	-2.648705e-08
	-1.622019e-10	-2.261111e-09	0.02888637	-0.007114278	-4.318317e-10	-1.038501e-09	0.01651976	0.004825474
	0.01681212	0.00413226	-4.318317e-10	-1.038501e-09	0.02913322	-0.008021421	2.323403e-10	-1.169254e-08
	9.160913e-09	-2.648705e-08	0.01651976	0.004825474	2.323403e-10	-1.169254e-08	0.02895008	-0.007222799
3.3e+08	0.02876336	-0.009034434	-2.255917e-10	-2.333925e-09	0.01702618	0.003460975	7.585194e-09	-2.79902e-08
	-2.255917e-10	-2.333925e-09	0.02861223	-0.008119738	-4.178811e-10	-1.059502e-09	0.01675222	0.004204064
	0.01702618	0.003460975	-4.178811e-10	-1.059502e-09	0.02883157	-0.009076519	-8.630835e-11	-1.216919e-08
	7.585194e-09	-2.79902e-08	0.01675222	0.004204064	-8.630835e-11	-1.216919e-08	0.02867053	-0.008233149
3.4e+08	0.02838162	-0.01005093	-2.928502e-10	-2.402879e-09	0.0171779	0.0027739	5.851433e-09	-2.938485e-08
	-2.928502e-10	-2.402879e-09	0.02826497	-0.009105163	-4.017504e-10	-1.082852e-09	0.01692623	0.003565678
	0.0171779	0.0027739	-4.017504e-10	-1.082852e-09	0.02845316	-0.01010967	-4.33903e-10	-1.262857e-08
	5.851433e-09	-2.938485e-08	0.01692623	0.003565678	-4.33903e-10	-1.262857e-08	0.02831751	-0.009223
3.5e+08	0.02792639	-0.01104006	-3.637164e-10	-2.4676e-09	0.01726615	0.002076427	3.967512e-09	-3.065475e-08
	-3.637164e-10	-2.4676e-09	0.0278465	-0.01006525	-3.836516e-10	-1.108847e-09	0.01704058	0.002915331
	0.01726615	0.002076427	-3.836516e-10	-1.108847e-09	0.02800006	-0.0111152	-8.093241e-10	-1.306792e-08
	3.967512e-09	-3.065475e-08	0.01704058	0.002915331	-8.093241e-10	-1.306792e-08	0.02789298	-0.01018702
3.6e+08	0.02740007	-0.01199642	-4.378913e-10	-2.527725e-09	0.01729025	0.001374026	1.942855e-09	-3.178401e-08
	-4.378913e-10	-2.527725e-09	0.02735909	-0.01099486	-3.639899e-10	-1.137761e-09	0.01709445	0.002258121
	0.01729025	0.001374026	-3.639899e-10	-1.137761e-09	0.02747472	-0.01208763	-1.21124e-09	-1.348448e-08
	1.942855e-09	-3.178401e-08	0.01709445	0.002258121	-1.21124e-09	-1.348448e-08	0.02739925	-0.01112003
3.7e+08	0.02680543	-0.01291482	-5.150474e-10	-2.582915e-09	0.01725	0.0006722025	-2.114784e-10	-3.275789e-08
	-5.150474e-10	-2.582915e-09	0.02680539	-0.01188904	-3.429081e-10	-1.169834e-09	0.01708748	0.001599196
	0.01725	0.0006722025	-3.429081e-10	-1.169834e-09	0.02687998	-0.01302164	-1.637956e-09	-1.387569e-08
	-2.114784e-10	-3.275789e-08	0.01708748	0.001599196	-1.637956e-09	-1.387569e-08	0.026839	-0.01201706
3.8e+08	0.02614559	-0.01379029	-5.948209e-10	-2.632843e-09	0.01714566	-2.353459e-05	-2.48301e-09	-3.356239e-08
	-5.948209e-10	-2.632843e-09	0.02618835	-0.01274307	-3.206737e-10	-1.205292e-09	0.01701974	0.000943718
	0.01714566	-2.35346e-05	-3.206737e-10	-1.205292e-09	0.02621906	-0.0139122	-2.087566e-09	-1.423908e-08
	-2.48301e-09	-3.356239e-08	0.01701974	0.000943718	-2.087566e-09	-1.423908e-08	0.02621526	-0.01287336
3.9e+08	0.02542404	-0.0146181	-6.768129e-10	-2.677211e-09	0.01697796	-0.0007077178	-4.857867e-09	-3.418452e-08
	-6.768129e-10	-2.677211e-09	0.02551126	-0.01355243	-2.976109e-10	-1.244337e-09	0.01689173	0.0002968258
	0.01697796	-0.0007077178	-2.976109e-10	-1.244337e-09	0.02549553	-0.0147545	-2.55793e-09	-1.457233e-08
	-4.857867e-09	-3.418452e-08	0.01689173	0.0002968258	-2.55793e-09	-1.457233e-08	0.02553137	-0.01368441
4e+08	0.02464461	-0.01539381	-7.605907e-10	-2.715744e-09	0.01674808	-0.001374958	-7.320857e-09	-3.461239e-08
	-7.605907e-10	-2.715744e-09	0.02477775	-0.0143129	-2.740665e-10	-1.287135e-09	0.01670438	-0.0003364009
	0.01674808	-0.001374958	-2.740665e-10	-1.287135e-09	0.0247133	-0.01554403	-3.046674e-09	-1.487327e-08
	-7.320857e-09	-3.461239e-08	0.01670438	-0.0003364009	-3.046674e-09	-1.487327e-08	0.02479097	-0.01444598
4.1e+08	0.02381143	-0.01611328	-8.456883e-10	-2.748195e-09	0.01645767	-0.002019985	-9.85556e-09	-3.483545e-08
	-8.456883e-10	-2.748195e-09	0.02399168	-0.01502053	-2.504065e-10	-1.333825e-09	0.01645904	-0.0009509778
	0.01645767	-0.002019985	-2.504065e-10	-1.333825e-09	0.0238766	-0.01627658	-3.5512e-09	-1.513991e-08
	-9.85556e-09	-3.483545e-08	0.01645904	-0.0009509778	-3.5512e-09	-1.513991e-08	0.02399803	-0.01515409
4.2e+08	0.02292891	-0.01677266	-9.316086e-10	-2.774354e-09	0.01610881	-0.002637682	-1.244444e-08	-3.484449e-08
	-9.316086e-10	-2.774354e-09	0.02315721	-0.01567165	-2.270132e-10	-1.384506e-09	0.01615748	-0.00154205
	0.01610881	-0.002637682	-2.270132e-10	-1.384506e-09	0.02298992	-0.01694829	-4.068707e-09	-1.537051e-08
	-1.244444e-08	-3.484449e-08	0.01615748	-0.00154205	-4.068707e-09	-1.537051e-08	0.02315673	-0.01580509
4.3e+08	0.02200174	-0.01736849	-1.017823e-09	-2.794045e-09	0.01570401	-0.003223125	-1.506895e-08	-3.463185e-08
	-1.017823e-09	-2.794045e-09	0.02227875	-0.01626295	-2.042819e-10	-1.439243e-09	0.01580187	-0.002104929
	0.01570401	-0.003223125	-2.042819e-10	-1.439243e-09	0.02205808	-0.01755563	-4.5962e-09	-1.556351e-08
	-1.506895e-08	-3.463185e-08	0.01580187	-0.002104929	-4.5962e-09	-1.556351e-08	0.02227154	-0.01639566
4.4e+08	0.02103485	-0.01789764	-1.103776e-09	-2.807133e-09	0.01524621	-0.003771619	-1.770967e-08	-3.419146e-08
	-1.103776e-09	-2.807133e-09	0.02136092	-0.01679142	-1.826173e-10	-1.498063e-09	0.01539479	-0.002635121
	0.01524621	-0.003771619	-1.826173e-10	-1.498063e-09	0.02108608	-0.01809544	-5.130511e-09	-1.571765e-08
	-1.770967e-08	-3.419146e-08	0.01539479	-0.002635121	-5.130511e-09	-1.571765e-08	0.02134714	-0.01692282
4.5e+08	0.02003339	-0.01835736	-1.188883e-09	-2.813531e-09	0.0147387	-0.004278728	-2.034646e-08	-3.351894e-08
	-1.188883e-09	-2.813531e-09	0.02040853	-0.01725442	-1.624296e-10	-1.560953e-09	0.01493915	-0.003128366
	0.0147387	-0.004278728	-1.624296e-10	-1.560953e-09	0.02007918	-0.01856498	-5.66832e-09	-1.58319e-08
	-2.034646e-08	-3.351894e-08	0.01493915	-0.003128366	-5.66832e-09	-1.58319e-08	0.0203884	-0.01738392
4.6e+08	0.01900269	-0.01874531	-1.272507e-09	-2.813209e-09	0.01418517	-0.004740314	-2.295858e-08	-3.261173e-08
	-1.272507e-09	-2.813209e-09	0.01942659	-0.01764969	-1.441325e-10	-1.627859e-09	0.01443823	-0.00358066
	0.01418517	-0.004740314	-1.441325e-10	-1.627859e-09	0.01904279	-0.01896188	-6.206148e-09	-1.590556e-08
	-2.295858e-08	-3.261173e-08	0.01443823	-0.00358066	-6.206148e-09	-1.590556e-08	0.01940037	-0.01777672
4.7e+08	0.01794821	-0.01905953	-1.357915e-09	-2.804444e-09	0.01358964	-0.00515256	-2.552436e-08	-3.146721e-08
	-1.357915e-09	-2.804444e-09	0.01842024	-0.01797531	-1.279356e-10	-1.698632e-09	0.01389565	-0.003988292
	0.01358964	-0.00515256	-1.279356e-10	-1.698632e-09	0.01798251	-0.0192842	-6.744406e-09	-1.59365e-08
