!$
! Info: Touchstone file created by Circ.  Input file=Tx_4in_Rx_93ohms_TxVia_10mils_RxVia_20mils.circ
!$
# Hz S RI R 50
0	0.003783572	3.90371e-26	2.054753e-12	1.264393e-28	3.53331e-05	4.709387e-24	-4.755132e-09	5.8228e-25
	2.056372e-12	1.26628e-28	0.00378644	4.448613e-26	-2.085596e-12	2.417248e-28	3.276148e-05	5.32852e-24
	3.538143e-05	4.712139e-24	-2.134864e-12	2.477339e-28	0.003798551	3.915603e-26	-1.30361e-09	1.596147e-25
	-4.752976e-09	5.820158e-25	3.42195e-05	5.484327e-24	-1.303656e-09	1.596203e-25	0.003792082	4.247052e-26
1e+07	0.00522965	2.031574e-05	4.226561e-13	-2.227184e-12	9.270636e-05	0.0007690304	-9.787066e-09	1.60869e-08
	4.227312e-13	-2.227454e-12	0.005535327	-1.400391e-05	-4.808103e-13	-3.477372e-12	9.37968e-05	0.0008294172
	9.271087e-05	0.0007690275	-4.808508e-13	-3.477119e-12	0.005621905	0.0002282369	-7.272447e-09	1.568514e-08
	-9.787066e-09	1.60869e-08	9.382903e-05	0.0008294058	-7.272447e-09	1.568514e-08	0.005438996	-2.227324e-05
2e+07	0.006443274	-0.001149105	1.797985e-12	-3.275585e-12	0.0002167108	0.001560439	-7.904291e-09	1.320185e-08
	1.79784e-12	-3.275759e-12	0.006647359	-0.001319614	2.162338e-12	-4.576317e-12	0.0001699525	0.001668673
	0.0002167101	0.001560436	2.162449e-12	-4.576124e-12	0.006956092	-0.000946904	-9.07294e-09	1.17327e-08
	-7.904291e-09	1.320185e-08	0.0001699495	0.001668652	-9.07294e-09	1.17327e-08	0.006572855	-0.001295592
3e+07	0.007181237	-0.002892089	1.15992e-12	-5.13953e-12	0.0004026716	0.002337016	-5.942994e-09	1.173916e-08
	1.159879e-12	-5.13952e-12	0.007299769	-0.003106358	-3.721031e-13	-7.711222e-12	0.0003422812	0.002465178
	0.0004026716	0.002337016	-3.720603e-13	-7.711231e-12	0.007786195	-0.002715403	-6.194054e-09	1.224791e-08
	-5.942994e-09	1.173916e-08	0.0003422761	0.002465176	-6.194054e-09	1.224791e-08	0.007242634	-0.003075295
4e+07	0.007588864	-0.00484113	3.297971e-13	-6.711298e-12	0.0006511324	0.003094488	-4.517287e-09	1.086047e-08
	3.298308e-13	-6.711287e-12	0.007628539	-0.005072956	-1.787471e-12	-9.578326e-12	0.0005982865	0.003231622
	0.0006511331	0.003094488	-1.787508e-12	-9.578337e-12	0.008268509	-0.004707203	-4.118608e-09	1.200717e-08
	-4.517287e-09	1.086047e-08	0.0005982861	0.003231623	-4.118608e-09	1.200717e-08	0.007586327	-0.005043133
5e+07	0.007719526	-0.006897687	-1.176229e-13	-8.923582e-12	0.0009605342	0.003827341	-3.545355e-09	1.062021e-08
	-1.17604e-13	-8.923583e-12	0.007684244	-0.00713068	-2.533906e-12	-1.216121e-11	0.000911381	0.003968632
	0.0009605352	0.00382734	-2.533927e-12	-1.216121e-11	0.008460145	-0.006819652	-3.346073e-09	1.214682e-08
	-3.545355e-09	1.062021e-08	0.0009113805	0.003968633	-3.346073e-09	1.214682e-08	0.007653604	-0.007106239
6e+07	0.00760076	-0.009007667	-8.744182e-13	-1.492958e-11	0.001328646	0.004530507	-2.751419e-09	1.153412e-08
	-8.744371e-13	-1.492955e-11	0.007493438	-0.009228931	1.783684e-13	-1.791488e-11	0.001279556	0.004672845
	0.001328647	0.004530506	1.783955e-13	-1.791491e-11	0.008390136	-0.008996289	-5.084852e-09	1.335979e-08
	-2.751419e-09	1.153412e-08	0.001279553	0.004672846	-5.084852e-09	1.335979e-08	0.007471939	-0.009212113
7e+07	0.007250447	-0.01113363	-1.188136e-11	-3.761424e-11	0.001752813	0.005199282	-6.734183e-10	1.66144e-08
	-1.188141e-11	-3.761412e-11	0.007073834	-0.01133171	2.511706e-11	7.749615e-12	0.001700209	0.005340403
	0.001752814	0.005199281	2.511719e-11	7.74959e-12	0.00807686	-0.01119838	-1.492017e-08	8.705009e-09
	-6.734174e-10	1.66144e-08	0.001700204	0.005340405	-1.492017e-08	8.705009e-09	0.007059568	-0.01132455
8e+07	0.006682395	-0.01324629	-5.668527e-10	2.617291e-10	0.002230037	0.005829435	3.416781e-08	-1.070531e-08
	-5.668524e-10	2.617291e-10	0.006439599	-0.0134101	-3.655534e-11	-6.72202e-12	0.002170232	0.005967368
	0.002230038	0.005829435	-3.655528e-11	-6.72199e-12	0.00753392	-0.01339636	-6.334808e-09	-2.675316e-09
	3.416781e-08	-1.070531e-08	0.002170227	0.005967372	-6.334807e-09	-2.675316e-09	0.006430411	-0.01341472
9e+07	0.005908811	-0.01532078	-1.230742e-13	-8.221473e-11	0.002757191	0.006417649	1.605265e-09	-3.155649e-09
	-1.230049e-13	-8.221476e-11	0.005603936	-0.01543839	-1.902609e-11	-2.217988e-11	0.002686071	0.006549915
	0.002757192	0.006417649	-1.90261e-11	-2.217988e-11	0.006772281	-0.01556699	-1.372363e-09	-1.047734e-09
	1.605266e-09	-3.155649e-09	0.002686068	0.006549918	-1.372363e-09	-1.047734e-09	0.005597084	-0.01545691
1e+08	0.004942791	-0.01733242	-1.406244e-11	-1.856343e-11	0.003332747	0.006965601	-8.45062e-12	-3.802071e-12
	-1.406244e-11	-1.856343e-11	0.004584211	-0.01738442	-1.467113e-11	-2.419353e-11	0.003243805	0.007084313
	0.003332747	0.006965601	-1.467113e-11	-2.419353e-11	0.005797787	-0.01769916	-1.665573e-11	-1.660693e-11
	-8.45062e-12	-3.802071e-12	0.003243805	0.007084312	-1.665573e-11	-1.660693e-11	0.004575836	-0.01741998
1.1e+08	0.003808387	-0.01928503	-1.677863e-11	-1.779227e-11	0.003928004	0.007469287	-9.770387e-12	-3.044709e-12
	-1.677863e-11	-1.779227e-11	0.003427829	-0.01928022	-1.685361e-11	-2.474451e-11	0.003838103	0.007567397
	0.003928004	0.007469287	-1.685361e-11	-2.474451e-11	0.00459154	-0.01974216	-1.973161e-11	-1.545405e-11
	-9.770387e-12	-3.044709e-12	0.003838103	0.007567397	-1.973161e-11	-1.545405e-11	0.003410642	-0.01932873
1.2e+08	0.002493765	-0.02114948	-1.864355e-11	-1.771681e-11	0.004556057	0.007907758	-1.096697e-11	-2.246062e-12
	-1.864355e-11	-1.771681e-11	0.002086243	-0.02109786	-1.864202e-11	-2.544555e-11	0.004465686	0.00799729
	0.004556057	0.007907758	-1.864202e-11	-2.544555e-11	0.003212125	-0.02166727	-2.200809e-11	-1.490512e-11
	-1.096697e-11	-2.246062e-12	0.004465686	0.00799729	-2.200809e-11	-1.490512e-11	0.002059996	-0.02115602
1.3e+08	0.001014023	-0.02290662	-1.98644e-11	-1.831799e-11	0.005214105	0.008284708	-1.191146e-11	-1.746762e-12
	-1.98644e-11	-1.831799e-11	0.0005778211	-0.022809	-1.994064e-11	-2.64027e-11	0.005121856	0.008371164
	0.005214105	0.008284708	-1.994064e-11	-2.64027e-11	0.001669162	-0.0234719	-2.374648e-11	-1.485894e-11
	-1.191146e-11	-1.746762e-12	0.005121856	0.008371164	-2.374648e-11	-1.485894e-11	0.0005417111	-0.02287515
1.4e+08	-0.0006171037	-0.0245423	-2.112782e-11	-1.873203e-11	0.005897229	0.008599322	-1.286489e-11	-1.136698e-12
	-2.112782e-11	-1.873203e-11	-0.001082796	-0.02439736	-2.123769e-11	-2.717366e-11	0.005801663	0.008686809
	0.005897229	0.008599322	-2.123769e-11	-2.717366e-11	-2.441519e-05	-0.02514549	-2.552306e-11	-1.454484e-11
	-1.286489e-11	-1.136698e-12	0.005801663	0.00868681	-2.552306e-11	-1.454484e-11	-0.00112958	-0.02447005
1.5e+08	-0.002385964	-0.02604428	-2.241749e-11	-1.895752e-11	0.006600133	0.008850485	-1.382557e-11	-3.891921e-13
	-2.241749e-11	-1.895752e-11	-0.002881319	-0.02584965	-2.253003e-11	-2.775399e-11	0.006499986	0.008942501
	0.006600133	0.008850485	-2.253003e-11	-2.775399e-11	-0.001855095	-0.02667749	-2.727727e-11	-1.399717e-11
	-1.382557e-11	-3.891921e-13	0.006499986	0.008942501	-2.727727e-11	-1.399717e-11	-0.002939505	-0.0259275
1.6e+08	-0.004278731	-0.02740181	-2.370978e-11	-1.900291e-11	0.007317325	0.009037257	-1.477494e-11	4.910963e-13
	-2.370978e-11	-1.900291e-11	-0.004803348	-0.0271545	-2.379341e-11	-2.815212e-11	0.007211586	0.009136983
	0.007317325	0.009037257	-2.379341e-11	-2.815212e-11	-0.003808971	-0.02805819	-2.900891e-11	-1.320191e-11
	-1.477494e-11	4.910963e-13	0.007211586	0.009136983	-2.900891e-11	-1.320191e-11	-0.004873544	-0.02723612
1.7e+08	-0.006281307	-0.02860547	-2.498454e-11	-1.887449e-11	0.008043202	0.009159039	-1.56983e-11	1.500069e-12
	-2.498454e-11	-1.887449e-11	-0.00683423	-0.02830213	-2.500756e-11	-2.837671e-11	0.007931144	0.009269464
	0.008043202	0.009159039	-2.500756e-11	-2.837671e-11	-0.005871792	-0.0292789	-3.068971e-11	-1.216835e-11
	-1.56983e-11	1.500069e-12	0.007931144	0.009269464	-3.068971e-11	-1.216835e-11	-0.00691692	-0.02838613
1.8e+08	-0.0083793	-0.02964713	-2.622347e-11	-1.8578e-11	0.008772105	0.00921564	-1.65819e-11	2.633392e-12
	-2.622347e-11	-1.8578e-11	-0.008959016	-0.02928421	-2.615394e-11	-2.843681e-11	0.008653305	0.009339617
	0.008772105	0.00921564	-2.615394e-11	-2.843681e-11	-0.008028969	-0.03033204	-3.229362e-11	-1.090603e-11
	-1.65819e-11	2.633392e-12	0.008653305	0.009339617	-3.229362e-11	-1.090603e-11	-0.009054548	-0.0293692
1.9e+08	-0.01055802	-0.03051991	-2.740939e-11	-1.81195e-11	0.009498336	0.009207339	-1.741272e-11	3.886093e-12
	-2.740939e-11	-1.81195e-11	-0.01116247	-0.03009377	-2.721529e-11	-2.834244e-11	0.009372717	0.009347577
	0.009498336	0.009207339	-2.721529e-11	-2.834244e-11	-0.01026562	-0.03121118	-3.379616e-11	-9.425629e-12
	-1.741272e-11	3.886093e-12	0.009372717	0.009347577	-3.379616e-11	-9.425629e-12	-0.01127106	-0.03017837
2e+08	-0.01280286	-0.03121837	-2.852474e-11	-1.750527e-11	0.01023176	0.009119386	-1.81776e-11	5.252488e-12
	-2.852474e-11	-1.750527e-11	-0.0134291	-0.03072525	-2.81743e-11	-2.810419e-11	0.01008407	0.009293935
	0.01023176	0.009119386	-2.81743e-11	-2.810419e-11	-0.01256695	-0.03191126	-3.517369e-11	-7.739216e-12
	-1.81776e-11	5.252488e-12	0.01008407	0.009293935	-3.517369e-11	-7.739216e-12	-0.01355085	-0.03080807
2.1e+08	-0.01509839	-0.03173797	-2.955499e-11	-1.674358e-11	0.0109504	0.008966993	-1.886556e-11	6.725779e-12
	-2.955499e-11	-1.674358e-11	-0.01574324	-0.0311744	-2.901708e-11	-2.773507e-11	0.01078214	0.009179731
	0.0109504	0.008966993	-2.901708e-11	-2.773507e-11	-0.01491735	-0.0324281	-3.640482e-11	-5.860709e-12
	-1.886556e-11	6.725779e-12	0.01078214	0.009179731	-3.640482e-11	-5.860709e-12	-0.01587812	-0.03125409
2.2e+08	-0.01742931	-0.03207559	-3.048536e-11	-1.584327e-11	0.0116479	0.008752825	-1.946541e-11	8.298345e-12
	-3.048536e-11	-1.584327e-11	-0.01808912	-0.03143834	-2.973006e-11	-2.724876e-11	0.0114618	0.009006445
	0.0116479	0.008752825	-2.973006e-11	-2.724876e-11	-0.01730134	-0.03275889	-3.746918e-11	-3.805641e-12
	-1.946541e-11	8.298345e-12	0.0114618	0.009006445	-3.746918e-11	-3.805641e-12	-0.01823697	-0.03151356
2.3e+08	-0.01978029	-0.0322294	-3.130178e-11	-1.48142e-11	0.01231906	0.008479078	-1.996678e-11	9.961743e-12
	-3.130178e-11	-1.48142e-11	-0.02045093	-0.0315155	-3.030091e-11	-2.666011e-11	0.01211812	0.008775986
	0.01231906	0.008479078	-3.030091e-11	-2.666011e-11	-0.01970342	-0.03290207	-3.834786e-11	-1.591205e-12
	-1.996678e-11	9.961743e-12	0.01211812	0.008775986	-3.834786e-11	-1.591205e-12	-0.02061149	-0.03158494
2.4e+08	-0.02213602	-0.03219882	-3.199108e-11	-1.366743e-11	0.01295889	0.008148374	-2.036012e-11	1.170664e-11
	-3.199108e-11	-1.366743e-11	-0.02281295	-0.03140566	-3.07188e-11	-2.598515e-11	0.01274632	0.00849067
	0.01295889	0.008148374	-3.07188e-11	-2.598515e-11	-0.02210815	-0.03285734	-3.902365e-11	7.636782e-13
	-2.036012e-11	1.170664e-11	0.01274632	0.00849067	-3.902365e-11	7.636782e-13	-0.02298583	-0.03146805
2.5e+08	-0.0244813	-0.03198451	-3.254106e-11	-1.241507e-11	0.01356265	0.007763745	-2.063675e-11	1.352291e-11
	-3.254106e-11	-1.241507e-11	-0.0251596	-0.03110986	-3.097447e-11	-2.524085e-11	0.01334186	0.008153207
	0.01356265	0.007763745	-3.097447e-11	-2.524085e-11	-0.02450018	-0.03262562	-3.948113e-11	3.238597e-12
	-2.063675e-11	1.352291e-11	0.01334186	0.008153207	-3.948113e-11	3.238597e-12	-0.0253443	-0.03116397
2.6e+08	-0.02680116	-0.03158833	-3.293632e-11	-1.107244e-11	0.0141259	0.007328609	-2.078891e-11	1.539964e-11
	-3.293632e-11	-1.107244e-11	-0.02747556	-0.03063043	-3.105997e-11	-2.44572e-11	0.01390046	0.007766675
	0.0141259	0.007328609	-3.105997e-11	-2.44572e-11	-0.0268644	-0.03220904	-3.970649e-11	5.811661e-12
	-2.078891e-11	1.539964e-11	0.01390046	0.007766675	-3.970649e-11	5.811661e-12	-0.02767146	-0.0306751
2.7e+08	-0.0290809	-0.03101338	-3.317047e-11	-9.652894e-12	0.01464447	0.006846746	-2.080984e-11	1.732532e-11
	-3.317047e-11	-9.652894e-12	-0.02974583	-0.02997094	-3.097108e-11	-2.364433e-11	0.01441812	0.0073345
	0.01464447	0.006846746	-3.097108e-11	-2.364433e-11	-0.029186	-0.03161092	-3.968857e-11	8.459767e-12
	-2.080984e-11	1.732532e-11	0.01441812	0.0073345	-3.968857e-11	8.459767e-12	-0.02995223	-0.03000505
2.8e+08	-0.03130619	-0.03026388	-3.323568e-11	-8.17132e-12	0.01511458	0.006322269	-2.069384e-11	1.928782e-11
	-3.323568e-11	-8.17132e-12	-0.03195585	-0.02913615	-3.070427e-11	-2.281945e-11	0.01489116	0.006860425
	0.01511458	0.006322269	-3.070427e-11	-2.281945e-11	-0.03145054	-0.03083574	-3.941823e-11	1.115871e-11
	-2.069384e-11	1.928782e-11	0.01489116	0.006860425	-3.941823e-11	1.115871e-11	-0.03217194	-0.02915865
2.9e+08	-0.03346321	-0.02934519	-3.312475e-11	-6.643696e-12	0.01553279	0.005759589	-2.043628e-11	2.127448e-11
	-3.312475e-11	-6.643696e-12	-0.0340916	-0.02813197	-3.02577e-11	-2.200206e-11	0.01531623	0.006348486
	0.01553279	0.005759589	-3.02577e-11	-2.200206e-11	-0.03364409	-0.0298891	-3.888856e-11	1.388338e-11
	-2.043628e-11	2.127448e-11	0.01531623	0.006348486	-3.888856e-11	1.388338e-11	-0.03431647	-0.0281419
3e+08	-0.03553862	-0.02826375	-3.283189e-11	-5.08669e-12	0.01589608	0.005163389	-2.003368e-11	2.327223e-11
	-3.283189e-11	-5.08669e-12	-0.03613963	-0.02696542	-2.96315e-11	-2.121183e-11	0.01569034	0.005802977
	0.01589608	0.005163389	-2.96315e-11	-2.121183e-11	-0.03575324	-0.02877767	-3.8095e-11	1.660799e-11
	-2.003368e-11	2.327223e-11	0.01569034	0.005802977	-3.8095e-11	1.660799e-11	-0.03637231	-0.0269619
3.1e+08	-0.03751976	-0.02702701	-3.235292e-11	-3.517552e-12	0.01620182	0.004538581	-1.948376e-11	2.526769e-11
	-3.235292e-11	-3.517552e-12	-0.0380872	-0.02564455	-2.882777e-11	-2.046848e-11	0.01601089	0.005228422
	0.01620182	0.004538581	-2.882777e-11	-2.046848e-11	-0.03776524	-0.02750915	-3.703551e-11	1.930625e-11
	-1.948376e-11	2.526769e-11	0.01601089	0.005228422	-3.703551e-11	1.930625e-11	-0.03832661	-0.0256268
3.2e+08	-0.03939462	-0.02564339	-3.168519e-11	-1.953975e-12	0.01644782	0.003890278	-1.87854e-11	2.724726e-11
	-3.168519e-11	-1.953975e-12	-0.03992231	-0.0241784	-2.785058e-11	-1.979155e-11	0.01627567	0.004629541
	0.01644782	0.003890278	-2.785058e-11	-1.979155e-11	-0.03966803	-0.02609221	-3.571053e-11	2.195161e-11
	-1.87854e-11	2.724726e-11	0.01627567	0.004629541	-3.571053e-11	2.195161e-11	-0.04016732	-0.02414573
3.3e+08	-0.04115199	-0.02412223	-3.082767e-11	-4.139514e-13	0.01663234	0.00322375	-1.793872e-11	2.919718e-11
	-3.082767e-11	-4.139514e-13	-0.04163378	-0.02257693	-2.670594e-11	-1.92002e-11	0.01648287	0.004011212
	0.01663234	0.00322375	-2.670594e-11	-1.92002e-11	-0.04145035	-0.02453642	-3.4123e-11	2.45175e-11
	-1.793872e-11	2.919718e-11	0.01648287	0.004011212	-3.4123e-11	2.45175e-11	-0.04188319	-0.02252874
3.4e+08	-0.04278146	-0.02247368	-2.978107e-11	1.084389e-12	0.0167541	0.002544388	-1.694507e-11	3.110372e-11
	-2.978107e-11	1.084389e-12	-0.04321134	-0.0208509	-2.540183e-11	-1.871306e-11	0.01663112	0.003378439
	0.0167541	0.002544388	-2.540183e-11	-1.871306e-11	-0.04310177	-0.02285218	-3.227847e-11	2.697755e-11
	-1.694507e-11	3.110372e-11	0.01663112	0.003378439	-3.227847e-11	2.697755e-11	-0.04346391	-0.02078672
3.5e+08	-0.04427353	-0.02070867	-2.854775e-11	2.522914e-12	0.01681228	0.001857666	-1.580703e-11	3.295321e-11
	-2.854775e-11	2.522914e-12	-0.04464566	-0.01901185	-2.39481e-11	-1.834802e-11	0.01671947	0.002736318
	0.01681228	0.001857666	-2.39481e-11	-1.834802e-11	-0.04461275	-0.02105066	-3.018502e-11	2.930581e-11
	-1.580703e-11	3.295321e-11	0.01671947	0.002736318	-3.018502e-11	2.930581e-11	-0.04490008	-0.01893132
3.6e+08	-0.04561961	-0.01883883	-2.713182e-11	3.883678e-12	0.01680653	0.001169101	-1.452841e-11	3.473218e-11
	-2.713182e-11	3.883678e-12	-0.0459284	-0.01707201	-2.235643e-11	-1.812207e-11	0.01674739	0.002089996
	0.01680653	0.001169101	-2.235643e-11	-1.812207e-11	-0.04597472	-0.01914371	-2.785323e-11	3.147706e-11
	-1.452841e-11	3.473218e-11	0.01674739	0.002089996	-2.785323e-11	3.147706e-11	-0.04618335	-0.01697488
3.7e+08	-0.04681212	-0.01687639	-2.553905e-11	5.149062e-12	0.01673696	0.0004842098	-1.311423e-11	3.642746e-11
	-2.553905e-11	5.149062e-12	-0.04705227	-0.01504419	-2.064027e-11	-1.805106e-11	0.01671481	0.001444639
	0.01673696	0.0004842099	-2.064027e-11	-1.805106e-11	-0.04718011	-0.0171438	-2.529613e-11	3.346695e-11
	-1.311423e-11	3.642746e-11	0.01671481	0.001444639	-2.529613e-11	3.346695e-11	-0.0473064	-0.01493034
3.8e+08	-0.04784449	-0.0148341	-2.377689e-11	6.301948e-12	0.01660416	-0.0001915227	-1.157068e-11	3.802628e-11
	-2.377689e-11	6.301948e-12	-0.04801107	-0.01294169	-1.881467e-11	-1.814961e-11	0.01662207	0.0008053939
	0.01660416	-0.0001915227	-1.881467e-11	-1.814961e-11	-0.04822238	-0.01506393	-2.252914e-11	3.525231e-11
	-1.157068e-11	3.802628e-11	0.01662207	0.0008053939	-2.252914e-11	3.525231e-11	-0.04826302	-0.01281112
3.9e+08	-0.04871122	-0.01272517	-2.185439e-11	7.325873e-12	0.01640919	-0.0008526886	-9.905125e-12	3.951639e-11
	-2.185439e-11	7.325873e-12	-0.04879971	-0.01077826	-1.689626e-11	-1.843089e-11	0.01646996	0.0001773533
	0.01640919	-0.0008526886	-1.689626e-11	-1.843089e-11	-0.04909607	-0.01291752	-1.956991e-11	3.681136e-11
	-9.905125e-12	3.951639e-11	0.01646996	0.0001773533	-1.956991e-11	3.681136e-11	-0.04904812	-0.0106311
4e+08	-0.04940787	-0.01056317	-1.978217e-11	8.205176e-12	0.01615353	-0.001493992	-8.126024e-12	4.088611e-11
	-1.978217e-11	8.205176e-12	-0.04941423	-0.008567957	-1.490303e-11	-1.890647e-11	0.01625968	-0.0004344794
	0.01615353	-0.001493992	-1.490303e-11	-1.890647e-11	-0.04979681	-0.01071837	-1.643826e-11	3.812388e-11
	-8.126024e-12	4.088611e-11	0.01625968	-0.0004344794	-1.643826e-11	3.812388e-11	-0.04965774	-0.008404436
4.1e+08	-0.04993113	-0.008361944	-1.757234e-11	8.925174e-12	0.01583915	-0.002110288	-6.24291e-12	4.212448e-11
	-1.757234e-11	8.925174e-12	-0.04985184	-0.006325062	-1.285425e-11	-1.958619e-11	0.01599284	-0.001025225
	0.01583915	-0.002110288	-1.285425e-11	-1.958619e-11	-0.05032137	-0.008480529	-1.315602e-11	3.917148e-11
	-6.24291e-12	4.212448e-11	0.01599284	-0.001025225	-1.315602e-11	3.917148e-11	-0.05008912	-0.006145558
4.2e+08	-0.05027882	-0.006135516	-1.523839e-11	9.472288e-12	0.0154684	-0.002696617	-4.266314e-12	4.322136e-11
	-1.523839e-11	9.472288e-12	-0.0501109	-0.004064015	-1.077031e-11	-2.047805e-11	0.01567148	-0.00159016
	0.0154684	-0.002696617	-1.077031e-11	-2.047805e-11	-0.05066763	-0.006218227	-9.746834e-12	3.993779e-11
	-4.266314e-12	4.322136e-11	0.01567148	-0.00159016	-9.746834e-12	3.993779e-11	-0.05034065	-0.003869017
4.3e+08	-0.05044984	-0.00389801	-1.27951e-11	9.834178e-12	0.01504407	-0.003248238	-2.207705e-12	4.416746e-11
	-1.27951e-11	9.834178e-12	-0.05019095	-0.001799292	-8.672504e-12	-2.158804e-11	0.01529799	-0.002124751
	0.01504407	-0.003248238	-8.672504e-12	-2.158804e-11	-0.05083465	-0.003945786	-6.236009e-12	4.040859e-11
	-2.207705e-12	4.416746e-11	0.01529799	-0.002124751	-6.236009e-12	4.040859e-11	-0.05041192	-0.001589408
4.4e+08	-0.05044427	-0.001663559	-1.025838e-11	9.999843e-12	0.01456932	-0.003760667	-7.941082e-14	4.495447e-11
	-1.025838e-11	9.999843e-12	-0.05009271	0.0004546698	-6.582853e-12	-2.292006e-11	0.01487514	-0.002624684
	0.01456932	-0.003760667	-6.582853e-12	-2.292006e-11	-0.05082258	-0.001677527	-2.650282e-12	4.057202e-11
	-7.941082e-14	4.495447e-11	0.01487514	-0.002624684	-2.650282e-12	4.057202e-11	-0.05030369	0.0006787192
4.5e+08	-0.05026328	0.0005537818	-7.645203e-12	9.959754e-12	0.01404771	-0.004229701	2.10546e-12	4.557512e-11
	-7.645203e-12	9.959754e-12	-0.04981803	0.002683573	-4.523942e-12	-2.447586e-11	0.01440607	-0.003085895
	0.01404771	-0.004229701	-4.523942e-12	-2.447586e-11	-0.05063274	0.0005723219	9.823955e-13	4.04187e-11
	2.10546e-12	4.557512e-11	0.01440607	-0.003085895	9.823955e-13	4.04187e-11	-0.05001788	0.002920958
4.6e+08	-0.04990917	0.002740127	-4.973458e-12	9.705869e-12	0.01348311	-0.004651456	4.332668e-12	4.602281e-11
	-4.973458e-12	9.705869e-12	-0.04936991	0.004873348	-2.515339e-12	-2.62547e-11	0.01389422	-0.003504595
	0.01348311	-0.004651456	-2.515339e-12	-2.62547e-11	-0.05026757	0.002789716	4.629366e-12	3.993727e-11
	4.332668e-12	4.602281e-11	0.01389422	-0.003504595	4.629366e-12	3.993727e-11	-0.04955758	0.005123155
4.7e+08	-0.0493853	0.004881839	-2.261964e-12	9.231766e-12	0.01287972	-0.005022383	6.588061e-12	4.629296e-11
