!$
! Info: Touchstone file created by Circ.  Input file=Tx_4in_Rx_93ohms_TxVia_10mils_RxVia_20mils.circ
!$
# Hz S RI R 50
0	0.00378576	3.303927e-26	1.116412e-10	7.623647e-29	3.467706e-05	3.981951e-24	-5.091627e-09	6.237744e-25
	1.116532e-10	7.642977e-29	0.00378644	4.448613e-26	5.501153e-10	2.531334e-27	3.276148e-05	5.32852e-24
	3.337544e-05	3.879911e-24	5.500533e-10	2.538561e-27	0.003801168	3.462935e-26	-9.238284e-09	1.145301e-24
	-5.090736e-09	6.236653e-25	3.42195e-05	5.484327e-24	-9.238481e-09	1.145325e-24	0.003792082	4.247052e-26
1e+07	0.0054248	-1.103325e-05	5.107054e-11	-1.870291e-11	9.528387e-05	0.0008324812	-8.7906e-09	1.641293e-08
	5.107058e-11	-1.870321e-11	0.005535327	-1.400391e-05	6.895974e-10	1.097761e-09	9.37968e-05	0.0008294172
	9.523996e-05	0.0008324846	6.895973e-10	1.097761e-09	0.005552152	-1.609917e-05	-1.01639e-08	1.6043e-08
	-8.7906e-09	1.641293e-08	9.382903e-05	0.0008294058	-1.01639e-08	1.6043e-08	0.005438996	-2.227324e-05
2e+07	0.006567286	-0.001272987	4.819461e-11	-1.990078e-11	0.0001738119	0.001673899	-8.592999e-09	1.253765e-08
	4.819443e-11	-1.990091e-11	0.006647359	-0.001319614	8.791682e-10	1.9368e-09	0.0001699525	0.001668673
	0.0001738021	0.001673927	8.791684e-10	1.9368e-09	0.006669724	-0.001324894	-1.027545e-08	1.273875e-08
	-8.592999e-09	1.253765e-08	0.0001699495	0.001668652	-1.027545e-08	1.273875e-08	0.006572855	-0.001295592
3e+07	0.007249192	-0.003044539	6.824937e-11	-4.350241e-11	0.0003573024	0.002470202	-6.14181e-09	1.210735e-08
	6.824933e-11	-4.350237e-11	0.007299769	-0.003106358	9.809758e-10	2.723235e-09	0.0003422812	0.002465178
	0.0003573031	0.002470206	9.809758e-10	2.723235e-09	0.007331199	-0.003115757	-7.496017e-09	1.2936e-08
	-6.14181e-09	1.210735e-08	0.0003422761	0.002465176	-7.496017e-09	1.2936e-08	0.007242634	-0.003075295
4e+07	0.007608856	-0.005004346	7.78952e-11	-7.175202e-11	0.0006231257	0.003235388	-4.082901e-09	1.148708e-08
	7.789519e-11	-7.175205e-11	0.007628539	-0.005072956	1.051361e-09	3.512444e-09	0.0005982865	0.003231622
	0.0006231217	0.003235385	1.051361e-09	3.512444e-09	0.007672422	-0.005088045	-5.194092e-09	1.256415e-08
	-4.0829e-09	1.148708e-08	0.0005982861	0.003231623	-5.194093e-09	1.256415e-08	0.007586327	-0.005043133
5e+07	0.007697411	-0.007061157	8.650804e-11	-9.326691e-11	0.0009480329	0.003969595	-2.839927e-09	1.093709e-08
	8.6508e-11	-9.326692e-11	0.007684244	-0.00713068	1.113685e-09	4.292933e-09	0.000911381	0.003968632
	0.0009480312	0.003969594	1.113685e-09	4.292933e-09	0.007743659	-0.007153557	-3.866011e-09	1.207928e-08
	-2.839927e-09	1.093709e-08	0.0009113805	0.003968633	-3.866011e-09	1.207928e-08	0.007653604	-0.007106239
6e+07	0.007541462	-0.009163705	1.057277e-10	-9.90111e-11	0.001329838	0.004669252	-2.584147e-09	1.076041e-08
	1.057277e-10	-9.901108e-11	0.007493438	-0.009228931	1.182001e-09	5.053129e-09	0.001279556	0.004672845
	0.001329843	0.00466925	1.182001e-09	5.053129e-09	0.007571091	-0.009262092	-3.663259e-09	1.17433e-08
	-2.584147e-09	1.076041e-08	0.001279553	0.004672846	-3.663259e-09	1.17433e-08	0.007471939	-0.009212113
7e+07	0.007158532	-0.01127588	1.721325e-10	-6.846992e-12	0.001765744	0.005330316	-4.340142e-09	1.093324e-08
	1.721328e-10	-6.847074e-12	0.007073834	-0.01133171	1.315858e-09	5.800069e-09	0.001700209	0.005340403
	0.001765754	0.005330309	1.315858e-09	5.800069e-09	0.007172047	-0.01137796	-5.219037e-09	1.117461e-08
	-4.340142e-09	1.093324e-08	0.001700204	0.005340405	-5.219037e-09	1.117461e-08	0.007059568	-0.01132455
8e+07	0.006562451	-0.01336889	8.154395e-10	-1.333059e-09	0.002252442	0.005948661	-9.845679e-09	6.134715e-09
	8.154399e-10	-1.33306e-09	0.006439599	-0.0134101	1.428512e-09	6.821574e-09	0.002170232	0.005967368
	0.002252453	0.00594865	1.428512e-09	6.821574e-09	0.006560315	-0.01347248	-8.65638e-09	7.17963e-09
	-9.845679e-09	6.134715e-09	0.002170227	0.005967372	-8.65638e-09	7.17963e-09	0.006430411	-0.01341472
9e+07	0.005765918	-0.01541742	2.071986e-10	-2.421178e-10	0.002786154	0.006520253	-3.858009e-09	-1.204063e-09
	2.071989e-10	-2.421183e-10	0.005603936	-0.01543839	1.221465e-09	7.565507e-09	0.002686071	0.006549915
	0.00278616	0.006520244	1.221465e-09	7.565507e-09	0.005748722	-0.01552015	-4.847532e-09	3.600385e-10
	-3.858009e-09	-1.204063e-09	0.002686068	0.006549918	-4.847532e-09	3.600385e-10	0.005597084	-0.01545691
1e+08	0.004785024	-0.01739116	1.278939e-10	-2.243864e-10	0.003362629	0.007040995	-1.745177e-10	-2.292671e-10
	1.278939e-10	-2.243864e-10	0.004584211	-0.01738442	1.1877e-09	8.183541e-09	0.003243805	0.007084313
	0.003362629	0.007040996	1.1877e-09	8.183541e-09	0.004754251	-0.01748897	-5.773851e-10	5.301477e-10
	-1.745177e-10	-2.292671e-10	0.003243805	0.007084312	-5.773851e-10	5.301477e-10	0.004575836	-0.01741998
1.1e+08	0.003662277	-0.0193169	1.351035e-10	-2.541827e-10	0.003976083	0.007508707	-2.17856e-10	-2.290084e-10
	1.351035e-10	-2.541827e-10	0.003427829	-0.01928022	1.165785e-09	8.978344e-09	0.003838103	0.007567397
	0.003976083	0.007508707	1.165785e-09	8.978344e-09	0.003625661	-0.01941186	-6.93425e-10	6.518002e-10
	-2.17856e-10	-2.290084e-10	0.003838103	0.007567397	-6.93425e-10	6.518002e-10	0.003410642	-0.01932873
1.2e+08	0.002355939	-0.02116571	1.424771e-10	-2.857189e-10	0.004623311	0.007920665	-2.615519e-10	-2.250621e-10
	1.424771e-10	-2.857189e-10	0.002086243	-0.02109786	1.138055e-09	9.783342e-09	0.004465686	0.00799729
	0.004623311	0.007920665	1.138055e-09	9.783342e-09	0.002311343	-0.02126072	-8.111035e-10	7.894189e-10
	-2.615519e-10	-2.250621e-10	0.004465686	0.00799729	-8.111035e-10	7.894189e-10	0.002059996	-0.02115602
1.3e+08	0.0008834065	-0.02291133	1.49491e-10	-3.189815e-10	0.005299245	0.008273905	-3.060014e-10	-2.161907e-10
	1.494909e-10	-3.189815e-10	0.0005778211	-0.022809	1.106096e-09	1.059972e-08	0.005121856	0.008371164
	0.005299245	0.008273906	1.106096e-09	1.059972e-08	0.0008294061	-0.02300687	-9.289174e-10	9.435188e-10
	-3.060014e-10	-2.161907e-10	0.005121856	0.008371164	-9.289174e-10	9.435188e-10	0.0005417111	-0.02287515
1.4e+08	-0.0007411655	-0.02453805	1.561999e-10	-3.542567e-10	0.005998648	0.008566217	-3.507132e-10	-2.022149e-10
	1.561999e-10	-3.542567e-10	-0.001082796	-0.02439736	1.071892e-09	1.142813e-08	0.005801663	0.008686809
	0.005998648	0.008566217	1.071892e-09	1.142813e-08	-0.0008057312	-0.02463386	-1.044684e-09	1.114022e-09
	-3.507132e-10	-2.022149e-10	0.005801663	0.00868681	-1.044684e-09	1.114022e-09	-0.00112958	-0.02447005
1.5e+08	-0.002503952	-0.02603288	1.631062e-10	-3.922847e-10	0.00671612	0.008795883	-3.949765e-10	-1.834091e-10
	1.631062e-10	-3.922847e-10	-0.002881319	-0.02584965	1.037363e-09	1.226894e-08	0.006499986	0.008942501
	0.00671612	0.008795883	1.037363e-09	1.226894e-08	-0.002580009	-0.02612827	-1.155757e-09	1.300163e-09
	-3.949765e-10	-1.834091e-10	0.006499986	0.008942501	-1.155757e-09	1.300163e-09	-0.002939505	-0.0259275
1.6e+08	-0.00439104	-0.02738462	1.687991e-10	-4.322587e-10	0.007446139	0.008961671	-4.386384e-10	-1.590321e-10
	1.687991e-10	-4.322587e-10	-0.004803348	-0.0271545	1.004388e-09	1.312233e-08	0.007211586	0.009136983
	0.007446139	0.008961671	1.004388e-09	1.312233e-08	-0.0044793	-0.02747868	-1.261386e-09	1.502479e-09
	-4.386384e-10	-1.590321e-10	0.007211586	0.009136983	-1.261386e-09	1.502479e-09	-0.004873544	-0.02723612
1.7e+08	-0.006388285	-0.02858355	1.730172e-10	-4.742119e-10	0.008183099	0.009062833	-4.810964e-10	-1.290528e-10
	1.730172e-10	-4.742119e-10	-0.00683423	-0.02830213	9.747704e-10	1.398828e-08	0.007931144	0.009269464
	0.008183099	0.009062833	9.747704e-10	1.398828e-08	-0.006489256	-0.02867523	-1.359711e-09	1.720444e-09
	-4.810964e-10	-1.290528e-10	0.007931144	0.009269464	-1.359711e-09	1.720444e-09	-0.00691692	-0.02838613
1.8e+08	-0.008481258	-0.02962136	1.754701e-10	-5.181424e-10	0.008921356	0.00909911	-5.217334e-10	-9.350761e-11
	1.754701e-10	-5.181424e-10	-0.008959016	-0.02928421	9.502547e-10	1.48666e-08	0.008653305	0.009339617
	0.008921356	0.00909911	9.502547e-10	1.48666e-08	-0.008595267	-0.02970949	-1.448955e-09	1.953345e-09
	-5.217334e-10	-9.350761e-11	0.008653305	0.009339617	-1.448955e-09	1.953345e-09	-0.009054548	-0.0293692
1.9e+08	-0.01065525	-0.030491	1.758448e-10	-5.640078e-10	0.00965527	0.009070734	-5.599262e-10	-5.25013e-11
	1.758448e-10	-5.640078e-10	-0.01116247	-0.03009377	9.325236e-10	1.575693e-08	0.009372717	0.009347577
	0.00965527	0.009070734	9.325236e-10	1.575693e-08	-0.01078246	-0.0305744	-1.527435e-09	2.200292e-09
	-5.599262e-10	-5.25013e-11	0.009372717	0.009347577	-1.527435e-09	2.200292e-09	-0.01127106	-0.03017837
2e+08	-0.01289529	-0.03118674	1.738112e-10	-6.117205e-10	0.01037925	0.008978423	-5.950531e-10	-6.206925e-12
	1.738112e-10	-6.117205e-10	-0.0134291	-0.03072525	9.231935e-10	1.665874e-08	0.01008407	0.009293935
	0.01037925	0.008978423	9.231935e-10	1.665874e-08	-0.01303572	-0.0312642	-1.593579e-09	2.460234e-09
	-5.950531e-10	-6.206925e-12	0.01008407	0.009293935	-1.593579e-09	2.460234e-09	-0.01355085	-0.03080807
2.1e+08	-0.01518623	-0.03170413	1.690291e-10	-6.611433e-10	0.01108778	0.008823375	-6.265024e-10	4.513386e-11
	1.690291e-10	-6.611433e-10	-0.01574324	-0.0311744	9.23806e-10	1.757134e-08	0.01078214	0.009179731
	0.01108778	0.008823375	9.23806e-10	1.757134e-08	-0.01533975	-0.03177444	-1.645935e-09	2.731972e-09
	-6.265024e-10	4.513386e-11	0.01078214	0.009179731	-1.645935e-09	2.731972e-09	-0.01587812	-0.03125409
2.2e+08	-0.01751277	-0.03204001	1.611551e-10	-7.120853e-10	0.0117755	0.008607258	-6.536801e-10	1.012113e-10
	1.611551e-10	-7.120853e-10	-0.01808912	-0.03143834	9.358182e-10	1.849391e-08	0.0114618	0.009006445
	0.0117755	0.008607258	9.358182e-10	1.849391e-08	-0.01767916	-0.03210198	-1.683188e-09	3.014177e-09
	-6.536801e-10	1.012113e-10	0.0114618	0.009006445	-1.683188e-09	3.014177e-09	-0.01823697	-0.03151356
2.3e+08	-0.01985957	-0.03219248	1.49852e-10	-7.642993e-10	0.01243722	0.008332197	-6.760177e-10	1.616487e-10
	1.49852e-10	-7.642993e-10	-0.02045093	-0.0315155	9.605931e-10	1.942547e-08	0.01211812	0.008775986
	0.01243722	0.008332197	9.605931e-10	1.942547e-08	-0.02003846	-0.03224492	-1.704164e-09	3.3054e-09
	-6.760177e-10	1.616487e-10	0.01211812	0.008775986	-1.704164e-09	3.3054e-09	-0.02061149	-0.03158494
2.4e+08	-0.02221132	-0.0321609	1.347958e-10	-8.1748e-10	0.01306793	0.008000751	-6.929799e-10	2.260048e-10
	1.347958e-10	-8.1748e-10	-0.02281295	-0.03140566	9.993865e-10	2.03649e-08	0.01274632	0.00849067
	0.01306793	0.008000751	9.993865e-10	2.03649e-08	-0.02240225	-0.03220267	-1.707838e-09	3.604093e-09
	-6.929799e-10	2.260048e-10	0.01274632	0.00849067	-1.707838e-09	3.604093e-09	-0.02298583	-0.03146805
2.5e+08	-0.02455282	-0.03194588	1.156915e-10	-8.712667e-10	0.01366289	0.0076159	-7.040723e-10	2.937766e-10
	1.156915e-10	-8.712667e-10	-0.0251596	-0.03110986	1.053341e-09	2.131095e-08	0.01334186	0.008153207
	0.01366289	0.0076159	1.053341e-09	2.131095e-08	-0.02475522	-0.03197588	-1.693336e-09	3.908622e-09
	-7.040723e-10	2.937766e-10	0.01334186	0.008153207	-1.693336e-09	3.908622e-09	-0.0253443	-0.03116397
2.6e+08	-0.02686909	-0.03154928	8.916835e-11	-9.230966e-10	0.01421766	0.007181013	-7.087817e-10	3.644235e-10
	8.916835e-11	-9.230966e-10	-0.02747556	-0.03063043	1.121838e-09	2.226259e-08	0.01390046	0.007766675
	0.01421766	0.007181013	1.121838e-09	2.226259e-08	-0.0270823	-0.03156644	-1.663076e-09	4.219459e-09
	-7.087817e-10	3.644235e-10	0.01390046	0.007766675	-1.663076e-09	4.219459e-09	-0.02767146	-0.0306751
2.7e+08	-0.02914541	-0.03097412	5.779222e-11	-9.736187e-10	0.01472808	0.006699827	-7.067608e-10	4.373022e-10
	5.779222e-11	-9.736187e-10	-0.02974583	-0.02997094	1.207126e-09	2.321832e-08	0.01441812	0.0073345
	0.01472808	0.006699827	1.207126e-09	2.321832e-08	-0.02936867	-0.03097744	-1.613694e-09	4.533703e-09
	-7.067608e-10	4.373022e-10	0.01441812	0.0073345	-1.613694e-09	4.533703e-09	-0.02995223	-0.03000505
2.8e+08	-0.03136747	-0.03022463	2.202913e-11	-1.022625e-09	0.01519035	0.006176415	-6.976916e-10	5.117447e-10
	2.202913e-11	-1.022625e-09	-0.03195585	-0.02913615	1.310249e-09	2.417658e-08	0.01489116	0.006860425
	0.01519035	0.006176415	1.310249e-09	2.417658e-08	-0.03159993	-0.03021316	-1.544158e-09	4.84924e-09
	-6.976916e-10	5.117447e-10	0.01489116	0.006860425	-1.544158e-09	4.84924e-09	-0.03217194	-0.02915865
2.9e+08	-0.03352143	-0.02930613	-1.812459e-11	-1.069567e-09	0.01560104	0.005615156	-6.813136e-10	5.870473e-10
	-1.812459e-11	-1.069567e-09	-0.0340916	-0.02813197	1.431821e-09	2.513571e-08	0.01531623	0.006348486
	0.01560104	0.005615156	1.431821e-09	2.513571e-08	-0.03376212	-0.02927898	-1.454137e-09	5.164226e-09
	-6.813136e-10	5.870473e-10	0.01531623	0.006348486	-1.454137e-09	5.164226e-09	-0.03431647	-0.0281419
3e+08	-0.03559394	-0.02822502	-6.260281e-11	-1.113874e-09	0.01595711	0.005020697	-6.574382e-10	6.624733e-10
	-6.260281e-11	-1.113874e-09	-0.03613963	-0.02696542	1.572298e-09	2.609403e-08	0.01569034	0.005802977
	0.01595711	0.005020697	1.572298e-09	2.609403e-08	-0.03584185	-0.0281814	-1.343456e-09	5.476796e-09
	-6.574382e-10	6.624733e-10	0.01569034	0.005802977	-1.343456e-09	5.476796e-09	-0.03637231	-0.0269619
3.1e+08	-0.03757234	-0.02698876	-1.112651e-10	-1.154961e-09	0.01625593	0.004397926	-6.259534e-10	7.37261e-10
	-1.112651e-10	-1.154961e-09	-0.0380872	-0.02564455	1.731973e-09	2.704977e-08	0.01601089	0.005228422
	0.01625593	0.004397926	1.731973e-09	2.704977e-08	-0.03782635	-0.02692794	-1.212104e-09	5.785067e-09
	-6.259534e-10	7.37261e-10	0.01601089	0.005228422	-1.212104e-09	5.785067e-09	-0.03832661	-0.0256268
3.2e+08	-0.03944462	-0.02560573	-1.638907e-10	-1.192238e-09	0.01649533	0.003751927	-5.868259e-10	8.106322e-10
	-1.638907e-10	-1.192238e-09	-0.03992231	-0.0241784	1.910965e-09	2.800113e-08	0.01627567	0.004629541
	0.01649533	0.003751927	1.910965e-09	2.800113e-08	-0.03970357	-0.0255271	-1.060226e-09	6.08716e-09
	-5.868259e-10	8.106322e-10	0.01627567	0.004629541	-1.060226e-09	6.08716e-09	-0.04016732	-0.02414573
3.3e+08	-0.04119955	-0.02408526	-2.201755e-10	-1.225124e-09	0.01667354	0.003087946	-5.401038e-10	8.81801e-10
	-2.201755e-10	-1.225124e-09	-0.04163378	-0.02257693	2.109224e-09	2.894629e-08	0.01648287	0.004011212
	0.01667354	0.003087946	2.109224e-09	2.894629e-08	-0.04146219	-0.02398828	-8.881262e-10	6.381202e-09
	-5.401038e-10	8.81801e-10	0.01648287	0.004011212	-8.881262e-10	6.381202e-09	-0.04188319	-0.02252874
3.4e+08	-0.04282673	-0.02243749	-2.79731e-10	-1.253054e-09	0.01678928	0.002411354	-4.859171e-10	9.499827e-10
	-2.79731e-10	-1.253054e-09	-0.04321134	-0.0208509	2.32652e-09	2.988342e-08	0.01663112	0.003378439
	0.01678928	0.002411354	2.32652e-09	2.988342e-08	-0.04309177	-0.02232175	-6.962604e-10	6.665341e-09
	-4.859171e-10	9.499827e-10	0.01663112	0.003378439	-6.962604e-10	6.665341e-09	-0.04346391	-0.02078672
3.5e+08	-0.04431663	-0.02067334	-3.42084e-10	-1.275495e-09	0.01684172	0.001727603	-4.244774e-10	1.014403e-09
	-3.42084e-10	-1.275495e-09	-0.04464566	-0.01901185	2.562448e-09	3.081069e-08	0.01671947	0.002736318
	0.01684172	0.001727603	2.562448e-09	3.081069e-08	-0.04458274	-0.02053852	-4.852374e-10	6.937757e-09
	-4.244774e-10	1.014403e-09	0.01671947	0.002736318	-4.852374e-10	6.937757e-09	-0.04490008	-0.01893132
3.6e+08	-0.04566068	-0.01880442	-4.066786e-10	-1.29196e-09	0.01683052	0.00104219	-3.560766e-10	1.074305e-09
	-4.066786e-10	-1.29196e-09	-0.0459284	-0.01707201	2.816425e-09	3.172629e-08	0.01674739	0.002089996
	0.01683052	0.00104219	2.816425e-09	3.172629e-08	-0.04592649	-0.01865032	-2.558144e-10	7.196669e-09
	-3.560766e-10	1.074305e-09	0.01674739	0.002089996	-2.558144e-10	7.196669e-09	-0.04618335	-0.01697488
3.7e+08	-0.04685127	-0.01684294	-4.728803e-10	-1.302016e-09	0.01675578	0.0003606191	-2.810849e-10	1.128963e-09
	-4.728803e-10	-1.302016e-09	-0.04705227	-0.01504419	3.087693e-09	3.262847e-08	0.01671481	0.001444639
	0.01675578	0.0003606191	3.087693e-09	3.262847e-08	-0.0471154	-0.0166695	-8.894602e-12	7.440345e-09
	-2.810849e-10	1.128963e-09	0.01671481	0.001444639	-8.894602e-12	7.440345e-09	-0.0473064	-0.01493034
3.8e+08	-0.04788185	-0.01480165	-5.399817e-10	-1.305301e-09	0.01661809	-0.0003116437	-1.999469e-10	1.177685e-09
	-5.399817e-10	-1.305301e-09	-0.04801107	-0.01294169	3.375322e-09	3.35155e-08	0.01662207	0.0008053939
	0.01661809	-0.0003116437	3.375322e-09	3.35155e-08	-0.04814287	-0.01460892	2.544759e-10	7.667111e-09
	-1.999469e-10	1.177685e-09	0.01662207	0.0008053939	2.544759e-10	7.667111e-09	-0.04826302	-0.01281112
3.9e+08	-0.04874688	-0.01269377	-6.072105e-10	-1.30153e-09	0.01641848	-0.0009692041	-1.131776e-10	1.219824e-09
	-6.072105e-10	-1.30153e-09	-0.04879971	-0.01077826	3.678211e-09	3.438575e-08	0.01646996	0.0001773533
	0.01641848	-0.0009692041	3.678211e-09	3.438575e-08	-0.0490034	-0.01248191	5.331108e-10	7.875359e-09
	-1.131776e-10	1.219824e-09	0.01646996	0.0001773533	5.331108e-10	7.875359e-09	-0.04904812	-0.0106311
4e+08	-0.04944194	-0.01053284	-6.73739e-10	-1.290512e-09	0.01615846	-0.00160678	-2.135704e-11	1.254782e-09
	-6.73739e-10	-1.290512e-09	-0.04941423	-0.008567957	3.995097e-09	3.523766e-08	0.01625968	-0.0004344794
	0.01615846	-0.00160678	3.995097e-09	3.523766e-08	-0.04969256	-0.01030215	8.256868e-10	8.063558e-09
	-2.135704e-11	1.254782e-09	0.01625968	-0.0004344794	8.256868e-10	8.063558e-09	-0.04965774	-0.008404436
4.1e+08	-0.04996371	-0.008332694	-7.386956e-10	-1.272156e-09	0.01583997	-0.002219239	7.487562e-11	1.282022e-09
	-7.386956e-10	-1.272156e-09	-0.04985184	-0.006325062	4.324558e-09	3.606976e-08	0.01599284	-0.001025225
	0.01583997	-0.002219239	4.324558e-09	3.606976e-08	-0.05020704	-0.008083598	1.130746e-09	8.230262e-09
	7.487562e-11	1.282022e-09	0.01599284	-0.001025225	1.130746e-09	8.230262e-09	-0.05008912	-0.006145558
4.2e+08	-0.05030998	-0.006107366	-8.011775e-10	-1.246476e-09	0.01546537	-0.002801634	1.748288e-10	1.301068e-09
	-8.011775e-10	-1.246476e-09	-0.0501109	-0.004064015	4.665024e-09	3.688073e-08	0.01567148	-0.00159016
	0.01546537	-0.002801634	4.665024e-09	3.688073e-08	-0.05054469	-0.005840404	1.446702e-09	8.374119e-09
	1.748288e-10	1.301068e-09	0.01567148	-0.00159016	1.446702e-09	8.374119e-09	-0.05034065	-0.003869017
4.3e+08	-0.05047968	-0.003870969	-8.60265e-10	-1.213605e-09	0.01503744	-0.003349235	2.777656e-10	1.311514e-09
	-8.60265e-10	-1.213605e-09	-0.05019095	-0.001799292	5.014784e-09	3.766934e-08	0.01529799	-0.002124751
	0.01503744	-0.003349235	5.014784e-09	3.766934e-08	-0.05070445	-0.003586806	1.771837e-09	8.493882e-09
	2.777656e-10	1.311514e-09	0.01529799	-0.002124751	1.771837e-09	8.493882e-09	-0.05041192	-0.001589408
4.4e+08	-0.05047286	-0.001637633	-9.150364e-10	-1.17379e-09	0.01455935	-0.003857567	3.829113e-10	1.313024e-09
	-9.150364e-10	-1.17379e-09	-0.05009271	0.0004546698	5.371997e-09	3.843452e-08	0.01487514	-0.002624684
	0.01455935	-0.003857567	5.371997e-09	3.843452e-08	-0.05068645	-0.001337048	2.104313e-09	8.588416e-09
	3.829113e-10	1.313024e-09	0.01487514	-0.002624684	2.104313e-09	8.588416e-09	-0.05030369	0.0006787192
4.5e+08	-0.0502907	0.0005785922	-9.645843e-10	-1.1274e-09	0.01403463	-0.004322441	4.894617e-10	1.305339e-09
	-9.645843e-10	-1.1274e-09	-0.04981803	0.002683573	5.734704e-09	3.917536e-08	0.01440607	-0.003085895
	0.01403463	-0.004322441	5.734704e-09	3.917536e-08	-0.05049192	0.0008947059	2.442172e-09	8.656714e-09
	4.894617e-10	1.305339e-09	0.01440607	-0.003085895	2.442172e-09	8.656714e-09	-0.05001788	0.002920958
4.6e+08	-0.04993547	0.002763828	-1.008031e-09	-1.074925e-09	0.01346717	-0.004739979	5.965894e-10	1.288273e-09
	-1.008031e-09	-1.074925e-09	-0.04936991	0.004873348	6.100839e-09	3.989111e-08	0.01389422	-0.003504595
	0.01346717	-0.004739979	6.100839e-09	3.989111e-08	-0.05012321	0.003094466	2.783338e-09	8.697898e-09
	5.965894e-10	1.288273e-09	0.01389422	-0.003504595	2.783338e-09	8.697898e-09	-0.04955758	0.005123155
4.7e+08	-0.04941057	0.004904451	-1.044548e-09	-1.016969e-09	0.01286115	-0.005106644	7.034547e-10	1.261722e-09
	-1.044548e-09	-1.016969e-09	-0.04875245	0.007010239	6.468246e-09	4.05812e-08	0.01334335	-0.0038773
	0.01286115	-0.005106644	6.468246e-09	4.05812e-08	-0.04958379	0.005248499	3.125638e-09	8.711249e-09
	7.034547e-10	1.261722e-09	0.01334335	-0.0038773	3.125638e-09	8.711249e-09	-0.04892697	0.007271441
