!$
! Info: Touchstone file created by Circ.  Input file=Tx_4in_Rx_100ohms_TxVia_10mils_RxVia_20mils.circ
!$
# Hz S RI R 50
0	0.004270755	3.630886e-26	3.250616e-09	1.810957e-27	3.334144e-05	4.324556e-24	-3.559681e-09	4.694139e-25
	3.250608e-09	1.811136e-27	0.004270362	4.450835e-26	-2.988405e-09	4.147198e-25	3.277378e-05	6.020526e-24
	3.561514e-05	4.334622e-24	-2.986456e-09	4.144787e-25	0.004263463	3.164849e-26	1.252658e-08	1.102424e-29
	-3.556933e-09	4.690756e-25	3.423163e-05	6.196566e-24	1.252667e-08	1.08637e-29	0.004275999	4.249186e-26
1e+07	0.006121528	0.003052473	4.846312e-09	8.323407e-09	0.0002247354	0.0008409562	5.439001e-09	5.758301e-08
	4.846312e-09	8.323407e-09	0.00612055	0.003051609	4.218411e-10	5.811472e-08	0.0002235591	0.0008411902
	0.0002247834	0.0008409298	4.218413e-10	5.811472e-08	0.006074767	0.003057268	-1.18081e-08	4.509847e-08
	5.439001e-09	5.758301e-08	0.0002235914	0.0008411788	-1.18081e-08	4.509847e-08	0.006073808	0.003056369
2e+07	0.007718401	0.00475909	7.083698e-09	1.482206e-08	0.0002678382	0.001739066	1.724539e-08	7.951556e-08
	7.083697e-09	1.482206e-08	0.007714343	0.004757325	4.677714e-09	8.120007e-08	0.0002632574	0.001739979
	0.0002678304	0.001739041	4.677715e-09	8.120007e-08	0.007686368	0.004790458	-8.514566e-09	4.650477e-08
	1.72454e-08	7.951556e-08	0.0002632546	0.001739958	-8.514567e-09	4.650477e-08	0.007682544	0.004788752
3e+07	0.009078819	0.005878681	9.628592e-09	2.092292e-08	0.0003941636	0.002558924	3.762825e-08	1.019275e-07
	9.628592e-09	2.092292e-08	0.009069361	0.005876367	1.289665e-08	1.07719e-07	0.0003840398	0.002561161
	0.0003941642	0.00255892	1.289665e-08	1.07719e-07	0.009060062	0.005922341	-5.301259e-09	5.479404e-08
	3.762825e-08	1.019275e-07	0.0003840348	0.002561158	-5.301259e-09	5.479404e-08	0.00905146	0.00592013
4e+07	0.01034237	0.006732473	1.255356e-08	2.652978e-08	0.0006052643	0.003342498	5.948668e-08	1.208639e-07
	1.255356e-08	2.652978e-08	0.01032524	0.006730316	1.983639e-08	1.329606e-07	0.0005875397	0.003346963
	0.0006052683	0.003342494	1.983639e-08	1.329606e-07	0.01033683	0.006782701	-3.111324e-10	6.239606e-08
	5.948668e-08	1.208639e-07	0.0005875392	0.003346964	-3.111326e-10	6.239606e-08	0.01032121	0.006780405
5e+07	0.01155574	0.007398114	1.581962e-08	3.163953e-08	0.0009548374	0.004077396	8.320625e-08	1.37224e-07
	1.581962e-08	3.163953e-08	0.01152874	0.007397145	2.564476e-08	1.578923e-07	0.0009275744	0.004085156
	0.0009548386	0.004077393	2.564476e-08	1.578923e-07	0.01156213	0.007451578	6.411936e-09	6.809673e-08
	8.320625e-08	1.37224e-07	0.0009275739	0.004085156	6.411936e-09	6.809673e-08	0.0115373	0.007450311
6e+07	0.01273875	0.007912013	1.940737e-08	3.626674e-08	0.001357304	0.004773359	1.092455e-07	1.507814e-07
	1.940737e-08	3.626674e-08	0.01269988	0.007913545	3.090431e-08	1.827486e-07	0.00131873	0.004785777
	0.001357304	0.00477336	3.090431e-08	1.827486e-07	0.01275624	0.007966755	1.442602e-08	7.171241e-08
	1.092455e-07	1.507814e-07	0.001318727	0.004785777	1.442602e-08	7.171241e-08	0.01272045	0.007967862
7e+07	0.01390039	0.008294889	2.328486e-08	4.039224e-08	0.001810191	0.005427417	1.376264e-07	1.610462e-07
	2.328486e-08	4.039224e-08	0.01384778	0.008300472	3.597901e-08	2.074863e-07	0.001758705	0.005446056
	0.001810192	0.005427421	3.597901e-08	2.074863e-07	0.01392854	0.008349099	2.317993e-08	7.33061e-08
	1.376264e-07	1.610462e-07	0.0017587	0.005446059	2.317993e-08	7.33061e-08	0.01388019	0.0083539
8e+07	0.01504444	0.008560433	2.741019e-08	4.398804e-08	0.002310285	0.006035978	1.680881e-07	1.675441e-07
	2.74102e-08	4.398805e-08	0.01497645	0.008571816	4.107286e-08	2.320121e-07	0.002244465	0.00606259
	0.002310287	0.006035982	4.107286e-08	2.320121e-07	0.01508276	0.00861209	3.216609e-08	7.304828e-08
	1.680881e-07	1.675441e-07	0.00224446	0.006062594	3.216609e-08	7.304828e-08	0.01502016	0.008622016
9e+07	0.01617227	0.008719431	3.173165e-08	4.702529e-08	0.002853625	0.006594949	2.002062e-07	1.698825e-07
	3.173166e-08	4.702529e-08	0.01608745	0.008738533	4.625785e-08	2.562486e-07	0.00277224	0.006631459
	0.002853628	0.006594952	4.625785e-08	2.562486e-07	0.01621988	0.008766301	4.096885e-08	7.117616e-08
	2.002062e-07	1.698825e-07	0.002772237	0.006631463	4.096885e-08	7.117616e-08	0.01614129	0.008783111
1e+08	0.0172875	0.008788127	3.618779e-08	4.947915e-08	0.003434163	0.007097076	2.334637e-07	1.677669e-07
	3.618779e-08	4.947915e-08	0.01718459	0.008817022	5.158222e-08	2.801101e-07	0.003336175	0.007145576
	0.003434163	0.007097076	5.158222e-08	2.801101e-07	0.01734264	0.008827153	4.928276e-08	6.7973e-08
	2.334637e-07	1.677669e-07	0.003336176	0.007145576	4.928276e-08	6.7973e-08	0.01724647	0.008853034
1.1e+08	0.01841726	0.008727857	4.069729e-08	5.1364e-08	0.004035607	0.007554609	2.672457e-07	1.634268e-07
	4.069729e-08	5.1364e-08	0.01829449	0.008769633	5.497492e-08	3.05012e-07	0.003919707	0.007616901
	0.004035607	0.007554609	5.497492e-08	3.05012e-07	0.01847613	0.008761403	5.534019e-08	7.063337e-08
	2.672457e-07	1.634268e-07	0.003919707	0.007616901	5.534019e-08	7.063337e-08	0.0183608	0.008798918
1.2e+08	0.01950678	0.00855661	4.521153e-08	5.266787e-08	0.004673218	0.007964452	3.014358e-07	1.546598e-07
	4.521153e-08	5.266787e-08	0.01936385	0.008613592	5.820612e-08	3.296556e-07	0.004539115	0.008043232
	0.004673219	0.007964452	5.820612e-08	3.296556e-07	0.01956933	0.008585341	6.140173e-08	7.252011e-08
	3.014358e-07	1.546598e-07	0.004539115	0.008043232	6.140173e-08	7.252011e-08	0.01943469	0.00863702
1.3e+08	0.02055799	0.008289813	4.967188e-08	5.338879e-08	0.005340634	0.008319437	3.355685e-07	1.413859e-07
	4.967188e-08	5.338879e-08	0.02039469	0.008364342	6.128188e-08	3.540635e-07	0.005188281	0.008417275
	0.005340635	0.008319437	6.128188e-08	3.540635e-07	0.02062368	0.008313646	6.739073e-08	7.362989e-08
	3.355685e-07	1.413859e-07	0.005188281	0.008417275	6.739073e-08	7.362989e-08	0.02046975	0.008381847
1.4e+08	0.02156877	0.007933958	5.401826e-08	5.352869e-08	0.00603259	0.00861641	3.691592e-07	1.235706e-07
	5.401826e-08	5.352869e-08	0.02138505	0.008028434	6.420092e-08	3.782553e-07	0.005862166	0.008735805
	0.006032591	0.00861641	6.420092e-08	3.782553e-07	0.02163701	0.007952823	7.322779e-08	7.396475e-08
	3.691592e-07	1.235706e-07	0.005862166	0.008735805	7.322779e-08	7.396475e-08	0.02146389	0.008039838
1.5e+08	0.022536	0.007494173	5.818923e-08	5.309475e-08	0.006743828	0.00885316	4.017119e-07	1.012266e-07
	5.818923e-08	5.309475e-08	0.02233198	0.007611059	6.695829e-08	4.022484e-07	0.006555737	0.008996567
	0.006743828	0.00885316	6.695829e-08	4.022484e-07	0.02260622	0.007508066	7.88314e-08	7.353381e-08
	4.017119e-07	1.012266e-07	0.006555737	0.008996567	7.88314e-08	7.353381e-08	0.02241416	0.007616174
1.6e+08	0.02345611	0.006975159	6.212278e-08	5.210009e-08	0.007469012	0.009028103	4.327262e-07	7.441708e-08
	6.212278e-08	5.210009e-08	0.02323213	0.007116974	6.954653e-08	4.260595e-07	0.007263891	0.009197945
	0.007469012	0.009028103	6.954653e-08	4.260595e-07	0.0235278	0.006984117	8.411911e-08	7.23541e-08
	4.327262e-07	7.441708e-08	0.007263891	0.009197945	8.411911e-08	7.23541e-08	0.0233172	0.007115614
1.7e+08	0.02432531	0.006381529	6.57572e-08	5.056408e-08	0.008202735	0.009140193	4.617029e-07	4.325632e-08
	6.57572e-08	5.056408e-08	0.02408197	0.006550826	7.195666e-08	4.497059e-07	0.007981462	0.009338851
	0.008202735	0.009140193	7.195666e-08	4.497059e-07	0.02439801	0.006385617	8.900869e-08	7.045112e-08
	4.617029e-07	4.325632e-08	0.007981462	0.009338851	8.900869e-08	7.045112e-08	0.02416947	0.006542816
1.8e+08	0.02513978	0.005717967	6.90319e-08	4.851249e-08	0.008939545	0.009188892	4.881505e-07	7.910583e-09
	6.90319e-08	4.851249e-08	0.02487794	0.005917297	7.417898e-08	4.732056e-07	0.008703247	0.009418688
	0.008939545	0.009188892	7.417898e-08	4.732056e-07	0.02521306	0.005717263	9.341936e-08	6.785889e-08
	4.881505e-07	7.910583e-09	0.008703247	0.009418688	9.341936e-08	6.785889e-08	0.0249674	0.005902484
1.9e+08	0.02589575	0.004989303	7.188826e-08	4.597742e-08	0.009673977	0.009174151	5.115913e-07	-3.140271e-08
	7.188826e-08	4.597742e-08	0.02561658	0.005221187	7.620379e-08	4.965778e-07	0.009424033	0.009437326
	0.009673977	0.00917415	7.620379e-08	4.965778e-07	0.02596924	0.004983888	9.727284e-08	6.461996e-08
	5.115913e-07	-3.140271e-08	0.009424033	0.009437326	9.727284e-08	6.461996e-08	0.02570751	0.005199431
2e+08	0.02658963	0.004200533	7.427034e-08	4.299713e-08	0.01040059	0.0090964	5.315661e-07	-7.441627e-08
	7.427034e-08	4.299713e-08	0.02629457	0.00446742	7.802193e-08	5.198431e-07	0.01013863	0.009395092
	0.01040059	0.0090964	7.802193e-08	5.198431e-07	0.02666296	0.004190497	1.004944e-07	6.078514e-08
	5.315661e-07	-7.441627e-08	0.01013863	0.009395092	1.004944e-07	6.078514e-08	0.02638649	0.004438612
2.1e+08	0.02721804	0.003356837	7.612559e-08	3.961581e-08	0.01111401	0.008956544	5.476404e-07	-1.208148e-07
	7.612559e-08	3.961581e-08	0.02690883	0.00366107	7.96252e-08	5.430233e-07	0.0108419	0.009292756
	0.01111401	0.008956544	7.96252e-08	5.430233e-07	0.02729087	0.003342271	1.030138e-07	5.641317e-08
	5.476404e-07	-1.208148e-07	0.0108419	0.009292756	1.030138e-07	5.641317e-08	0.02700124	0.003625124
2.2e+08	0.02777788	0.002463573	7.740546e-08	3.588321e-08	0.01180896	0.008755945	5.594086e-07	-1.702374e-07
	7.740546e-08	3.588321e-08	0.02745653	0.002807353	8.100676e-08	5.661412e-07	0.01152881	0.009131522
	0.01180896	0.008755945	8.100676e-08	5.661412e-07	0.02784985	0.002444578	1.047662e-07	5.157028e-08
	5.594086e-07	-1.702374e-07	0.01152881	0.009131522	1.047662e-07	5.157028e-08	0.02754892	0.002764216
2.3e+08	0.02826634	0.001526276	7.806602e-08	3.185426e-08	0.01248029	0.008496415	5.664987e-07	-2.222805e-07
	7.806602e-08	3.185426e-08	0.02793514	0.001911627	8.216133e-08	5.892205e-07	0.01219444	0.008913017
	0.01248029	0.008496415	8.216133e-08	5.892205e-07	0.02833711	0.001502971	1.056926e-07	4.632961e-08
	5.664987e-07	-2.222805e-07	0.01219444	0.008913017	1.056926e-07	4.632961e-08	0.02802698	0.001861284
2.4e+08	0.02868097	0.0005506147	7.806847e-08	2.758862e-08	0.01312306	0.008180198	5.685771e-07	-2.76501e-07
	7.806847e-08	2.758862e-08	0.02834244	0.0009793541	8.308545e-08	6.12286e-07	0.01283404	0.008639278
	0.01312306	0.008180198	8.308545e-08	6.12286e-07	0.0287502	0.0005231385	1.057413e-07	4.077067e-08
	5.685771e-07	-2.76501e-07	0.01283404	0.008639278	1.057413e-07	4.077067e-08	0.0284332	0.0009218323
2.5e+08	0.02901966	-0.000457594	7.737959e-08	2.315018e-08	0.01373251	0.007809954	5.653514e-07	-3.324202e-07
	7.737959e-08	2.315018e-08	0.02867656	1.611283e-05	8.377763e-08	6.353629e-07	0.01344303	0.008312733
	0.01373251	0.007809954	8.377763e-08	6.353629e-07	0.02908701	-0.0004890784	1.048676e-07	3.497864e-08
	5.653514e-07	-3.324202e-07	0.01344303	0.008312733	1.048676e-07	3.497864e-08	0.02876571	-4.851611e-05
2.6e+08	0.02928068	-0.001492435	7.597218e-08	1.860657e-08	0.01430412	0.00738874	5.56575e-07	-3.895274e-07
	7.597218e-08	1.860657e-08	0.02893598	-0.0009724442	8.423843e-08	6.584767e-07	0.01401708	0.007936185
	0.01430412	0.00738874	8.423843e-08	6.584767e-07	0.02934584	-0.001527741	1.030352e-07	2.904366e-08
	5.56575e-07	-3.895274e-07	0.01401709	0.007936185	1.030352e-07	2.904366e-08	0.029023	-0.001044066
2.7e+08	0.02946273	-0.002547914	7.382546e-08	1.402854e-08	0.01483368	0.006919985	5.420496e-07	-4.472842e-07
	7.382546e-08	1.402854e-08	0.02911957	-0.001980607	8.447059e-08	6.816532e-07	0.01455211	0.007512792
	0.01483368	0.006919985	8.447059e-08	6.816532e-07	0.02952537	-0.002586824	1.00216e-07	2.306011e-08
	5.420496e-07	-4.472842e-07	0.01455211	0.007512792	1.00216e-07	2.306011e-08	0.02920391	-0.00205906
2.8e+08	0.02956487	-0.00361797	7.092533e-08	9.489397e-09	0.01531727	0.006407464	5.216279e-07	-5.051293e-07
	7.092533e-08	9.489397e-09	0.02922654	-0.003002621	8.447907e-08	7.049183e-07	0.01504429	0.007046045
	0.01531727	0.006407464	8.447907e-08	7.049183e-07	0.0296247	-0.003660234	9.639115e-08	1.712577e-08
	5.216279e-07	-5.051293e-07	0.01504429	0.007046045	9.639115e-08	1.712577e-08	0.02930771	-0.003087692
2.9e+08	0.0295866	-0.004696518	6.726467e-08	5.064388e-09	0.01575128	0.005855275	4.952164e-07	-5.624833e-07
	6.726467e-08	5.064388e-09	0.02925651	-0.004032724	8.427105e-08	7.282975e-07	0.01549013	0.006539741
	0.01575128	0.005855275	8.427105e-08	7.282975e-07	0.02964334	-0.004741862	9.155092e-08	1.134103e-08
	4.952164e-07	-5.624833e-07	0.01549013	0.006539741	9.155092e-08	1.134103e-08	0.029334	-0.004124157
3e+08	0.02952784	-0.005777475	6.284354e-08	8.300556e-10	0.01613251	0.005267805	4.627767e-07	-6.187531e-07
	6.284354e-08	8.300556e-10	0.02920948	-0.005065168	8.385599e-08	7.518159e-07	0.01588647	0.005997955
	0.01613251	0.005267805	8.385599e-08	7.518159e-07	0.02958123	-0.005825593	8.569522e-08	5.807996e-09
	4.627767e-07	-6.187531e-07	0.01588647	0.005997955	8.569522e-08	5.807996e-09	0.02928282	-0.005162659
3.1e+08	0.02938893	-0.006854776	5.766934e-08	-3.136429e-09	0.01645811	0.004649701	4.243273e-07	-6.733379e-07
	5.766934e-08	-3.136429e-09	0.02908584	-0.006094235	8.324558e-08	7.75498e-07	0.01623049	0.005425017
	0.01645811	0.004649701	8.324558e-08	7.75498e-07	0.02943874	-0.006905338	7.883377e-08	6.296177e-10
	4.243273e-07	-6.733379e-07	0.01623049	0.005425017	7.883377e-08	6.296177e-10	0.02915457	-0.006197437
3.2e+08	0.02917061	-0.007922423	5.175688e-08	-6.757929e-09	0.01672565	0.004005835	3.799445e-07	-7.256337e-07
	5.175688e-08	-6.757929e-09	0.02888637	-0.007114278	8.245372e-08	7.993676e-07	0.01651976	0.004825474
	0.01672565	0.004005835	8.245372e-08	7.993676e-07	0.02921665	-0.007975073	7.098616e-08	-4.091204e-09
	3.799445e-07	-7.256337e-07	0.01651976	0.004825474	7.098616e-08	-4.091204e-09	0.02895008	-0.007222799
3.3e+08	0.02887408	-0.008974497	4.512846e-08	-9.958039e-09	0.0169331	0.003341269	3.297628e-07	-7.750392e-07
	4.512846e-08	-9.958039e-09	0.02861223	-0.008119738	8.149648e-08	8.234472e-07	0.01675222	0.004204064
	0.0169331	0.003341269	8.149648e-08	8.234472e-07	0.02891618	-0.009028863	6.218197e-08	-8.252545e-09
	3.297628e-07	-7.750392e-07	0.01675222	0.004204064	6.218197e-08	-8.252545e-09	0.02867053	-0.008233149
3.4e+08	0.02850093	-0.01000519	3.781381e-08	-1.266177e-08	0.01707889	0.002661221	2.73975e-07	-8.209612e-07
	3.781381e-08	-1.266177e-08	0.02826497	-0.009105163	8.039204e-08	8.477583e-07	0.01692623	0.003565678
	0.01707889	0.002661222	8.039204e-08	8.477583e-07	0.02853896	-0.01006088	5.246071e-08	-1.175439e-08
	2.73975e-07	-8.209612e-07	0.01692623	0.003565678	5.246071e-08	-1.175439e-08	0.02831751	-0.009223
3.5e+08	0.02805315	-0.01100885	2.985003e-08	-1.479625e-08	0.01716191	0.001971026	2.128318e-07	-8.628196e-07
	2.985003e-08	-1.479625e-08	0.0278465	-0.01006525	7.916058e-08	8.723209e-07	0.01704058	0.002915331
	0.01716191	0.001971026	7.916058e-08	8.723209e-07	0.02808703	-0.01106546	4.187166e-08	-1.449955e-08
	2.128318e-07	-8.628196e-07	0.01704058	0.002915331	4.187166e-08	-1.449955e-08	0.02789298	-0.01018702
3.6e+08	0.02753314	-0.01197999	2.128144e-08	-1.629139e-08	0.01718146	0.001276097	1.466404e-07	-9.000535e-07
	2.128144e-08	-1.629139e-08	0.02735909	-0.01099486	7.782421e-08	8.971533e-07	0.01709445	0.002258121
	0.01718146	0.001276097	7.782421e-08	8.971533e-07	0.02756283	-0.0120371	3.047377e-08	-1.639457e-08
	1.466404e-07	-9.000535e-07	0.01709445	0.002258121	3.047377e-08	-1.639457e-08	0.02739925	-0.01112003
3.7e+08	0.0269437	-0.01291331	1.215937e-08	-1.70806e-08	0.01713735	0.0005818864	7.576366e-08	-9.321259e-07
	1.215937e-08	-1.70806e-08	0.02680539	-0.01188904	7.640684e-08	9.222722e-07	0.01708748	0.001599196
	0.01713735	0.0005818864	7.640684e-08	9.222722e-07	0.02696919	-0.01297051	1.833527e-08	-1.735068e-08
	7.576366e-08	-9.321259e-07	0.01708748	0.001599196	1.833527e-08	-1.735068e-08	0.026839	-0.01201706
3.8e+08	0.02628797	-0.01380375	2.541889e-09	-1.710145e-08	0.01702983	-0.0001061509	6.175843e-10	-9.585293e-07
	2.541889e-09	-1.710145e-08	0.02618835	-0.01274307	7.493406e-08	9.476922e-07	0.01701974	0.000943718
	0.01702983	-0.0001061509	7.493406e-08	9.476922e-07	0.02630929	-0.01386063	5.533371e-09	-1.728465e-08
	6.175843e-10	-9.585293e-07	0.01701974	0.000943718	5.533371e-09	-1.728465e-08	0.02621526	-0.01287336
3.9e+08	0.02556947	-0.01464652	-7.50651e-09	-1.629631e-08	0.01685962	-0.0007825991	-7.833077e-08	-9.78791e-07
	-7.50651e-09	-1.629631e-08	0.02551126	-0.01355243	7.343298e-08	9.734259e-07	0.01689173	0.0002968258
	0.01685962	-0.0007825991	7.343298e-08	9.734259e-07	0.0255867	-0.01470265	-7.846184e-09	-1.611964e-08
	-7.833077e-08	-9.78791e-07	0.01689173	0.0002968258	-7.846184e-09	-1.611964e-08	0.02553137	-0.01368441
4e+08	0.02479205	-0.01543707	-1.791531e-08	-1.461298e-08	0.01662788	-0.001442119	-1.605664e-07	-9.924772e-07
	-1.791531e-08	-1.461298e-08	0.02477775	-0.0143129	7.193206e-08	9.994835e-07	0.01670438	-0.0003364009
	0.01662788	-0.001442119	7.193206e-08	9.994835e-07	0.0248053	-0.01549206	-2.170967e-08	-1.378608e-08
	-1.605664e-07	-9.924772e-07	0.01670438	-0.0003364009	-2.170967e-08	-1.378608e-08	0.02479097	-0.01444598
4.1e+08	0.02395987	-0.01617119	-2.860842e-08	-1.200529e-08	0.01633626	-0.002079488	-2.455295e-07	-9.991985e-07
	-2.860842e-08	-1.200529e-08	0.02399168	-0.01502053	7.046095e-08	1.025873e-06	0.01645904	-0.0009509778
	0.01633626	-0.002079488	7.046095e-08	1.025873e-06	0.02396931	-0.01622463	-3.595598e-08	-1.022241e-08
	-2.455295e-07	-9.991985e-07	0.01645904	-0.0009509778	-3.595598e-08	-1.022241e-08	0.02399803	-0.01515409
4.2e+08	0.02307741	-0.01684498	-3.950468e-08	-8.433668e-09	0.01598681	-0.002689636	-3.326196e-07	-9.986137e-07
	-3.950468e-08	-8.433668e-09	0.02315721	-0.01567165	6.905027e-08	1.052599e-06	0.01615748	-0.00154205
	0.01598681	-0.002689636	6.905027e-08	1.052599e-06	0.02308322	-0.0168965	-5.047729e-08	-5.375871e-09
	-3.326196e-07	-9.986137e-07	0.01615748	-0.00154205	-5.047729e-08	-5.375871e-09	0.02315673	-0.01580509
4.3e+08	0.02214939	-0.01745489	-5.051842e-08	-3.865651e-09	0.01558202	-0.003267684	-4.211995e-07	-9.904338e-07
	-5.051842e-08	-3.865651e-09	0.02227875	-0.01626295	6.773143e-08	1.079665e-06	0.01580187	-0.002104929
	0.01558202	-0.003267684	6.773143e-08	1.079665e-06	0.02215181	-0.01750412	-6.515982e-08	7.968737e-10
	-4.211995e-07	-9.904338e-07	0.01580187	-0.002104929	-6.515982e-08	7.968737e-10	0.02227154	-0.01639566
4.4e+08	0.02118079	-0.01799772	-6.156007e-08	1.723621e-09	0.01512479	-0.003808976	-5.105997e-07	-9.744262e-07
	-6.156007e-08	1.723621e-09	0.02136092	-0.01679142	6.653637e-08	1.10707e-06	0.01539479	-0.002635121
	0.01512479	-0.003808976	6.653637e-08	1.10707e-06	0.02118009	-0.01804434	-7.988467e-08	8.329062e-09
	-5.105997e-07	-9.744262e-07	0.01539479	-0.002635121	-7.988467e-08	8.329062e-09	0.02134714	-0.01692282
4.5e+08	0.0201768	-0.01847068	-7.253687e-08	8.351003e-09	0.01461841	-0.004309118	-6.001239e-07	-9.504173e-07
	-7.253687e-08	8.351003e-09	0.02040853	-0.01725442	6.549737e-08	1.134812e-06	0.01493915	-0.003128366
	0.01461841	-0.004309118	6.549737e-08	1.134812e-06	0.02017328	-0.01851437	-9.452868e-08	1.72433e-08
	-6.001239e-07	-9.504173e-07	0.01493915	-0.003128366	-9.452868e-08	1.72433e-08	0.0203884	-0.01738392
4.6e+08	0.01914283	-0.01887137	-8.335351e-08	1.602496e-08	0.01406653	-0.004764006	-6.890536e-07	-9.182957e-07
	-8.335351e-08	1.602496e-08	0.01942659	-0.01764969	6.464673e-08	1.162884e-06	0.01443823	-0.00358066
	0.01406653	-0.004764006	6.464673e-08	1.162884e-06	0.01913681	-0.01891185	-1.089654e-07	2.75511e-08
	-6.890536e-07	-9.182957e-07	0.01443823	-0.00358066	-1.089654e-07	2.75511e-08	0.01940037	-0.01777672
4.7e+08	0.0180844	-0.0191978	-9.391292e-08	2.474526e-08	0.01347313	-0.005169857	-7.766541e-07	-8.780144e-07
	-9.391292e-08	2.474526e-08	0.01842024	-0.01797531	6.401664e-08	1.191279e-06	0.01389565	-0.003988292
	0.01347313	-0.005169857	6.401664e-08	1.191279e-06	0.01807623	-0.01923479	-1.23066e-07	3.925264e-08
	-7.766541e-07	-8.780144e-07	0.01389565	-0.003988292	-1.23066e-07	3.925264e-08	0.01838822	-0.01809931
4.8e+08	0.0170072	-0.0194484	-1.041171e-07	3.450275e-08	0.01284252	-0.00552324	-8.6218e-07	-8.295927e-07
	-1.041171e-07	3.450275e-08	0.01739471	-0.01822979	6.363873e-08	1.219982e-06	0.01331531	-0.004347862
