!$
! Info: Touchstone file created by Circ.  Input file=Tx_4in_Rx_85ohms_TxVia_10mils_RxVia_20mils.circ
!$
# Hz S RI R 50
0	0.003338729	3.149944e-26	-2.186107e-05	2.008042e-25	3.323787e-05	3.428769e-24	-2.186632e-05	4.728449e-25
	-2.186108e-05	2.009582e-25	0.003338125	4.461298e-26	-2.186179e-05	5.929923e-26	3.284984e-05	4.687431e-24
	3.134814e-05	3.380537e-24	-2.186179e-05	5.946683e-26	0.003352964	3.278472e-26	-2.186086e-05	4.011571e-25
	-2.186631e-05	4.718619e-25	3.430804e-05	4.824494e-24	-2.186085e-05	4.000756e-25	0.003343772	4.259121e-26
1e+07	0.00507026	-0.003416633	-9.435047e-05	-1.566003e-05	6.513149e-05	0.0008205576	-6.648976e-05	3.793973e-05
	-9.435047e-05	-1.566003e-05	0.00452615	-0.003497835	-2.552362e-06	-6.393635e-06	9.497269e-05	0.000823565
	6.509283e-05	0.0008205826	-2.552361e-06	-6.393635e-06	0.004550706	-0.003566179	-1.974494e-05	-7.450719e-06
	-6.648976e-05	3.793973e-05	9.500484e-05	0.0008235535	-1.974495e-05	-7.450717e-06	0.00452874	-0.003494268
2e+07	0.005758073	-0.008161058	-8.552558e-05	-2.374572e-06	0.0001712026	0.001637511	-6.716976e-05	3.389982e-05
	-8.552558e-05	-2.374573e-06	0.00525162	-0.008098151	-2.35359e-06	-2.004391e-06	0.00021533	0.001618292
	0.0001712098	0.001637529	-2.35359e-06	-2.004392e-06	0.005222926	-0.00821703	-1.797149e-05	4.979628e-07
	-6.716976e-05	3.389982e-05	0.0002153269	0.001618271	-1.797149e-05	4.979639e-07	0.005256056	-0.008087079
3e+07	0.00569003	-0.01332868	-8.025166e-05	-9.120818e-06	0.0003694703	0.002418604	-6.526357e-05	3.9453e-05
	-8.025166e-05	-9.120818e-06	0.005206073	-0.01321426	-2.236173e-06	-8.405274e-07	0.0003976552	0.002393531
	0.0003694678	0.002418605	-2.236173e-06	-8.405275e-07	0.005142285	-0.01335051	-1.730253e-05	-2.101641e-06
	-6.526357e-05	3.9453e-05	0.0003976501	0.002393528	-1.730253e-05	-2.101641e-06	0.005212397	-0.01319724
4e+07	0.005012201	-0.01859975	-7.616208e-05	-1.23405e-05	0.0006304408	0.003172504	-6.139973e-05	4.554699e-05
	-7.616208e-05	-1.23405e-05	0.004540893	-0.0184509	-2.126839e-06	-1.872051e-07	0.0006415682	0.003146131
	0.000630436	0.003172506	-2.126839e-06	-1.87205e-07	0.004454138	-0.01859447	-1.695342e-05	-3.599347e-06
	-6.139973e-05	4.554699e-05	0.0006415679	0.003146132	-1.695342e-05	-3.599346e-06	0.004549088	-0.01843028
5e+07	0.003784766	-0.02386294	-7.284077e-05	-1.401981e-05	0.0009523432	0.003895834	-5.585935e-05	5.098567e-05
	-7.284077e-05	-1.401981e-05	0.003318099	-0.02368622	-2.0183e-06	2.675982e-07	0.0009450438	0.003871463
	0.0009523419	0.003895836	-2.0183e-06	2.675983e-07	0.003218159	-0.02383212	-1.684101e-05	-4.598625e-06
	-5.585935e-05	5.098567e-05	0.0009450433	0.003871463	-1.684101e-05	-4.598625e-06	0.003326621	-0.02366282
6e+07	0.002044894	-0.02904576	-7.005357e-05	-1.480274e-05	0.001332496	0.0045842	-4.889417e-05	5.52214e-05
	-7.005357e-05	-1.480274e-05	0.001575923	-0.02884367	-1.907523e-06	6.213717e-07	0.001305439	0.004564843
	0.001332497	0.004584198	-1.907523e-06	6.213716e-07	0.001471267	-0.02898926	-1.691242e-05	-5.28441e-06
	-4.889417e-05	5.52214e-05	0.001305436	0.004564843	-1.691242e-05	-5.28441e-06	0.001583907	-0.02881735
7e+07	-0.0001777662	-0.0340915	-6.764341e-05	-1.495329e-05	0.001767634	0.00523306	-4.0775e-05	5.785761e-05
	-6.764341e-05	-1.495329e-05	-0.0006552058	-0.03386435	-1.863989e-06	6.556512e-07	0.001719641	0.005221703
	0.001767635	0.005233055	-1.86399e-06	6.556511e-07	-0.0007569361	-0.03400832	-1.712854e-05	-5.728575e-06
	-4.0775e-05	5.785761e-05	0.001719636	0.005221706	-1.712854e-05	-5.728576e-06	-0.000648199	-0.03383525
8e+07	-0.002855838	-0.03895211	-6.548406e-05	-1.457604e-05	0.00225399	0.00583802	-3.18206e-05	5.851549e-05
	-6.548406e-05	-1.457604e-05	-0.003347269	-0.03869891	-1.860112e-06	5.746239e-07	0.002184093	0.005837746
	0.002253989	0.005838014	-1.860112e-06	5.746238e-07	-0.003438921	-0.03884052	-1.745528e-05	-5.960571e-06
	-3.18206e-05	5.851549e-05	0.002184089	0.00583775	-1.745528e-05	-5.960572e-06	-0.003341918	-0.03866743
9e+07	-0.005962083	-0.04358536	-6.344719e-05	-1.365908e-05	0.002787362	0.006395023	-2.245346e-05	5.669677e-05
	-6.344719e-05	-1.365908e-05	-0.006472512	-0.0433043	-1.861336e-06	5.117284e-07	0.002694877	0.00640916
	0.00278736	0.006395019	-1.861336e-06	5.117283e-07	-0.006546978	-0.04344249	-1.786011e-05	-5.986302e-06
	-2.245346e-05	5.669677e-05	0.002694874	0.006409164	-1.786011e-05	-5.986302e-06	-0.006469949	-0.04327076
1e+08	-0.009468513	-0.04795369	-6.12589e-05	-1.175674e-05	0.003363385	0.006900896	-1.364609e-05	5.065659e-05
	-6.12589e-05	-1.175674e-05	-0.010003	-0.04764363	-1.86844e-06	4.518116e-07	0.003248247	0.006933769
	0.003363385	0.006900896	-1.86844e-06	4.518116e-07	-0.01005082	-0.04777177	-1.829942e-05	-5.755899e-06
	-1.364609e-05	5.065659e-05	0.003248247	0.006933769	-1.829942e-05	-5.755899e-06	-0.01000472	-0.04760806
1.1e+08	-0.01334517	-0.05203057	-6.095343e-05	-9.031224e-06	0.003979036	0.007350268	1.037291e-06	4.063445e-05
	-6.095343e-05	-9.031224e-06	-0.01391333	-0.05168363	-1.846968e-06	4.009865e-07	0.003843829	0.007402906
	0.003979036	0.007350268	-1.846968e-06	4.009865e-07	-0.01390484	-0.05181827	-1.898294e-05	-5.300711e-06
	1.037291e-06	4.063445e-05	0.003843829	0.007402906	-1.898294e-05	-5.300711e-06	-0.01391979	-0.0516443
1.2e+08	-0.01756392	-0.05577313	-6.092997e-05	-6.941838e-06	0.004625916	0.007740093	1.634112e-05	3.122228e-05
	-6.092997e-05	-6.941838e-06	-0.01816629	-0.05538163	-1.826954e-06	3.741025e-07	0.004469948	0.007814094
	0.004625916	0.007740093	-1.826954e-06	3.741025e-07	-0.01810506	-0.05554017	-1.969485e-05	-4.785718e-06
	1.634112e-05	3.122228e-05	0.004469948	0.007814094	-1.969485e-05	-4.785718e-06	-0.01817806	-0.05533782
1.3e+08	-0.02209062	-0.05915494	-6.09777e-05	-4.966291e-06	0.005298771	0.008068792	3.139748e-05	2.063807e-05
	-6.09777e-05	-4.966291e-06	-0.02272768	-0.05871264	-1.80883e-06	3.602568e-07	0.005121955	0.00816666
	0.005298771	0.008068792	-1.80883e-06	3.602567e-07	-0.02261553	-0.058905	-2.039832e-05	-4.154852e-06
	3.139748e-05	2.063807e-05	0.005121955	0.00816666	-2.039832e-05	-4.154852e-06	-0.02274529	-0.05866358
1.4e+08	-0.02689023	-0.06215272	-6.104151e-05	-3.000103e-06	0.00599199	0.008334732	4.583697e-05	8.492526e-06
	-6.104151e-05	-3.000103e-06	-0.02756194	-0.06165355	-1.792107e-06	3.561876e-07	0.00579459	0.008459129
	0.00599199	0.008334732	-1.792107e-06	3.561876e-07	-0.02740069	-0.06188787	-2.107064e-05	-3.402319e-06
	4.583697e-05	8.492526e-06	0.00579459	0.008459129	-2.107064e-05	-3.402319e-06	-0.02758586	-0.06159835
1.5e+08	-0.03192694	-0.06474641	-6.108647e-05	-1.001258e-06	0.006699825	0.008536722	5.934709e-05	-5.358779e-06
	-6.108647e-05	-1.001258e-06	-0.03263263	-0.06418434	-1.776236e-06	3.599881e-07	0.00648242	0.008690362
	0.006699825	0.008536722	-1.776236e-06	3.599881e-07	-0.03242436	-0.06446783	-2.16919e-05	-2.531156e-06
	5.934709e-05	-5.358779e-06	0.00648242	0.008690362	-2.16919e-05	-2.531156e-06	-0.03266315	-0.06412199
1.6e+08	-0.03716414	-0.06691917	-6.108559e-05	1.048017e-06	0.007416458	0.008674067	7.163894e-05	-2.094371e-05
	-6.108559e-05	1.048017e-06	-0.03790245	-0.06628816	-1.760663e-06	3.703501e-07	0.007179942	0.008859669
	0.007416458	0.008674067	-1.760663e-06	3.703501e-07	-0.03764963	-0.06662752	-2.224416e-05	-1.548762e-06
	7.163894e-05	-2.094371e-05	0.007179942	0.008859669	-2.224416e-05	-1.548762e-06	-0.03793973	-0.06621763
1.7e+08	-0.04256457	-0.06865733	-6.101664e-05	3.153207e-06	0.008136059	0.008746591	8.244098e-05	-3.821498e-05
	-6.101664e-05	3.153207e-06	-0.04333345	-0.06795144	-1.744858e-06	3.862734e-07	0.007881637	0.008966839
	0.008136059	0.008746591	-1.744858e-06	3.862734e-07	-0.04303896	-0.0683529	-2.271141e-05	-4.654317e-07
	8.244098e-05	-3.821498e-05	0.007881637	0.008966839	-2.271141e-05	-4.654317e-07	-0.04337748	-0.06787163
1.8e+08	-0.04809049	-0.06995042	-6.086089e-05	5.312439e-06	0.008852841	0.008754632	9.149992e-05	-5.706889e-05
	-6.086089e-05	5.312439e-06	-0.04888714	-0.06916383	-1.728309e-06	4.069335e-07	0.008582031	0.009012141
	0.008852841	0.008754632	-1.728309e-06	4.069335e-07	-0.04855438	-0.06963327	-2.30797e-05	7.063558e-07
	9.149992e-05	-5.706889e-05	0.008582031	0.009012141	-2.30797e-05	7.063558e-07	-0.04893777	-0.06907365
1.9e+08	-0.05370383	-0.07079114	-6.060267e-05	7.519074e-06	0.009561108	0.00869904	9.858295e-05	-7.735625e-05
	-6.060267e-05	7.519074e-06	-0.05452473	-0.06991825	-1.710543e-06	4.316047e-07	0.009275737	0.008996315
	0.009561109	0.00869904	-1.710543e-06	4.316047e-07	-0.05415761	-0.07046116	-2.333723e-05	1.952437e-06
	9.858295e-05	-7.735625e-05	0.009275737	0.008996316	-2.333723e-05	1.952437e-06	-0.05458165	-0.06981661
2e+08	-0.05936643	-0.07117535	-6.02291e-05	9.76318e-06	0.01025531	0.008581159	0.000103481	-9.888993e-05
	-6.02291e-05	9.76318e-06	-0.06020735	-0.07021087	-1.691122e-06	4.596132e-07	0.009957498	0.008920562
	0.01025531	0.008581159	-1.691122e-06	4.596131e-07	-0.05981029	-0.07083235	-2.34744e-05	3.257357e-06
	0.000103481	-9.888993e-05	0.009957498	0.008920562	-2.34744e-05	3.257357e-06	-0.06027012	-0.07009672
2.1e+08	-0.06504025	-0.07110208	-5.972994e-05	1.203257e-05	0.01093006	0.008402807	0.0001060111	-0.0001214508
	-5.972994e-05	1.203257e-05	-0.06589626	-0.07004107	-1.669661e-06	4.903103e-07	0.01062223	0.008786519
	0.01093006	0.008402807	-1.669661e-06	4.903103e-07	-0.06547419	-0.07074577	-2.348395e-05	4.604747e-06
	0.0001060111	-0.0001214508	0.01062223	0.008786519	-2.348395e-05	4.604747e-06	-0.06596431	-0.06991341
2.2e+08	-0.07068759	-0.07057342	-5.909755e-05	1.431347e-05	0.01158023	0.00816625	0.0001060199	-0.000144793
	-5.909755e-05	1.431347e-05	-0.07155312	-0.06941141	-1.64583e-06	5.230565e-07	0.01126506	0.008596243
	0.01158023	0.00816625	-1.64583e-06	5.230565e-07	-0.07111146	-0.07020349	-2.336094e-05	5.977652e-06
	0.0001060199	-0.000144793	0.01126506	0.008596243	-2.336094e-05	5.977652e-06	-0.07162574	-0.06926929
2.3e+08	-0.07627131	-0.06959451	-5.832679e-05	1.659104e-05	0.01220092	0.007874179	0.0001033853	-0.0001686497
	-5.832679e-05	1.659104e-05	-0.07714017	-0.06832756	-1.619363e-06	5.572116e-07	0.01188135	0.008352177
	0.01220092	0.007874179	-1.619363e-06	5.572116e-07	-0.0766848	-0.06921065	-2.310278e-05	7.35884e-06
	0.0001033853	-0.0001686497	0.01188135	0.008352178	-2.310278e-05	7.35884e-06	-0.07721655	-0.06817009
2.4e+08	-0.08175507	-0.06817344	-5.741493e-05	1.885001e-05	0.01278755	0.007529674	9.801804e-05	-0.0001927363
	-5.741493e-05	1.885001e-05	-0.08262054	-0.0667982	-1.590072e-06	5.921356e-07	0.01246674	0.008057131
	0.01278755	0.007529674	-1.590072e-06	5.921356e-07	-0.08215774	-0.06777534	-2.270913e-05	8.731156e-06
	9.801804e-05	-0.0001927363	0.01246674	0.008057131	-2.270913e-05	8.731156e-06	-0.08269975	-0.06662459
2.5e+08	-0.08710353	-0.06632116	-5.636153e-05	2.107486e-05	0.01333584	0.007136174	8.986389e-05	-0.0002167568
	-5.636153e-05	2.107486e-05	-0.08795838	-0.06483494	-1.557845e-06	6.271882e-07	0.01301715	0.007714243
	0.01333584	0.007136174	-1.557845e-06	6.271882e-07	-0.08749481	-0.06590853	-2.21819e-05	1.007776e-05
	8.986389e-05	-0.0002167568	0.01301715	0.007714243	-2.21819e-05	1.007776e-05	-0.0880394	-0.06464448
2.6e+08	-0.09228258	-0.06405136	-5.516832e-05	2.325028e-05	0.01384187	0.00669744	7.890361e-05	-0.0002404075
	-5.516832e-05	2.325028e-05	-0.09311916	-0.06245218	-1.522657e-06	6.617365e-07	0.01352883	0.007326951
	0.01384187	0.00669744	-1.522657e-06	6.617365e-07	-0.09266175	-0.06362397	-2.152505e-05	1.138242e-05
	7.890361e-05	-0.0002404075	0.01352883	0.007326951	-2.152505e-05	1.138242e-05	-0.09320087	-0.06224426
2.7e+08	-0.0972595	-0.06138034	-5.383904e-05	2.536139e-05	0.01430208	0.006217523	6.515431e-05	-0.0002633825
	-5.383904e-05	2.536139e-05	-0.09806982	-0.059667	-1.484564e-06	6.951595e-07	0.01399837	0.006898964
	0.01430208	0.006217523	-1.484564e-06	6.951595e-07	-0.09762575	-0.06093803	-2.074452e-05	1.262972e-05
	6.515431e-05	-0.0002633825	0.01399837	0.006898964	-2.074452e-05	1.262972e-05	-0.09815101	-0.05944112
2.8e+08	-0.1020032	-0.05832688	-5.237935e-05	2.739406e-05	0.01471331	0.005700721	4.866788e-05	-0.0002853766
	-5.237935e-05	2.739406e-05	-0.1027789	-0.05649896	-1.443718e-06	7.268649e-07	0.0144227	0.006434221
	0.01471331	0.005700721	-1.443718e-06	7.268649e-07	-0.1023556	-0.05786957	-1.984804e-05	1.380532e-05
	4.866788e-05	-0.0002853766	0.0144227	0.006434221	-1.984804e-05	1.380532e-05	-0.1028584	-0.05625476
2.9e+08	-0.1064842	-0.0549121	-5.079655e-05	2.933507e-05	0.01507279	0.005151553	2.953125e-05	-0.0003060908
	-5.079655e-05	2.933507e-05	-0.107217	-0.05297003	-1.400352e-06	7.562952e-07	0.01479912	0.005936868
	0.01507279	0.005151553	-1.400352e-06	7.562952e-07	-0.1068218	-0.05443979	-1.884496e-05	1.489612e-05
	2.953125e-05	-0.0003060908	0.01479912	0.005936868	-1.884496e-05	1.489612e-05	-0.1072934	-0.05270725
3e+08	-0.1106752	-0.05115928	-4.909947e-05	3.117224e-05	0.01537815	0.004574711	7.865759e-06	-0.0003252369
	-4.909947e-05	3.117224e-05	-0.1113565	-0.04910434	-1.354784e-06	7.829374e-07	0.01512529	0.005411216
	0.01537815	0.004574711	-1.354784e-06	7.829374e-07	-0.1109969	-0.05067207	-1.774604e-05	1.589038e-05
	7.865759e-06	-0.0003252369	0.01512529	0.005411216	-1.774604e-05	1.589038e-05	-0.1114284	-0.04882285
3.1e+08	-0.1145509	-0.04709365	-4.729826e-05	3.289469e-05	0.01562744	0.003975034	-1.617612e-05	-0.000342539
	-4.729826e-05	3.289469e-05	-0.115172	-0.04492801	-1.307407e-06	8.063413e-07	0.01539925	0.004861716
	0.01562744	0.003975034	-1.307407e-06	8.063413e-07	-0.1148554	-0.04659178	-1.656326e-05	1.677793e-05
	-1.617612e-05	-0.000342539	0.01539925	0.004861716	-1.656326e-05	1.677793e-05	-0.115238	-0.04462783
3.2e+08	-0.1180879	-0.04274231	-4.540415e-05	3.449284e-05	0.01581913	0.003357467	-4.241132e-05	-0.0003577384
	-4.540415e-05	3.449284e-05	-0.1186404	-0.04046901	-1.258685e-06	8.261228e-07	0.01561944	0.004292922
	0.01581913	0.003357467	-1.258685e-06	8.261228e-07	-0.1183741	-0.04222613	-1.530958e-05	1.755018e-05
	-4.241132e-05	-0.0003577384	0.01561944	0.004292922	-1.530958e-05	1.755018e-05	-0.1186991	-0.0401503
3.3e+08	-0.1212656	-0.03813395	-4.34295e-05	3.595866e-05	0.01595212	0.002727029	-7.062451e-05	-0.0003706117
	-4.34295e-05	3.595866e-05	-0.121741	-0.0357569	-1.209135e-06	8.419799e-07	0.01578466	0.003709467
	0.01595212	0.002727029	-1.209135e-06	8.419799e-07	-0.1215322	-0.03760394	-1.39989e-05	1.820029e-05
	-7.062451e-05	-0.0003706117	0.01578466	0.003709467	-1.39989e-05	1.820029e-05	-0.1217911	-0.03541996
3.4e+08	-0.1240653	-0.0332987	-4.134025e-05	3.72594e-05	0.0160257	0.002088779	-0.000101901	-0.0003756208
	-4.134025e-05	3.72594e-05	-0.1244557	-0.03082271	-1.159872e-06	8.533765e-07	0.01589409	0.003116027
	0.0160257	0.002088779	-1.159872e-06	8.533765e-07	-0.1243112	-0.0327555	-1.259976e-05	1.869426e-05
	-0.000101901	-0.0003756208	0.01589409	0.003116027	-1.259976e-05	1.869426e-05	-0.1244956	-0.03046798
3.5e+08	-0.1264713	-0.02826792	-3.919193e-05	3.840578e-05	0.01603961	0.001447787	-0.000134373	-0.0003770282
	-3.919193e-05	3.840578e-05	-0.1267687	-0.02569864	-1.111139e-06	8.605372e-07	0.01594729	0.002517299
	0.01603961	0.001447787	-1.111139e-06	8.605372e-07	-0.126695	-0.02771231	-1.116841e-05	1.904674e-05
	-0.000134373	-0.0003770282	0.01594729	0.002517299	-1.116841e-05	1.904674e-05	-0.1267971	-0.02532671
3.6e+08	-0.12847	-0.02307403	-3.700625e-05	3.939795e-05	0.01599397	0.0008090999	-0.0001675276	-0.0003754942
	-3.700625e-05	3.939795e-05	-0.1286671	-0.02041794	-1.063472e-06	8.635149e-07	0.01594419	0.00191797
	0.01599397	0.0008090999	-1.063472e-06	8.635149e-07	-0.1286704	-0.02250693	-9.727474e-06	1.92602e-05
	-0.0001675276	-0.0003754942	0.01594419	0.00191797	-9.727474e-06	1.92602e-05	-0.1286828	-0.02002954
3.7e+08	-0.1300508	-0.01775027	-3.4798e-05	4.023422e-05	0.01588931	0.0001777141	-0.0002010683	-0.0003709233
	-3.4798e-05	4.023422e-05	-0.1301407	-0.01501466	-1.01748e-06	8.624076e-07	0.0158851	0.001322692
	0.01588931	0.0001777141	-1.01748e-06	8.624076e-07	-0.1302265	-0.01717277	-8.29255e-06	1.933505e-05
	-0.0002010683	-0.0003709233	0.0158851	0.001322692	-8.29255e-06	1.933505e-05	-0.1301422	-0.01461066
3.8e+08	-0.1312054	-0.01233054	-3.258195e-05	4.091451e-05	0.01572656	-0.0004414534	-0.0002346879	-0.0003632527
	-3.258195e-05	4.091451e-05	-0.1311819	-0.009523435	-9.737554e-07	8.574105e-07	0.01577066	0.0007360586
	0.01572656	-0.0004414534	-9.737554e-07	8.574105e-07	-0.1313554	-0.01174385	-6.878992e-06	1.927349e-05
	-0.0002346879	-0.0003632527	0.01577066	0.0007360586	-6.878992e-06	1.927349e-05	-0.1311681	-0.009104835
3.9e+08	-0.1319286	-0.006849142	-3.037266e-05	4.144034e-05	0.01550703	-0.001043592	-0.0002680723	-0.0003524527
	-3.037266e-05	4.144034e-05	-0.131786	-0.003979284	-9.328594e-07	8.488146e-07	0.01560189	0.0001625796
	0.01550703	-0.001043592	-9.328594e-07	8.488146e-07	-0.1320517	-0.006254649	-5.50171e-06	1.907943e-05
	-0.0002680723	-0.0003524527	0.01560189	0.0001625796	-5.50171e-06	1.907943e-05	-0.1317556	-0.003547231
4e+08	-0.1322175	-0.001340633	-2.818441e-05	4.181475e-05	0.01523241	-0.001624022	-0.0003009045	-0.0003385284
	-2.818441e-05	4.181475e-05	-0.131951	0.001582586	-8.953079e-07	8.369969e-07	0.01538014	-0.0003933405
	0.01523241	-0.001624022	-8.953079e-07	8.369969e-07	-0.1323127	-0.0007398522	-4.17502e-06	1.87584e-05
	-0.0003009045	-0.0003385284	0.01538014	-0.0003933405	-4.17502e-06	1.87584e-05	-0.1319029	0.00202683
4.1e+08	-0.1320721	0.004160413	-2.603095e-05	4.204226e-05	0.01490472	-0.002178222	-0.0003328681	-0.0003215189
	-2.603095e-05	4.204226e-05	-0.1316775	0.007127017	-8.615584e-07	8.224173e-07	0.01510708	-0.0009274251
	0.01490472	-0.002178222	-8.615584e-07	8.224173e-07	-0.1321385	0.004765825	-2.912465e-06	1.831751e-05
	-0.0003328681	-0.0003215189	0.01510708	-0.0009274251	-2.912465e-06	1.831751e-05	-0.131611	0.007582068
4.2e+08	-0.1314952	0.009619587	-2.392542e-05	4.212884e-05	0.01452637	-0.002701852	-0.0003636513	-0.0003014969
	-2.392542e-05	4.212884e-05	-0.1309693	0.01261908	-8.319968e-07	8.056081e-07	0.01478472	-0.001435547
	0.01452637	-0.002701852	-8.319968e-07	8.056081e-07	-0.1315319	0.01022784	-1.726656e-06	1.776533e-05
	-0.0003636513	-0.0003014969	0.01478472	-0.001435547	-1.726656e-06	1.776533e-05	-0.1308834	0.01308345
4.3e+08	-0.1304921	0.01500285	-2.188017e-05	4.208179e-05	0.01410008	-0.003190774	-0.0003929507	-0.0002785689
	-2.188017e-05	4.208179e-05	-0.1298325	0.01802429	-8.069279e-07	7.871593e-07	0.01441537	-0.001913748
	0.01410008	-0.003190774	-8.069279e-07	7.871593e-07	-0.1304983	0.01561205	-6.291442e-07	1.711178e-05
	-0.0003929507	-0.0002785689	0.01441537	-0.001913748	-6.291442e-07	1.711178e-05	-0.1297264	0.01849639
4.4e+08	-0.1290706	0.02027674	-1.990666e-05	4.19096e-05	0.01362888	-0.00364108	-0.0004204745	-0.0002528738
	-1.990666e-05	4.19096e-05	-0.1282761	0.02330883	-7.86567e-07	7.677055e-07	0.01400165	-0.002358261
	0.01362888	-0.00364108	-7.86567e-07	7.677055e-07	-0.1290459	0.02088485	3.697222e-07	1.636799e-05
	-0.0004204745	-0.0002528738	0.01400165	-0.002358261	3.697222e-07	1.636799e-05	-0.1281493	0.02378698
4.5e+08	-0.1272414	0.02540853	-1.801534e-05	4.162196e-05	0.01311611	-0.004049107	-0.0004459465	-0.0002245811
	-1.801534e-05	4.162196e-05	-0.1263115	0.02843969	-7.710342e-07	7.479111e-07	0.01354644	-0.002765528
	0.01311611	-0.004049107	-7.710342e-07	7.479111e-07	-0.1271854	0.02601344	1.260909e-06	1.55462e-05
	-0.0004459465	-0.0002245811	0.01354644	-0.002765528	1.260909e-06	1.55462e-05	-0.1261636	0.02892214
4.6e+08	-0.1250175	0.03036646	-1.621551e-05	4.122958e-05	0.01256541	-0.004411464	-0.000469109	-0.0001938893
	-1.621551e-05	4.122958e-05	-0.1239529	0.03338491	-7.603493e-07	7.28462e-07	0.01305291	-0.003132219
	0.01256541	-0.004411464	-7.603493e-07	7.28462e-07	-0.1249299	0.03096596	2.036825e-06	1.465959e-05
	-0.000469109	-0.0001938893	0.01305291	-0.003132219	2.036825e-06	1.465959e-05	-0.1237836	0.03386986
4.7e+08	-0.1224143	0.03511988	-1.451524e-05	4.074408e-05	0.01198066	-0.004725047	-0.0004897263	-0.0001610238
	-1.451524e-05	4.074408e-05	-0.1212167	0.03811378	-7.544339e-07	7.100354e-07	0.01252449	-0.003455254
	0.01198066	-0.004725047	-7.544339e-07	7.100354e-07	-0.122295	0.0357117	2.691395e-06	1.372216e-05
