!$
! Info: Touchstone file created by Circ.  Input file=Tx_4in_Rx_100ohms_TxVia_10mils_RxVia_20mils.circ
!$
# Hz S RI R 50
0	0.004269685	3.30538e-26	-2.181138e-05	2.049352e-25	3.468886e-05	4.497915e-24	-2.183725e-05	3.015724e-24
	-2.181139e-05	2.05485e-25	0.004270362	4.450835e-26	-2.180446e-05	9.346248e-26	3.277378e-05	6.020526e-24
	3.338733e-05	4.382647e-24	-2.180446e-05	9.351005e-26	0.004285078	3.464437e-26	-2.181437e-05	3.935879e-25
	-2.183725e-05	3.015031e-24	3.423163e-05	6.196566e-24	-2.181436e-05	3.926297e-25	0.004275999	4.249186e-26
1e+07	0.00605775	0.003053771	-7.760237e-05	2.973422e-06	0.0002248791	0.0008425056	-2.941054e-05	-3.95191e-06
	-7.760237e-05	2.973421e-06	0.00612055	0.003051609	-8.122457e-06	4.848755e-05	0.0002235591	0.0008411902
	0.0002248351	0.0008425088	-8.122457e-06	4.848755e-05	0.006136959	0.003055001	-7.762311e-05	2.940026e-06
	-2.941054e-05	-3.951909e-06	0.0002235914	0.0008411788	-7.762311e-05	2.940026e-06	0.006073808	0.003056369
2e+07	0.007668681	0.004784693	-5.96629e-05	-3.01638e-05	0.0002681892	0.001742166	-2.285299e-05	-7.506242e-06
	-5.96629e-05	-3.01638e-05	0.007714343	0.004757325	-2.951976e-05	7.840123e-05	0.0002632574	0.001739979
	0.0002681792	0.001742193	-2.951976e-05	7.840123e-05	0.007735281	0.004763113	-5.969053e-05	-3.024061e-05
	-2.285298e-05	-7.506242e-06	0.0002632546	0.001739958	-5.969053e-05	-3.024061e-05	0.007682544	0.004788752
3e+07	0.009040273	0.005912931	-4.668408e-05	-4.143874e-05	0.0003948318	0.002563504	-1.8351e-05	-1.164415e-05
	-4.668408e-05	-4.143874e-05	0.009069361	0.005876367	-6.138265e-05	8.779451e-05	0.0003840398	0.002561161
	0.0003948324	0.002563508	-6.138265e-05	8.779451e-05	0.009097582	0.005883796	-4.672542e-05	-4.155726e-05
	-1.8351e-05	-1.164415e-05	0.0003840348	0.002561158	-4.672542e-05	-4.155726e-05	0.00905146	0.00592013
4e+07	0.01031353	0.006771396	-3.640863e-05	-4.777502e-05	0.000606369	0.00334854	-1.471306e-05	-1.37963e-05
	-3.640863e-05	-4.777502e-05	0.01032524	0.006730316	-8.847841e-05	9.136226e-05	0.0005875397	0.003346963
	0.0006063651	0.003348538	-8.847841e-05	9.136226e-05	0.01036342	0.006738154	-3.646261e-05	-4.793973e-05
	-1.471306e-05	-1.37963e-05	0.0005875392	0.003346964	-3.646261e-05	-4.793973e-05	0.01032121	0.006780405
5e+07	0.01153555	0.007439474	-2.779341e-05	-5.173959e-05	0.0009565055	0.00408484	-1.159157e-05	-1.505295e-05
	-2.779341e-05	-5.173959e-05	0.01152874	0.007397145	-0.0001130063	9.196703e-05	0.0009275744	0.004085156
	0.0009565039	0.004084839	-0.0001130063	9.196703e-05	0.01157931	0.007403749	-2.786046e-05	-5.19545e-05
	-1.159157e-05	-1.505295e-05	0.0009275739	0.004085156	-2.786046e-05	-5.19545e-05	0.0115373	0.007450311
6e+07	0.01272636	0.007954229	-2.027111e-05	-5.420778e-05	0.00135964	0.004782127	-8.802035e-06	-1.578868e-05
	-2.027111e-05	-5.420778e-05	0.01269988	0.007913545	-0.00013618	9.065431e-05	0.00131873	0.004785777
	0.001359646	0.004782125	-0.00013618	9.065431e-05	0.01276497	0.007916979	-2.035221e-05	-5.447718e-05
	-8.802035e-06	-1.578868e-05	0.001318727	0.004785777	-2.035221e-05	-5.447718e-05	0.01272045	0.007967862
7e+07	0.013895	0.008336689	-2.404974e-05	-5.222853e-05	0.001813286	0.005437433	-6.176731e-06	-1.60884e-05
	-2.404975e-05	-5.222853e-05	0.01384778	0.008300472	-0.0001587913	8.784008e-05	0.001758705	0.005446056
	0.001813297	0.005437427	-0.0001587913	8.784008e-05	0.01392923	0.008298584	-2.414639e-05	-5.254911e-05
	-6.176731e-06	-1.60884e-05	0.0017587	0.005446059	-2.414639e-05	-5.254911e-05	0.01388019	0.0083539
8e+07	0.01504526	0.008600676	-3.46573e-05	-4.585039e-05	0.002314232	0.00604717	-8.060404e-06	-1.441017e-05
	-3.46573e-05	-4.585039e-05	0.01497645	0.008571816	-0.0001815713	8.336955e-05	0.002244465	0.00606259
	0.002314243	0.006047159	-0.0001815713	8.336955e-05	0.01507578	0.008562287	-3.476547e-05	-4.622072e-05
	-8.060404e-06	-1.441017e-05	0.00224446	0.006062594	-3.476547e-05	-4.622072e-05	0.01502016	0.008622016
9e+07	0.01617845	0.008756943	-4.359796e-05	-3.714154e-05	0.002858519	0.006607235	-1.077431e-05	-1.154336e-05
	-4.359796e-05	-3.714154e-05	0.01608745	0.008738533	-0.0002055326	7.62466e-05	0.00277224	0.006631459
	0.002858525	0.006607226	-0.0002055326	7.62466e-05	0.01620592	0.008718912	-4.371815e-05	-3.756539e-05
	-1.077431e-05	-1.154336e-05	0.002772237	0.006631463	-4.371815e-05	-3.756539e-05	0.01614129	0.008783111
1e+08	0.01729764	0.008820884	-4.98221e-05	-2.42974e-05	0.003440095	0.007110362	-1.250214e-05	-7.366484e-06
	-4.98221e-05	-2.42974e-05	0.01718459	0.008817022	-0.0002339863	6.03563e-05	0.003336175	0.007145576
	0.003440095	0.007110362	-0.0002339863	6.03563e-05	0.01732319	0.00878474	-4.995364e-05	-2.478085e-05
	-1.250214e-05	-7.366484e-06	0.003336176	0.007145576	-4.995364e-05	-2.478085e-05	0.01724647	0.008853034
1.1e+08	0.01842709	0.008757393	-4.753138e-05	-1.496942e-05	0.004042516	0.007568743	-1.136945e-05	-4.4581e-06
	-4.753138e-05	-1.496942e-05	0.01829449	0.008769633	-0.0002399378	3.593447e-05	0.003919707	0.007616901
	0.004042516	0.007568743	-0.0002399378	3.593447e-05	0.01845556	0.008721337	-4.768166e-05	-1.551879e-05
	-1.136945e-05	-4.4581e-06	0.003919707	0.007616901	-4.768166e-05	-1.551879e-05	0.0183608	0.008798918
1.2e+08	0.01951685	0.008584654	-4.629831e-05	-9.006213e-06	0.004681204	0.007979375	-1.062586e-05	-2.7056e-06
	-4.629831e-05	-9.006213e-06	0.01936385	0.008613592	-0.0002427079	2.275539e-05	0.004539115	0.008043232
	0.004681204	0.007979375	-0.0002427079	2.275539e-05	0.0195469	0.008546142	-4.647624e-05	-9.62236e-06
	-1.062586e-05	-2.7056e-06	0.004539115	0.008043232	-4.647624e-05	-9.62236e-06	0.01943469	0.00863702
1.3e+08	0.02056845	0.008316957	-4.532167e-05	-4.14776e-06	0.00534978	0.008335046	-9.987019e-06	-1.366587e-06
	-4.532167e-05	-4.14776e-06	0.02039469	0.008364342	-0.0002449272	1.386464e-05	0.005188281	0.008417275
	0.00534978	0.008335047	-0.0002449272	1.386464e-05	0.02059913	0.008274926	-4.553501e-05	-4.832257e-06
	-9.987019e-06	-1.366587e-06	0.005188281	0.008417275	-4.553501e-05	-4.832257e-06	0.02046975	0.008381847
1.4e+08	0.02157973	0.007960526	-4.443604e-05	9.226552e-08	0.006042958	0.008632579	-9.399448e-06	-2.825719e-07
	-4.443604e-05	9.226551e-08	0.02138505	0.008028434	-0.0002469593	7.689273e-06	0.005862166	0.008735805
	0.006042958	0.00863258	-0.0002469593	7.689273e-06	0.02161015	0.007914424	-4.469296e-05	-6.617026e-07
	-9.399448e-06	-2.825719e-07	0.005862166	0.008735805	-4.469296e-05	-6.617025e-07	0.02146389	0.008039838
1.5e+08	0.02254754	0.007520359	-4.356298e-05	3.938879e-06	0.006755454	0.00886975	-8.842715e-06	6.222824e-07
	-4.356298e-05	3.938879e-06	0.02233198	0.007611059	-0.000248909	3.471262e-06	0.006555737	0.008996567
	0.006755454	0.00886975	-0.000248909	3.471262e-06	0.02257693	0.007469926	-4.387214e-05	3.115056e-06
	-8.842715e-06	6.222824e-07	0.006555737	0.008996567	-4.387214e-05	3.115056e-06	0.02241416	0.007616174
1.6e+08	0.02346828	0.007001083	-4.265341e-05	7.516035e-06	0.007481909	0.00904497	-8.306741e-06	1.391473e-06
	-4.265341e-05	7.516035e-06	0.02323213	0.007116974	-0.000250801	7.59811e-07	0.007263891	0.009197945
	0.007481909	0.00904497	-0.000250801	7.59811e-07	0.02349596	0.006946232	-4.302401e-05	6.622872e-06
	-8.306741e-06	1.391473e-06	0.007263891	0.009197945	-4.302401e-05	6.622872e-06	0.0233172	0.007115614
1.7e+08	0.02433815	0.006407259	-4.167197e-05	1.089735e-05	0.008216896	0.009157194	-7.786008e-06	2.052786e-06
	-4.167197e-05	1.089735e-05	0.02408197	0.006550826	-0.0002526297	-7.47188e-07	0.007981462	0.009338851
	0.008216896	0.009157194	-0.0002526297	-7.47188e-07	0.02436353	0.00634802	-4.211361e-05	9.93638e-06
	-7.786008e-06	2.052786e-06	0.007981462	0.009338851	-4.211361e-05	9.93638e-06	0.02416947	0.006542816
1.8e+08	0.02515331	0.00574354	-4.059131e-05	1.412719e-05	0.008954945	0.009205889	-7.277333e-06	2.625248e-06
	-4.059131e-05	1.412719e-05	0.02487794	0.005917297	-0.0002543779	-1.268558e-06	0.008703247	0.009418688
	0.008954945	0.009205889	-0.0002543779	-1.268558e-06	0.02517585	0.005680013	-4.111389e-05	1.310108e-05
	-7.277333e-06	2.625248e-06	0.008703247	0.009418688	-4.111389e-05	1.310108e-05	0.0249674	0.005902484
1.9e+08	0.02591	0.005014736	-3.93895e-05	1.723139e-05	0.009690575	0.009191009	-6.778846e-06	3.122551e-06
	-3.93895e-05	1.723139e-05	0.02561658	0.005221187	-0.0002560252	-9.726483e-07	0.009424033	0.009437326
	0.009690575	0.009191009	-0.0002560252	-9.726483e-07	0.02592922	0.004947066	-4.000311e-05	1.614403e-05
	-6.778846e-06	3.122551e-06	0.009424033	0.009437326	-4.000311e-05	1.614403e-05	0.02570751	0.005199431
2e+08	0.02660461	0.004225825	-3.804891e-05	2.022315e-05	0.01041833	0.009112995	-6.289452e-06	3.554937e-06
	-3.804891e-05	2.022315e-05	0.02629457	0.00446742	-0.0002575523	5.085706e-09	0.01013863	0.009395092
	0.01041833	0.009112995	-0.0002575523	5.085705e-09	0.02662006	0.0041542	-3.876363e-05	1.907967e-05
	-6.289452e-06	3.554937e-06	0.01013863	0.009395092	-3.876363e-05	1.907967e-05	0.02638649	0.004438612
2.1e+08	0.02723375	0.003381977	-3.655553e-05	2.310673e-05	0.01113283	0.008972755	-5.808558e-06	3.930297e-06
	-3.655553e-05	2.310673e-05	0.02690883	0.00366107	-0.000258943	1.551853e-06	0.0108419	0.009292756
	0.01113283	0.008972755	-0.000258943	1.551853e-06	0.02724502	0.003306615	-3.738134e-05	2.19136e-05
	-5.808558e-06	3.930297e-06	0.0108419	0.009292756	-3.738134e-05	2.19136e-05	0.02700124	0.003625124
2.2e+08	0.0277943	0.002488543	-3.489888e-05	2.587982e-05	0.01182878	0.008771661	-5.335893e-06	4.254869e-06
	-3.489888e-05	2.587982e-05	0.02745653	0.002807353	-0.0002601856	3.57147e-06	0.01152881	0.009131522
	0.01182878	0.008771661	-0.0002601856	3.57147e-06	0.02780099	0.002409689	-3.584539e-05	2.464485e-05
	-5.335893e-06	4.254869e-06	0.01152881	0.009131522	-3.584539e-05	2.464485e-05	0.02754892	0.002764216
2.3e+08	0.02828347	0.00155105	-3.307184e-05	2.853519e-05	0.01250104	0.008511532	-4.871396e-06	4.533699e-06
	-3.307184e-05	2.853519e-05	0.02793514	0.001911627	-0.0002612725	5.980348e-06	0.01219444	0.008913017
	0.01250104	0.008511532	-0.0002612725	5.980348e-06	0.0282852	0.001468986	-3.414819e-05	2.726748e-05
	-4.871396e-06	4.533699e-06	0.01219444	0.008913017	-3.414819e-05	2.726748e-05	0.02802698	0.001861284
2.4e+08	0.02869878	0.0005751719	-3.107041e-05	3.106217e-05	0.01314462	0.008194621	-4.415172e-06	4.770932e-06
	-3.107041e-05	3.106217e-05	0.02834244	0.0009793541	-0.0002622023	8.70528e-06	0.01283404	0.008639278
	0.01314462	0.008194621	-0.0002622023	8.70528e-06	0.02869518	0.0004902092	-3.228506e-05	2.977217e-05
	-4.415172e-06	4.770932e-06	0.01283404	0.008639278	-3.228506e-05	2.977217e-05	0.0284332	0.0009218323
2.5e+08	0.02903813	-0.0004332843	-2.889391e-05	3.344749e-05	0.01375479	0.007823598	-3.96742e-06	4.970049e-06
	-2.889391e-05	3.344749e-05	0.02867656	1.611283e-05	-0.0002629776	1.16817e-05	0.01344303	0.008312733
	0.01375479	0.007823598	-0.0002629776	1.16817e-05	0.02902886	-0.0005207948	-3.025446e-05	3.214684e-05
	-3.96742e-06	4.970049e-06	0.01344303	0.008312733	-3.025446e-05	3.214684e-05	0.02876571	-4.851611e-05
2.6e+08	0.02929978	-0.001468406	-2.654476e-05	3.567619e-05	0.01432702	0.007401528	-3.528419e-06	5.134008e-06
	-2.654476e-05	3.567619e-05	0.02893598	-0.0009724442	-0.0002636066	1.485292e-05	0.01401708	0.007936185
	0.01432702	0.007401528	-0.0002636066	1.485292e-05	0.02928453	-0.001558077	-2.805779e-05	3.437773e-05
	-3.528419e-06	5.134008e-06	0.01401709	0.007936185	-2.805779e-05	3.437773e-05	0.029023	-0.001044066
2.7e+08	0.02948243	-0.002524192	-2.402858e-05	3.773227e-05	0.01485707	0.006931849	-3.098485e-06	5.265367e-06
	-2.402858e-05	3.773227e-05	0.02911957	-0.001980607	-0.000264101	1.816895e-05	0.01455211	0.007512792
	0.01485707	0.006931849	-0.000264101	1.816895e-05	0.02946089	-0.002615606	-2.569947e-05	3.644987e-05
	-3.098485e-06	5.265367e-06	0.01455211	0.007512792	-2.569947e-05	3.644987e-05	0.02920391	-0.00205906
2.8e+08	0.02958513	-0.003594586	-2.13539e-05	3.959944e-05	0.01534101	0.006418349	-2.677995e-06	5.366361e-06
	-2.13539e-05	3.959944e-05	0.02922654	-0.003002621	-0.0002644775	2.158716e-05	0.01504429	0.007046045
	0.01534101	0.006418349	-0.0002644775	2.158716e-05	0.02955704	-0.003687281	-2.318671e-05	3.834791e-05
	-2.677995e-06	5.366361e-06	0.01504429	0.007046045	-2.318671e-05	3.834791e-05	0.02930771	-0.003087692
2.9e+08	0.02960738	-0.004673501	-1.853217e-05	4.126156e-05	0.01577527	0.005865135	-2.267345e-06	5.438974e-06
	-1.853217e-05	4.126156e-05	0.02925651	-0.004032724	-0.0002647562	2.507136e-05	0.01549013	0.006539741
	0.01577527	0.005865135	-0.0002647562	2.507136e-05	0.02957251	-0.004766989	-2.052946e-05	4.00565e-05
	-2.267345e-06	5.438974e-06	0.01549013	0.006539741	-2.052946e-05	4.00565e-05	0.029334	-0.004124157
3e+08	0.0295491	-0.005754853	-1.557761e-05	4.270316e-05	0.0161566	0.005276607	-1.86694e-06	5.484987e-06
	-1.557761e-05	4.270316e-05	0.02920948	-0.005065168	-0.0002649598	2.859136e-05	0.01588647	0.005997955
	0.0161566	0.005276607	-0.0002649598	2.859136e-05	0.02950725	-0.005848609	-1.774035e-05	4.156079e-05
	-1.86694e-06	5.484987e-06	0.01588647	0.005997955	-1.774035e-05	4.156079e-05	0.02928282	-0.005162659
3.1e+08	0.02941061	-0.006832575	-1.250687e-05	4.390995e-05	0.01648216	0.004657424	-1.477218e-06	5.506018e-06
	-1.250687e-05	4.390995e-05	0.02908584	-0.006094235	-0.0002651142	3.212419e-05	0.01623049	0.005425017
	0.01648216	0.004657424	-0.0002651142	3.212419e-05	0.02936164	-0.006926049	-1.483435e-05	4.28469e-05
	-1.477218e-06	5.506018e-06	0.01623049	0.005425017	-1.483435e-05	4.28469e-05	0.02915457	-0.006197437
3.2e+08	0.02919267	-0.007900665	-9.338963e-06	4.48691e-05	0.01674952	0.00401247	-1.098613e-06	5.503555e-06
	-9.338963e-06	4.48691e-05	0.02888637	-0.007114278	-0.0002652466	3.565271e-05	0.01651976	0.004825474
	0.01674952	0.00401247	-0.0002652466	3.565271e-05	0.02913649	-0.007993284	-1.182871e-05	4.390226e-05
	-1.098613e-06	5.503555e-06	0.01651976	0.004825474	-1.182871e-05	4.390226e-05	0.02895008	-0.007222799
3.3e+08	0.02889645	-0.008953203	-6.094978e-06	4.556964e-05	0.01695665	0.003346821	-7.315566e-07	5.478981e-06
	-6.094978e-06	4.556964e-05	0.02861223	-0.008119738	-0.0002653852	3.916551e-05	0.01675222	0.004204064
	0.01695665	0.003346821	-0.0002653852	3.916551e-05	0.028833	-0.009044376	-8.742686e-06	4.471592e-05
	-7.315566e-07	5.478981e-06	0.01675222	0.004204064	-8.742686e-06	4.471592e-05	0.02867053	-0.008233149
3.4e+08	0.02852356	-0.00998438	-2.797683e-06	4.60028e-05	0.01710198	0.002665709	-3.76497e-07	5.433597e-06
	-2.797683e-06	4.60028e-05	0.02826497	-0.009105163	-0.0002655595	4.265821e-05	0.01692623	0.003565678
	0.01710198	0.002665709	-0.0002655595	4.265821e-05	0.02845284	-0.0100735	-5.597221e-06	4.527894e-05
	-3.76497e-07	5.433597e-06	0.01692623	0.003565678	-5.597221e-06	4.527894e-05	0.02831751	-0.009223
3.5e+08	0.02807598	-0.01098853	5.286825e-07	4.61622e-05	0.01718438	0.00197448	-3.386746e-08	5.368636e-06
	5.286825e-07	4.61622e-05	0.0278465	-0.01006525	-0.000265798	4.61317e-05	0.01704058	0.002915331
	0.01718438	0.00197448	-0.000265798	4.61317e-05	0.02799806	-0.01107498	-2.414718e-06	4.558451e-05
	-3.386746e-08	5.368636e-06	0.01704058	0.002915331	-2.414718e-06	4.558451e-05	0.02789298	-0.01018702
3.6e+08	0.02755612	-0.01196017	3.858824e-06	4.604408e-05	0.01720319	0.001278561	2.958963e-07	5.285283e-06
	3.858824e-06	4.604408e-05	0.02735909	-0.01099486	-0.0002661289	4.959325e-05	0.01709445	0.002258121
	0.01720319	0.001278561	-0.0002661289	4.959325e-05	0.02747111	-0.01204333	7.81332e-07	4.562827e-05
	2.958963e-07	5.285283e-06	0.01709445	0.002258121	7.81332e-07	4.562827e-05	0.02739925	-0.01112003
3.7e+08	0.02696675	-0.012894	7.166682e-06	4.564745e-05	0.01715819	0.0005834195	6.123731e-07	5.184683e-06
	7.166682e-06	4.564745e-05	0.02680539	-0.01188904	-0.0002665788	5.305532e-05	0.01708748	0.001599196
	0.01715819	0.0005834195	-0.0002665788	5.305532e-05	0.02687482	-0.01297326	3.966614e-06	4.540838e-05
	6.123731e-07	5.184683e-06	0.01708748	0.001599196	3.966614e-06	4.540838e-05	0.026839	-0.01201706
3.8e+08	0.02631103	-0.01378496	1.042582e-05	4.49742e-05	0.01704965	-0.0001054773	9.151552e-07	5.067955e-06
	1.042582e-05	4.49742e-05	0.02618835	-0.01274307	-0.0002671721	5.653551e-05	0.01701974	0.000943718
	0.01704965	-0.0001054773	-0.0002671721	5.653551e-05	0.0262124	-0.0138597	7.116346e-06	4.492568e-05
	9.151552e-07	5.067955e-06	0.01701974	0.000943718	7.116346e-06	4.492568e-05	0.02621526	-0.01287336
3.9e+08	0.02559247	-0.01462823	1.360983e-05	4.402914e-05	0.01687828	-0.0007827005	1.203851e-06	4.936196e-06
	1.360983e-05	4.402914e-05	0.02551126	-0.01355243	-0.0002679304	6.005643e-05	0.01689173	0.0002968258
	0.01687828	-0.0007827005	-0.0002679304	6.005643e-05	0.02548744	-0.01469786	1.020566e-05	4.418373e-05
	1.203851e-06	4.936196e-06	0.01689173	0.0002968258	1.020566e-05	4.418373e-05	0.02553137	-0.01368441
4e+08	0.02481493	-0.01541929	1.669264e-05	4.282003e-05	0.01664528	-0.001442899	1.478092e-06	4.790491e-06
	1.669264e-05	4.282003e-05	0.02477775	-0.0143129	-0.0002688721	6.364467e-05	0.01670438	-0.0003364009
	0.01664528	-0.001442899	-0.0002688721	6.364467e-05	0.02470382	-0.01548323	1.320989e-05	4.318884e-05
	1.478092e-06	4.790491e-06	0.01670438	-0.0003364009	1.320989e-05	4.318884e-05	0.02479097	-0.01444598
4.1e+08	0.02398256	-0.0161539	1.964896e-05	4.135753e-05	0.01635227	-0.002080837	1.737533e-06	4.63192e-06
	1.964896e-05	4.135753e-05	0.02399168	-0.01502053	-0.0002700118	6.733107e-05	0.01645904	-0.0009509778
	0.01635227	-0.002080837	-0.0002700118	6.733107e-05	0.02386579	-0.01621159	1.610499e-05	4.195008e-05
	1.737533e-06	4.63192e-06	0.01645904	-0.0009509778	1.610499e-05	4.195008e-05	0.02399803	-0.01515409
4.2e+08	0.02309984	-0.01682815	2.245464e-05	3.96551e-05	0.01600133	-0.002691435	1.981858e-06	4.461562e-06
	2.245464e-05	3.96551e-05	0.02315721	-0.01567165	-0.0002713596	7.115024e-05	0.01615748	-0.00154205
	0.01600133	-0.002691435	-0.0002713596	7.115024e-05	0.02297783	-0.01687907	1.886785e-05	4.047914e-05
	1.981858e-06	4.461562e-06	0.01615748	-0.00154205	1.886785e-05	4.047914e-05	0.02315673	-0.01580509
4.3e+08	0.02217149	-0.0174385	2.508694e-05	3.772887e-05	0.01559496	-0.003269801	2.210786e-06	4.280496e-06
	2.508694e-05	3.772887e-05	0.02227875	-0.01626295	-0.0002729212	7.513939e-05	0.01580187	-0.002104929
	0.01559496	-0.003269801	-0.0002729212	7.513939e-05	0.02204475	-0.01748215	2.147661e-05	3.879027e-05
	2.210786e-06	4.280496e-06	0.01580187	-0.002104929	2.147661e-05	3.879027e-05	0.02227154	-0.01639566
4.4e+08	0.0212025	-0.01798175	2.752496e-05	3.559747e-05	0.01513606	-0.003811271	2.424078e-06	4.089803e-06
	2.752496e-05	3.559747e-05	0.02136092	-0.01679142	-0.0002746969	7.933784e-05	0.01539479	-0.002635121
	0.01513606	-0.003811271	-0.0002746969	7.933784e-05	0.02107157	-0.01801768	2.391095e-05	3.690011e-05
	2.424078e-06	4.089803e-06	0.01539479	-0.002635121	2.391095e-05	3.690011e-05	0.02134714	-0.01692282
4.5e+08	0.02019806	-0.01845509	2.974982e-05	3.32818e-05	0.01462795	-0.004311443	2.621536e-06	3.890569e-06
	2.974982e-05	3.32818e-05	0.02040853	-0.01725442	-0.0002766818	8.378614e-05	0.01493915	-0.003128366
	0.01462795	-0.004311443	-0.0002766818	8.378614e-05	0.02006353	-0.01848289	2.615245e-05	3.482752e-05
	2.621536e-06	3.890569e-06	0.01493915	-0.003128366	2.615245e-05	3.482752e-05	0.0203884	-0.01738392
4.6e+08	0.01916356	-0.01885612	3.174508e-05	3.080478e-05	0.01407427	-0.004766204	2.803014e-06	3.683862e-06
	3.174508e-05	3.080478e-05	0.01942659	-0.01764969	-0.0002788653	8.852684e-05	0.01443823	-0.00358066
	0.01407427	-0.004766204	-0.0002788653	8.852684e-05	0.01902605	-0.01887542	2.818478e-05	3.25933e-05
	2.803014e-06	3.683862e-06	0.01443823	-0.00358066	2.818478e-05	3.25933e-05	0.01940037	-0.01777672
4.7e+08	0.01810454	-0.01918282	3.349683e-05	2.8191e-05	0.01347903	-0.005171766	2.968413e-06	3.47059e-06
	3.349683e-05	2.8191e-05	0.01842024	-0.01797531	-0.0002812315	9.36008e-05	0.01389565	-0.003988292
	0.01347903	-0.005171766	-0.0002812315	9.36008e-05	0.01796474	-0.01919333	2.999396e-05	3.021991e-05
	2.968413e-06	3.47059e-06	0.01389565	-0.003988292	2.999396e-05	3.021991e-05	0.01838822	-0.01809931
4.8e+08	0.0170267	-0.01943365	3.499404e-05	2.546662e-05	0.01284655	-0.005524691	3.117688e-06	3.252051e-06
