!$
! Info: Touchstone file created by Circ.  Input file=Tx_4in_Rx_100ohms_TxVia_10mils_RxVia_20mils.circ
!$
# Hz S RI R 50
0	0.004270755	3.630886e-26	0.9955982	-3.445175e-26	3.334144e-05	4.324556e-24	-3.177446e-05	1.230027e-21
	0.9955981	-3.480581e-26	0.004270362	4.450835e-26	-3.164332e-05	1.214039e-21	3.277378e-05	6.020526e-24
	3.561514e-05	4.334622e-24	-3.159109e-05	1.207667e-21	0.004263463	3.164849e-26	0.9955681	-3.049586e-26
	-3.218526e-05	1.280359e-21	3.423163e-05	6.196566e-24	0.9955681	-3.201368e-26	0.004275999	4.249186e-26
1e+07	0.006121528	0.003052473	0.9929445	-0.04300102	0.0002247354	0.0008409562	-0.0001926382	-0.0001114486
	0.9929445	-0.04300102	0.00612055	0.003051609	-0.0001926615	-0.0001114253	0.0002235591	0.0008411902
	0.0002247834	0.0008409298	-0.0001926229	-0.0001114458	0.006074767	0.003057268	0.9929885	-0.04309611
	-0.0001925996	-0.0001114691	0.0002235914	0.0008411788	0.9929885	-0.04309611	0.006073808	0.003056369
2e+07	0.007718401	0.00475909	0.9888228	-0.08446645	0.0002678382	0.001739066	-0.0001444565	-0.0002877521
	0.9888228	-0.08446645	0.007714343	0.004757325	-0.0001444494	-0.0002877254	0.0002632574	0.001739979
	0.0002678304	0.001739041	-0.0001444489	-0.000287754	0.007686368	0.004790458	0.9888388	-0.08467758
	-0.0001444464	-0.0002877872	0.0002632546	0.001739958	0.9888388	-0.08467758	0.007682544	0.004788752
3e+07	0.009078819	0.005878681	0.9833577	-0.1251681	0.0003941636	0.002558924	-0.0001214565	-0.0003975145
	0.9833577	-0.1251681	0.009069361	0.005876367	-0.0001214599	-0.0003975083	0.0003840398	0.002561161
	0.0003941642	0.00255892	-0.0001214622	-0.0003975126	0.009060062	0.005922341	0.9833417	-0.125477
	-0.0001214582	-0.0003975209	0.0003840348	0.002561158	0.9833417	-0.125477	0.00905146	0.00592013
4e+07	0.01034237	0.006732473	0.9764148	-0.1653819	0.0006052643	0.003342498	-0.0001262163	-0.0004871244
	0.9764148	-0.1653819	0.01032524	0.006730316	-0.0001262276	-0.0004871135	0.0005875397	0.003346963
	0.0006052683	0.003342494	-0.0001262247	-0.0004871124	0.01033683	0.006782701	0.9763612	-0.1657834
	-0.0001262129	-0.0004871197	0.0005875392	0.003346964	0.9763612	-0.1657834	0.01032121	0.006780405
5e+07	0.01155574	0.007398114	0.9679576	-0.2051305	0.0009548374	0.004077396	-0.000214337	-0.0005490641
	0.9679576	-0.2051305	0.01152874	0.007397145	-0.0002143426	-0.0005490566	0.0009275744	0.004085156
	0.0009548386	0.004077393	-0.0002143409	-0.0005490564	0.01156213	0.007451578	0.9678597	-0.2056205
	-0.0002143343	-0.0005490617	0.0009275739	0.004085156	0.9678597	-0.2056205	0.0115373	0.007450311
6e+07	0.01273875	0.007912013	0.9579781	-0.2443941	0.001357304	0.004773359	-0.0003022927	-0.0005978151
	0.9579781	-0.2443941	0.01269988	0.007913545	-0.0003022981	-0.0005978244	0.00131873	0.004785777
	0.001357304	0.00477336	-0.0003023013	-0.0005978239	0.01275624	0.007966755	0.9578294	-0.2449681
	-0.0003022979	-0.0005978168	0.001318727	0.004785777	0.9578294	-0.2449681	0.01272045	0.007967862
7e+07	0.01390039	0.008294889	0.9464809	-0.2831359	0.001810191	0.005427417	-0.0003901193	-0.0006347146
	0.9464809	-0.2831359	0.01384778	0.008300472	-0.0003901366	-0.0006347414	0.001758705	0.005446056
	0.001810192	0.005427421	-0.0003901442	-0.0006347388	0.01392854	0.008349099	0.9462752	-0.2837892
	-0.0003901336	-0.0006347172	0.0017587	0.005446059	0.9462752	-0.2837892	0.01388019	0.0083539
8e+07	0.01504444	0.008560433	0.9334776	-0.3213115	0.002310285	0.006035978	-0.0004773159	-0.0006602694
	0.9334776	-0.3213115	0.01497645	0.008571816	-0.0004773502	-0.000660304	0.002244465	0.00606259
	0.002310287	0.006035982	-0.000477359	-0.0006602992	0.01508276	0.00861209	0.9332092	-0.3220393
	-0.0004773347	-0.0006602704	0.00224446	0.006062594	0.9332092	-0.3220393	0.01502016	0.008622016
9e+07	0.01617227	0.008719431	0.9189846	-0.3588734	0.002853625	0.006594949	-0.0005628971	-0.0006743184
	0.9189846	-0.3588734	0.01608745	0.008738533	-0.0005629413	-0.0006743485	0.00277224	0.006631459
	0.002853628	0.006594952	-0.0005629476	-0.0006743439	0.01621988	0.008766301	0.9186481	-0.3596707
	-0.0005629117	-0.0006743175	0.002772237	0.006631463	0.9186481	-0.3596707	0.01614129	0.008783111
1e+08	0.0172875	0.008788127	0.9030181	-0.3957801	0.003434163	0.007097076	-0.0006440608	-0.0006732533
	0.9030181	-0.3957801	0.01718459	0.008817022	-0.0006440974	-0.0006732707	0.003336175	0.007145576
	0.003434163	0.007097076	-0.0006440972	-0.0006732709	0.01734264	0.008827153	0.9026089	-0.3966406
	-0.0006440606	-0.0006732535	0.003336176	0.007145576	0.9026089	-0.3966406	0.01724647	0.008853034
1.1e+08	0.01841726	0.008727857	0.8855756	-0.4319426	0.004035607	0.007554609	-0.0007081604	-0.0006730013
	0.8855756	-0.4319426	0.01829449	0.008769633	-0.000708236	-0.0006730397	0.003919707	0.007616901
	0.004035607	0.007554609	-0.0007082359	-0.0006730399	0.01847613	0.008761403	0.8850909	-0.4328636
	-0.0007081603	-0.0006730015	0.003919707	0.007616901	0.8850909	-0.4328636	0.0183608	0.008798918
1.2e+08	0.01950678	0.00855661	0.866732	-0.4673102	0.004673218	0.007964452	-0.0007750694	-0.0006741724
	0.866732	-0.4673102	0.01936385	0.008613592	-0.0007751792	-0.0006742128	0.004539115	0.008043232
	0.004673219	0.007964452	-0.0007751792	-0.000674213	0.01956933	0.008585341	0.8661659	-0.4682878
	-0.0007750694	-0.0006741726	0.004539115	0.008043232	0.8661659	-0.4682878	0.01943469	0.00863702
1.3e+08	0.02055799	0.008289813	0.846514	-0.5018427	0.005340634	0.008319437	-0.0008428023	-0.0006721579
	0.846514	-0.5018427	0.02039469	0.008364342	-0.0008429395	-0.0006721905	0.005188281	0.008417275
	0.005340635	0.008319437	-0.0008429395	-0.0006721907	0.02062368	0.008313646	0.8458613	-0.5028716
	-0.0008428022	-0.000672158	0.005188281	0.008417275	0.8458613	-0.5028716	0.02046975	0.008381847
1.4e+08	0.02156877	0.007933958	0.8249539	-0.5354916	0.006032591	0.00861641	-0.0009106879	-0.000666093
	0.8249539	-0.5354916	0.02138505	0.008028434	-0.000910847	-0.000666114	0.005862166	0.008735805
	0.006032591	0.00861641	-0.0009108469	-0.0006661142	0.02163701	0.007952823	0.8242099	-0.5365664
	-0.0009106879	-0.0006660931	0.005862166	0.008735805	0.8242099	-0.5365664	0.02146389	0.008039838
1.5e+08	0.022536	0.007494173	0.8020869	-0.5682081	0.006743828	0.00885316	-0.00097824	-0.0006556957
	0.8020869	-0.5682081	0.02233198	0.007611059	-0.0009784176	-0.0006557046	0.006555737	0.008996567
	0.006743828	0.00885316	-0.0009784175	-0.0006557047	0.02260622	0.007508066	0.801247	-0.5693231
	-0.00097824	-0.0006556958	0.006555737	0.008996567	0.801247	-0.5693231	0.02241416	0.007616174
1.6e+08	0.02345611	0.006975159	0.7779505	-0.5999441	0.007469012	0.009028103	-0.001045053	-0.000640921
	0.7779505	-0.5999441	0.02323213	0.007116974	-0.001045248	-0.0006409186	0.007263891	0.009197945
	0.007469012	0.009028103	-0.001045248	-0.0006409187	0.0235278	0.006984117	0.7770106	-0.6010932
	-0.001045053	-0.0006409211	0.007263891	0.009197945	0.7770106	-0.6010932	0.0233172	0.007115614
1.7e+08	0.02432531	0.006381529	0.7525845	-0.6306522	0.008202735	0.009140193	-0.001110778	-0.0006218501
	0.7525845	-0.6306522	0.02408197	0.006550826	-0.001110991	-0.0006218373	0.007981462	0.009338851
	0.008202735	0.009140193	-0.001110991	-0.0006218373	0.02439801	0.006385617	0.7515406	-0.6318293
	-0.001110778	-0.0006218502	0.007981462	0.009338851	0.7515406	-0.6318293	0.02416947	0.006542816
1.8e+08	0.02513978	0.005717967	0.7260305	-0.6602867	0.008939545	0.009188892	-0.001175114	-0.0005986412
	0.7260305	-0.6602867	0.02487794	0.005917297	-0.001175348	-0.0005986181	0.008703247	0.009418688
	0.008939545	0.009188892	-0.001175348	-0.0005986182	0.02521306	0.005717263	0.724879	-0.6614851
	-0.001175114	-0.0005986412	0.008703247	0.009418688	0.724879	-0.6614851	0.0249674	0.005902484
1.9e+08	0.02589575	0.004989303	0.6983322	-0.688803	0.009673977	0.009174151	-0.001237808	-0.0005715013
	0.6983322	-0.688803	0.02561658	0.005221187	-0.001238066	-0.0005714672	0.009424033	0.009437326
	0.009673977	0.00917415	-0.001238066	-0.0005714672	0.02596924	0.004983888	0.6970698	-0.6900159
	-0.001237808	-0.0005715013	0.009424033	0.009437326	0.6970698	-0.6900159	0.02570751	0.005199431
2e+08	0.02658963	0.004200533	0.669535	-0.7161582	0.01040059	0.0090964	-0.001298651	-0.0005406687
	0.669535	-0.7161582	0.02629457	0.00446742	-0.001298937	-0.0005406216	0.01013863	0.009395092
	0.01040059	0.0090964	-0.001298937	-0.0005406216	0.02666296	0.004190497	0.6681589	-0.7173786
	-0.001298651	-0.0005406687	0.01013863	0.009395092	0.6681589	-0.7173786	0.02638649	0.004438612
2.1e+08	0.02721804	0.003356837	0.6396862	-0.7423112	0.01111401	0.008956544	-0.00135748	-0.0005064001
	0.6396862	-0.7423112	0.02690883	0.00366107	-0.001357797	-0.0005063367	0.0108419	0.009292756
	0.01111401	0.008956544	-0.001357797	-0.0005063367	0.02729087	0.003342271	0.6381938	-0.7435318
	-0.00135748	-0.0005064002	0.0108419	0.009292756	0.6381938	-0.7435318	0.02700124	0.003625124
2.2e+08	0.02777788	0.002463573	0.6088346	-0.7672225	0.01180896	0.008755945	-0.001414174	-0.0004689606
	0.6088346	-0.7672225	0.02745653	0.002807353	-0.001414525	-0.0004688766	0.01152881	0.009131522
	0.01180896	0.008755945	-0.001414525	-0.0004688766	0.02784985	0.002444578	0.6072237	-0.7684358
	-0.001414174	-0.0004689607	0.01152881	0.009131522	0.6072237	-0.7684358	0.02754892	0.002764216
2.3e+08	0.02826634	0.001526276	0.5770306	-0.7908545	0.01248029	0.008496415	-0.001468652	-0.0004286158
	0.5770306	-0.7908545	0.02793514	0.001911627	-0.00146904	-0.0004285059	0.01219444	0.008913017
	0.01248029	0.008496415	-0.00146904	-0.0004285059	0.02833711	0.001502971	0.5752996	-0.7920528
	-0.001468652	-0.0004286158	0.01219444	0.008913017	0.5752996	-0.7920528	0.02802698	0.001861284
2.4e+08	0.02868097	0.0005506147	0.5443261	-0.8131716	0.01312306	0.008180198	-0.001520875	-0.0003856242
	0.5443261	-0.8131716	0.02834244	0.0009793541	-0.001521302	-0.0003854825	0.01283404	0.008639278
	0.01312306	0.008180198	-0.001521302	-0.0003854825	0.0287502	0.0005231385	0.5424738	-0.8143472
	-0.001520875	-0.0003856243	0.01283404	0.008639278	0.5424738	-0.8143472	0.0284332	0.0009218323
2.5e+08	0.02901966	-0.000457594	0.5107744	-0.8341403	0.01373251	0.007809954	-0.001570835	-0.0003402322
	0.5107744	-0.8341403	0.02867656	1.611283e-05	-0.001571302	-0.000340052	0.01344303	0.008312733
	0.01373251	0.007809954	-0.001571302	-0.000340052	0.02908701	-0.0004890784	0.5087999	-0.8352852
	-0.001570835	-0.0003402322	0.01344303	0.008312733	0.5087999	-0.8352852	0.02876571	-4.851611e-05
2.6e+08	0.02928068	-0.001492435	0.4764301	-0.853729	0.01430412	0.00738874	-0.001618561	-0.0002926681
	0.4764301	-0.853729	0.02893598	-0.0009724442	-0.001619068	-0.0002924423	0.01401708	0.007936185
	0.01430412	0.00738874	-0.001619068	-0.0002924423	0.02934584	-0.001527741	0.474333	-0.8548352
	-0.001618561	-0.0002926682	0.01401709	0.007936185	0.474333	-0.8548352	0.029023	-0.001044066
2.7e+08	0.02946273	-0.002547914	0.4413489	-0.8719083	0.01483368	0.006919985	-0.001664109	-0.0002431387
	0.4413489	-0.8719083	0.02911957	-0.001980607	-0.001664655	-0.0002428599	0.01455211	0.007512792
	0.01483368	0.006919985	-0.001664655	-0.0002428599	0.02952537	-0.002586824	0.4391294	-0.8729678
	-0.001664109	-0.0002431387	0.01455211	0.007512792	0.4391294	-0.8729678	0.02920391	-0.00205906
2.8e+08	0.02956487	-0.00361797	0.4055879	-0.8886511	0.01531727	0.006407464	-0.001707557	-0.0001918244
	0.4055879	-0.8886511	0.02922654	-0.003002621	-0.00170814	-0.0001914853	0.01504429	0.007046045
	0.01531727	0.006407464	-0.00170814	-0.0001914853	0.0296247	-0.003660234	0.4032464	-0.8896556
	-0.001707557	-0.0001918244	0.01504429	0.007046045	0.4032464	-0.8896556	0.02930771	-0.003087692
2.9e+08	0.0295866	-0.004696518	0.369205	-0.9039325	0.01575128	0.005855275	-0.001749007	-0.0001388775
	0.369205	-0.9039325	0.02925651	-0.004032724	-0.001749625	-0.0001384703	0.01549013	0.006539741
	0.01575128	0.005855275	-0.001749625	-0.0001384703	0.02964334	-0.004741862	0.3667426	-0.9048739
	-0.001749007	-0.0001388775	0.01549013	0.006539741	0.3667426	-0.9048739	0.029334	-0.004124157
3e+08	0.02952784	-0.005777475	0.3322591	-0.9177298	0.01613251	0.005267805	-0.001788575	-8.441882e-05
	0.3322591	-0.9177298	0.02920948	-0.005065168	-0.001789223	-8.393623e-05	0.01588647	0.005997955
	0.01613251	0.005267805	-0.001789223	-8.393624e-05	0.02958123	-0.005825593	0.3296772	-0.9185999
	-0.001788575	-8.441883e-05	0.01588647	0.005997955	0.3296772	-0.9185999	0.02928282	-0.005162659
3.1e+08	0.02938893	-0.006854776	0.2948099	-0.9300227	0.01645811	0.004649701	-0.001826386	-2.853657e-05
	0.2948099	-0.9300227	0.02908584	-0.006094235	-0.00182706	-2.79713e-05	0.01623049	0.005425017
	0.01645811	0.004649701	-0.00182706	-2.797131e-05	0.02943874	-0.006905338	0.2921105	-0.9308133
	-0.001826386	-2.853657e-05	0.01623049	0.005425017	0.2921105	-0.9308133	0.02915457	-0.006197437
3.2e+08	0.02917061	-0.007922422	0.256918	-0.9407932	0.01672565	0.004005835	-0.001862572	2.871484e-05
	0.256918	-0.9407932	0.02888637	-0.007114278	-0.001863266	2.93697e-05	0.01651976	0.004825474
	0.01672565	0.004005835	-0.001863266	2.93697e-05	0.02921665	-0.007975073	0.2541035	-0.9414962
	-0.001862572	2.871484e-05	0.01651976	0.004825474	0.2541035	-0.9414962	0.02895008	-0.007222799
3.3e+08	0.02887408	-0.008974497	0.2186446	-0.9500257	0.0169331	0.003341269	-0.001897265	8.731504e-05
	0.2186446	-0.9500257	0.02861223	-0.008119738	-0.001897972	8.806601e-05	0.01675222	0.004204064
	0.0169331	0.003341269	-0.001897972	8.8066e-05	0.02891618	-0.009028863	0.2157178	-0.9506331
	-0.001897265	8.731504e-05	0.01675222	0.004204064	0.2157178	-0.9506331	0.02867053	-0.008233149
3.4e+08	0.02850093	-0.01000519	0.1800514	-0.9577072	0.01707889	0.002661221	-0.001930592	0.0001472775
	0.1800514	-0.9577072	0.02826497	-0.009105163	-0.001931304	0.0001481306	0.01692623	0.003565678
	0.01707889	0.002661221	-0.001931304	0.0001481306	0.02853896	-0.01006088	0.1770157	-0.958211
	-0.001930592	0.0001472775	0.01692623	0.003565678	0.1770157	-0.958211	0.02831751	-0.009223
3.5e+08	0.02805315	-0.01100885	0.1412006	-0.9638268	0.01716191	0.001971026	-0.00196267	0.0002086485
	0.1412006	-0.9638268	0.0278465	-0.01006525	-0.00196338	0.000209609	0.01704058	0.002915331
	0.01716191	0.001971026	-0.00196338	0.000209609	0.02808703	-0.01106546	0.1380598	-0.9642192
	-0.00196267	0.0002086485	0.01704058	0.002915331	0.1380598	-0.9642192	0.02789298	-0.01018702
3.6e+08	0.02753314	-0.01197999	0.1021548	-0.9683764	0.01718146	0.001276097	-0.001993602	0.0002715053
	0.1021548	-0.9683764	0.02735909	-0.01099486	-0.0019943	0.000272578	0.01709445	0.002258121
	0.01718146	0.001276097	-0.0019943	0.000272578	0.02756283	-0.0120371	0.0989131	-0.9686498
	-0.001993602	0.0002715053	0.01709445	0.002258121	0.0989131	-0.9686498	0.02739925	-0.01112003
3.7e+08	0.0269437	-0.01291331	0.06297698	-0.9713501	0.01713735	0.0005818864	-0.002023471	0.0003359541
	0.06297698	-0.9713501	0.02680539	-0.01188904	-0.002024148	0.0003371429	0.01708748	0.001599196
	0.01713735	0.0005818864	-0.002024148	0.0003371429	0.02696919	-0.01297051	0.05963903	-0.9714969
	-0.002023471	0.0003359541	0.01708748	0.001599196	0.05963903	-0.9714969	0.026839	-0.01201706
3.8e+08	0.02628797	-0.01380375	0.02373006	-0.9727447	0.01702983	-0.0001061509	-0.002052339	0.0004021273
	0.02373006	-0.9727447	0.02618835	-0.01274307	-0.002052984	0.0004034352	0.01701974	0.000943718
	0.01702983	-0.0001061509	-0.002052984	0.0004034352	0.02630929	-0.01386063	0.02030103	-0.9727577
	-0.002052339	0.0004021273	0.01701974	0.000943718	0.02030103	-0.9727577	0.02621526	-0.01287336
3.9e+08	0.02556947	-0.01464652	-0.01552277	-0.9725594	0.01685962	-0.0007825991	-0.002080238	0.0004701801
	-0.01552277	-0.9725594	0.02551126	-0.01355243	-0.002080839	0.0004716091	0.01689173	0.0002968258
	0.01685962	-0.0007825991	-0.002080839	0.0004716091	0.0255867	-0.01470265	-0.01903731	-0.9724314
	-0.002080238	0.0004701801	0.01689173	0.0002968258	-0.01903731	-0.9724314	0.02553137	-0.01368441
4e+08	0.02479205	-0.01543707	-0.05471839	-0.9707958	0.01662788	-0.001442119	-0.002107169	0.0005402864
	-0.05471839	-0.9707958	0.02477775	-0.0143129	-0.002107716	0.0005418377	0.01670438	-0.0003364009
	0.01662788	-0.001442119	-0.002107716	0.0005418377	0.0248053	-0.01549206	-0.05831246	-0.9705201
	-0.002107169	0.0005402864	0.01670438	-0.0003364009	-0.05831246	-0.9705201	0.02479097	-0.01444598
4.1e+08	0.02395987	-0.01617119	-0.09379382	-0.9674583	0.01633626	-0.002079488	-0.002133102	0.0006126349
	-0.09379382	-0.9674583	0.02399168	-0.01502053	-0.002133583	0.0006143084	0.01645904	-0.0009509778
	0.01633626	-0.002079488	-0.002133583	0.0006143084	0.02396931	-0.01622463	-0.09746101	-0.9670281
	-0.002133102	0.0006126349	0.01645904	-0.0009509778	-0.09746101	-0.9670281	0.02399803	-0.01515409
4.2e+08	0.02307741	-0.01684498	-0.1326863	-0.9625534	0.01598681	-0.002689636	-0.002157968	0.0006874242
	-0.1326863	-0.9625534	0.02315721	-0.01567165	-0.002158371	0.0006892188	0.01615748	-0.00154205
	0.01598681	-0.002689636	-0.002158371	0.0006892188	0.02308322	-0.0168965	-0.1364198	-0.9619625
	-0.002157968	0.0006874242	0.01615748	-0.00154205	-0.1364198	-0.9619625	0.02315673	-0.01580509
4.3e+08	0.02214939	-0.01745489	-0.1713332	-0.9560904	0.01558202	-0.003267684	-0.002181663	0.000764858
	-0.1713332	-0.9560904	0.02227875	-0.01626295	-0.002181976	0.0007667715	0.01580187	-0.002104929
	0.01558202	-0.003267684	-0.002181976	0.0007667715	0.02215181	-0.01750412	-0.1751259	-0.9553328
	-0.002181663	0.000764858	0.01580187	-0.002104929	-0.1751259	-0.9553328	0.02227154	-0.01639566
4.4e+08	0.02118079	-0.01799772	-0.2096726	-0.9480809	0.01512479	-0.003808976	-0.002204042	0.0008451396
	-0.2096726	-0.9480809	0.02136092	-0.01679142	-0.002204252	0.0008471685	0.01539479	-0.002635121
	0.01512479	-0.003808976	-0.002204252	0.0008471685	0.02118009	-0.01804434	-0.2135169	-0.9471509
	-0.002204042	0.0008451396	0.01539479	-0.002635121	-0.2135169	-0.9471509	0.02134714	-0.01692282
4.5e+08	0.0201768	-0.01847068	-0.247643	-0.9385391	0.01461841	-0.004309118	-0.002224919	0.0009284673
	-0.247643	-0.9385391	0.02040853	-0.01725442	-0.002225014	0.000930607	0.01493915	-0.003128366
	0.01461841	-0.004309118	-0.002225014	0.000930607	0.02017328	-0.01851437	-0.2515309	-0.9374313
	-0.002224919	0.0009284673	0.01493915	-0.003128366	-0.2515309	-0.9374313	0.0203884	-0.01738392
4.6e+08	0.01914283	-0.01887137	-0.2851833	-0.9274815	0.01406653	-0.004764006	-0.002244072	0.001015028
	-0.2851833	-0.9274815	0.01942659	-0.01764969	-0.002244041	0.001017273	0.01443823	-0.00358066
	0.01406653	-0.004764006	-0.002244041	0.001017273	0.01913681	-0.01891185	-0.2891066	-0.926191
	-0.002244072	0.001015028	0.01443823	-0.00358066	-0.2891066	-0.926191	0.01940037	-0.01777672
4.7e+08	0.0180844	-0.0191978	-0.3222333	-0.914927	0.01347313	-0.005169857	-0.002261237	0.001104992
	-0.3222333	-0.914927	0.01842024	-0.01797531	-0.002261068	0.001107335	0.01389565	-0.003988292
	0.01347313	-0.005169857	-0.002261068	0.001107335	0.01807623	-0.01923479	-0.3261834	-0.9134493
	-0.002261237	0.001104992	0.01389565	-0.003988292	-0.3261834	-0.9134493	0.01838822	-0.01809931
4.8e+08	0.0170072	-0.0194484	-0.3587336	-0.9008972	0.01284252	-0.00552324	-0.002276115	0.001198509
	-0.3587336	-0.9008972	0.01739471	-0.01822979	-0.002275798	0.001200942	0.01331531	-0.004347862
	0.01284252	-0.00552324	-0.002275798	0.001200942	0.01699726	-0.01948169	-0.3627016	-0.899228
	-0.002276115	0.001198509	0.01331531	-0.004347862	-0.3627016	-0.899228	0.01735727	-0.01835023
4.9e+08	0.015917	-0.01962205	-0.3946256	-0.8854156	0.01217928	-0.005821096	-0.002288369	0.001295702
	-0.3946256	-0.8854156	0.01635537	-0.018412	-0.002287894	0.001298215	0.01270139	-0.004656314
	0.01217928	-0.005821096	-0.002287894	0.001298215	0.0159057	-0.01965145	-0.3986023	-0.8835512
	-0.002288369	0.001295702	0.01270139	-0.004656314	-0.3986023	-0.8835512	0.01631292	-0.01852841
5e+08	0.01481964	-0.01971806	-0.4298518	-0.8685083	0.01148824	-0.006060764	-0.002297634	0.00139666
	-0.4298518	-0.8685083	0.01530762	-0.01852124	-0.00229699	0.001399244	0.01205833	-0.00491095
	0.01148824	-0.006060764	-0.00229699	0.001399244	0.01480739	-0.01974342	-0.4338278	-0.8664454
	-0.002297634	0.00139666	0.01205833	-0.00491095	-0.4338278	-0.8664454	0.01526062	-0.01863316
