!$
! Info: Touchstone file created by Circ.  Input file=Tx_4in_Rx_100ohms_TxVia_10mils_RxVia_20mils.circ
!$
# Hz S RI R 50
0	0.004269685	3.30538e-26	1.115315e-10	8.304922e-29	3.468886e-05	4.497915e-24	-5.08668e-09	6.231686e-25
	1.115435e-10	8.324228e-29	0.004270362	4.450835e-26	5.495802e-10	2.597141e-27	3.277378e-05	6.020526e-24
	3.338733e-05	4.382647e-24	5.495183e-10	2.604361e-27	0.004285078	3.464437e-26	-9.229309e-09	1.144202e-24
	-5.08579e-09	6.230596e-25	3.423163e-05	6.196566e-24	-9.229505e-09	1.144226e-24	0.004275999	4.249186e-26
1e+07	0.00605775	0.003053771	5.2648e-11	-1.822361e-11	0.0002248791	0.0008425056	-8.796518e-09	1.638783e-08
	5.264805e-11	-1.82239e-11	0.00612055	0.003051609	6.991231e-10	1.093125e-09	0.0002235591	0.0008411902
	0.0002248351	0.0008425088	6.991231e-10	1.093125e-09	0.006136959	0.003055001	-1.016978e-08	1.60185e-08
	-8.796518e-09	1.638783e-08	0.0002235914	0.0008411788	-1.016978e-08	1.60185e-08	0.006073808	0.003056369
2e+07	0.007668681	0.004784693	4.606949e-11	-1.646504e-11	0.0002681892	0.001742166	-8.605619e-09	1.25079e-08
	4.606931e-11	-1.646517e-11	0.007714343	0.004757325	9.051831e-10	1.925959e-09	0.0002632574	0.001739979
	0.0002681792	0.001742193	9.051832e-10	1.925959e-09	0.007735281	0.004763113	-1.029074e-08	1.270428e-08
	-8.605619e-09	1.25079e-08	0.0002632546	0.001739958	-1.029074e-08	1.270428e-08	0.007682544	0.004788752
3e+07	0.009040273	0.005912931	6.191469e-11	-4.041137e-11	0.0003948318	0.002563504	-6.169385e-09	1.207628e-08
	6.191465e-11	-4.041134e-11	0.009069361	0.005876367	1.031133e-09	2.699576e-09	0.0003840398	0.002561161
	0.0003948324	0.002563508	1.031133e-09	2.699576e-09	0.009097582	0.005883796	-7.528007e-09	1.289447e-08
	-6.169385e-09	1.207628e-08	0.0003840348	0.002561158	-7.528007e-09	1.289447e-08	0.00905146	0.00592013
4e+07	0.01031353	0.006771396	6.769126e-11	-6.917255e-11	0.000606369	0.00334854	-4.123403e-09	1.145956e-08
	6.769125e-11	-6.917258e-11	0.01032524	0.006730316	1.133714e-09	3.469655e-09	0.0005875397	0.003346963
	0.0006063651	0.003348538	1.133714e-09	3.469655e-09	0.01036342	0.006738154	-5.239436e-09	1.251965e-08
	-4.123403e-09	1.145956e-08	0.0005875392	0.003346964	-5.239436e-09	1.251965e-08	0.01032121	0.006780405
5e+07	0.01153555	0.007439474	7.234737e-11	-9.287105e-11	0.0009565055	0.00408484	-2.890934e-09	1.091265e-08
	7.234733e-11	-9.287107e-11	0.01152874	0.007397145	1.235671e-09	4.223433e-09	0.0009275744	0.004085156
	0.0009565039	0.004084839	1.235671e-09	4.223433e-09	0.01157931	0.007403749	-3.921339e-09	1.202962e-08
	-2.890934e-09	1.091265e-08	0.0009275739	0.004085156	-3.921339e-09	1.202962e-08	0.0115373	0.007450311
6e+07	0.01272636	0.007954229	8.720717e-11	-1.010347e-10	0.00135964	0.004782127	-2.645343e-09	1.07351e-08
	8.720726e-11	-1.010347e-10	0.01269988	0.007913545	1.349889e-09	4.95017e-09	0.00131873	0.004785777
	0.001359646	0.004782125	1.349889e-09	4.95017e-09	0.01276497	0.007916979	-3.726468e-09	1.168264e-08
	-2.645343e-09	1.07351e-08	0.001318727	0.004785777	-3.726468e-09	1.168264e-08	0.01272045	0.007967862
7e+07	0.013895	0.008336689	1.47624e-10	-1.174082e-11	0.001813286	0.005437433	-4.413922e-09	1.088844e-08
	1.476243e-10	-1.17409e-11	0.01384778	0.008300472	1.532983e-09	5.653202e-09	0.001758705	0.005446056
	0.001813297	0.005437427	1.532983e-09	5.653202e-09	0.01392923	0.008298584	-5.285576e-09	1.108687e-08
	-4.413922e-09	1.088844e-08	0.0017587	0.005446059	-5.285576e-09	1.108687e-08	0.01388019	0.0083539
8e+07	0.01504526	0.008600676	7.943884e-10	-1.332651e-09	0.002314232	0.00604717	-9.88489e-09	6.035583e-09
	7.943888e-10	-1.332651e-09	0.01497645	0.008571816	1.692565e-09	6.619911e-09	0.002244465	0.00606259
	0.002314243	0.006047159	1.692565e-09	6.619911e-09	0.01507578	0.008562287	-8.689386e-09	7.045809e-09
	-9.88489e-09	6.035583e-09	0.00224446	0.006062594	-8.689386e-09	7.045809e-09	0.01502016	0.008622016
9e+07	0.01617845	0.008756943	1.638078e-10	-2.572806e-10	0.002858519	0.006607235	-3.844162e-09	-1.244368e-09
	1.638081e-10	-2.572811e-10	0.01608745	0.008738533	1.536423e-09	7.29529e-09	0.00277224	0.006631459
	0.002858525	0.006607226	1.536423e-09	7.29529e-09	0.01620592	0.008718912	-4.82224e-09	2.505142e-10
	-3.844162e-09	-1.244368e-09	0.002772237	0.006631463	-4.82224e-09	2.505142e-10	0.01614129	0.008783111
1e+08	0.01729764	0.008820884	7.622723e-11	-2.512188e-10	0.003440095	0.007110362	-1.794668e-10	-2.33221e-10
	7.622723e-11	-2.512188e-10	0.01718459	0.008817022	1.562226e-09	7.840291e-09	0.003336175	0.007145576
	0.003440095	0.007110362	1.562226e-09	7.840291e-09	0.01732319	0.00878474	-5.560011e-10	4.457726e-10
	-1.794668e-10	-2.33221e-10	0.003336176	0.007145576	-5.560011e-10	4.457726e-10	0.01724647	0.008853034
1.1e+08	0.01842709	0.008757393	7.992118e-11	-2.875325e-10	0.004042516	0.007568743	-2.229582e-10	-2.331933e-10
	7.992118e-11	-2.875325e-10	0.01829449	0.008769633	1.603739e-09	8.558004e-09	0.003919707	0.007616901
	0.004042516	0.007568743	1.603739e-09	8.558004e-09	0.01845556	0.008721337	-6.642846e-10	5.466064e-10
	-2.229582e-10	-2.331933e-10	0.003919707	0.007616901	-6.642846e-10	5.466064e-10	0.0183608	0.008798918
1.2e+08	0.01951685	0.008584654	8.096626e-11	-3.233632e-10	0.004681204	0.007979375	-2.668601e-10	-2.29488e-10
	8.096626e-11	-3.233632e-10	0.01936385	0.008613592	1.638887e-09	9.277466e-09	0.004539115	0.008043232
	0.004681204	0.007979375	1.638887e-09	9.277466e-09	0.0195469	0.008546142	-7.772048e-10	6.637791e-10
	-2.668601e-10	-2.29488e-10	0.004539115	0.008043232	-7.772048e-10	6.637791e-10	0.01943469	0.00863702
1.3e+08	0.02056845	0.008316957	7.995232e-11	-3.597493e-10	0.00534978	0.008335046	-3.115252e-10	-2.209066e-10
	7.995232e-11	-3.597493e-10	0.02039469	0.008364342	1.66872e-09	9.999274e-09	0.005188281	0.008417275
	0.00534978	0.008335047	1.66872e-09	9.999274e-09	0.02059913	0.008274926	-8.923752e-10	7.967323e-10
	-3.115252e-10	-2.209066e-10	0.005188281	0.008417275	-8.923752e-10	7.967323e-10	0.02046975	0.008381847
1.4e+08	0.02157973	0.007960526	7.687904e-11	-3.966878e-10	0.006042958	0.008632579	-3.565783e-10	-2.070675e-10
	7.687904e-11	-3.966878e-10	0.02138505	0.008028434	1.69427e-09	1.0724e-08	0.005862166	0.008735805
	0.006042958	0.00863258	1.69427e-09	1.0724e-08	0.02161015	0.007914424	-1.007907e-09	9.456977e-10
	-3.565783e-10	-2.070675e-10	0.005862166	0.008735805	-1.007907e-09	9.456977e-10	0.02146389	0.008039838
1.5e+08	0.02254754	0.007520359	7.16874e-11	-4.340786e-10	0.006755454	0.00886975	-4.015133e-10	-1.877814e-10
	7.16874e-11	-4.340786e-10	0.02233198	0.007611059	1.716466e-09	1.145212e-08	0.006555737	0.008996567
	0.006755454	0.00886975	1.716466e-09	1.145212e-08	0.02257693	0.007469926	-1.121949e-09	1.110795e-09
	-4.015133e-10	-1.877814e-10	0.006555737	0.008996567	-1.121949e-09	1.110795e-09	0.02241416	0.007616174
1.6e+08	0.02346828	0.007001083	6.430724e-11	-4.717686e-10	0.007481909	0.00904497	-4.457732e-10	-1.629458e-10
	6.430724e-11	-4.717686e-10	0.02323213	0.007116974	1.736158e-09	1.218397e-08	0.007263891	0.009197945
	0.007481909	0.00904497	1.736158e-09	1.218397e-08	0.02349596	0.006946232	-1.232659e-09	1.291991e-09
	-4.457732e-10	-1.629458e-10	0.007263891	0.009197945	-1.232659e-09	1.291991e-09	0.0233172	0.007115614
1.7e+08	0.02433815	0.006407259	5.467631e-11	-5.09576e-10	0.008216896	0.009157194	-4.887717e-10	-1.325299e-10
	5.467631e-11	-5.09576e-10	0.02408197	0.006550826	1.75415e-09	1.291987e-08	0.007981462	0.009338851
	0.008216896	0.009157194	1.75415e-09	1.291987e-08	0.02436353	0.00634802	-1.338209e-09	1.489083e-09
	-4.887717e-10	-1.325299e-10	0.007981462	0.009338851	-1.338209e-09	1.489083e-09	0.02416947	0.006542816
1.8e+08	0.02515331	0.00574354	4.274858e-11	-5.473005e-10	0.008954945	0.009205889	-5.299059e-10	-9.657125e-11
	4.274857e-11	-5.473005e-10	0.02487794	0.005917297	1.771209e-09	1.366001e-08	0.008703247	0.009418688
	0.008954945	0.009205889	1.771209e-09	1.366001e-08	0.02517585	0.005680013	-1.436793e-09	1.70169e-09
	-5.299059e-10	-9.657125e-11	0.008703247	0.009418688	-1.436793e-09	1.70169e-09	0.0249674	0.005902484
1.9e+08	0.02591	0.005014736	2.849814e-11	-5.847307e-10	0.009690575	0.009191009	-5.685657e-10	-5.517377e-11
	2.849813e-11	-5.847307e-10	0.02561658	0.005221187	1.788081e-09	1.440456e-08	0.009424033	0.009437326
	0.009690575	0.009191009	1.788081e-09	1.440456e-08	0.02592922	0.004947066	-1.526646e-09	1.929252e-09
	-5.685657e-10	-5.517377e-11	0.009424033	0.009437326	-1.526646e-09	1.929252e-09	0.02570751	0.005199431
2e+08	0.02660461	0.004225825	1.192114e-11	-6.216489e-10	0.01041833	0.009112995	-6.041417e-10	-8.508448e-12
	1.192114e-11	-6.216489e-10	0.02629457	0.00446742	1.805495e-09	1.515359e-08	0.01013863	0.009395092
	0.01041833	0.009112995	1.805495e-09	1.515359e-08	0.02662006	0.0041542	-1.606055e-09	2.171031e-09
	-6.041417e-10	-8.508448e-12	0.01013863	0.009395092	-1.606055e-09	2.171031e-09	0.02638649	0.004438612
2.1e+08	0.02723375	0.003381977	-6.964037e-12	-6.57836e-10	0.01113283	0.008972755	-6.360331e-10	4.318707e-11
	-6.964038e-12	-6.57836e-10	0.02690883	0.00366107	1.82416e-09	1.590712e-08	0.0108419	0.009292756
	0.01113283	0.008972755	1.82416e-09	1.590712e-08	0.02724502	0.003306615	-1.673378e-09	2.426118e-09
	-6.360331e-10	4.318707e-11	0.0108419	0.009292756	-1.673378e-09	2.426118e-09	0.02700124	0.003625124
2.2e+08	0.0277943	0.002488543	-2.811706e-11	-6.930744e-10	0.01182878	0.008771661	-6.636553e-10	9.960871e-11
	-2.811706e-11	-6.930744e-10	0.02745653	0.002807353	1.844769e-09	1.666509e-08	0.01152881	0.009131522
	0.01182878	0.008771661	1.844769e-09	1.666509e-08	0.02780099	0.002409689	-1.727058e-09	2.693434e-09
	-6.636553e-10	9.960871e-11	0.01152881	0.009131522	-1.727058e-09	2.693434e-09	0.02754892	0.002764216
2.3e+08	0.02828347	0.00155105	-5.147639e-11	-7.271508e-10	0.01250104	0.008511532	-6.864474e-10	1.60387e-10
	-5.147639e-11	-7.271508e-10	0.02793514	0.001911627	1.867992e-09	1.742738e-08	0.01219444	0.008913017
	0.01250104	0.008511532	1.867992e-09	1.742738e-08	0.0282852	0.001468986	-1.765642e-09	2.971742e-09
	-6.864474e-10	1.60387e-10	0.01219444	0.008913017	-1.765642e-09	2.971742e-09	0.02802698	0.001861284
2.4e+08	0.02869878	0.0005751719	-7.696155e-11	-7.598592e-10	0.01314462	0.008194621	-7.038802e-10	2.25089e-10
	-7.696155e-11	-7.598592e-10	0.02834244	0.0009793541	1.894471e-09	1.819379e-08	0.01283404	0.008639278
	0.01314462	0.008194621	1.894471e-09	1.819379e-08	0.02869518	0.0004902092	-1.787794e-09	3.259653e-09
	-7.038802e-10	2.25089e-10	0.01283404	0.008639278	-1.787794e-09	3.259653e-09	0.0284332	0.0009218323
2.5e+08	0.02903813	-0.0004332843	-1.044739e-10	-7.91002e-10	0.01375479	0.007823598	-7.154631e-10	2.932211e-10
	-1.044739e-10	-7.91002e-10	0.02867656	1.611283e-05	1.924817e-09	1.896407e-08	0.01344303	0.008312733
	0.01375479	0.007823598	1.924817e-09	1.896407e-08	0.02902886	-0.0005207948	-1.792312e-09	3.555639e-09
	-7.154631e-10	2.932211e-10	0.01344303	0.008312733	-1.792312e-09	3.555639e-09	0.02876571	-4.851611e-05
2.6e+08	0.02929978	-0.001468406	-1.338991e-10	-8.203915e-10	0.01432702	0.007401528	-7.207514e-10	3.642325e-10
	-1.338991e-10	-8.203915e-10	0.02893598	-0.0009724442	1.959604e-09	1.97379e-08	0.01401708	0.007936185
	0.01432702	0.007401528	1.959604e-09	1.97379e-08	0.02928453	-0.001558077	-1.77814e-09	3.858042e-09
	-7.207514e-10	3.642325e-10	0.01401709	0.007936185	-1.77814e-09	3.858042e-09	0.029023	-0.001044066
2.7e+08	0.02948243	-0.002524192	-1.65108e-10	-8.478511e-10	0.01485707	0.006931849	-7.193534e-10	4.375194e-10
	-1.65108e-10	-8.478511e-10	0.02911957	-0.001980607	1.999363e-09	2.051491e-08	0.01455211	0.007512792
	0.01485707	0.006931849	1.999363e-09	2.051491e-08	0.02946089	-0.002615606	-1.744382e-09	4.165095e-09
	-7.193534e-10	4.375194e-10	0.01455211	0.007512792	-1.744382e-09	4.165095e-09	0.02920391	-0.00205906
2.8e+08	0.02958513	-0.003594586	-1.979596e-10	-8.732148e-10	0.01534101	0.006418349	-7.109365e-10	5.124309e-10
	-1.979596e-10	-8.732148e-10	0.02922654	-0.003002621	2.044577e-09	2.129466e-08	0.01504429	0.007046045
	0.01534101	0.006418349	2.044577e-09	2.129466e-08	0.02955704	-0.003687281	-1.690315e-09	4.474929e-09
	-7.109365e-10	5.124309e-10	0.01504429	0.007046045	-1.690315e-09	4.474929e-09	0.02930771	-0.003087692
2.9e+08	0.02960738	-0.004673501	-2.32302e-10	-8.963279e-10	0.01577527	0.005865135	-6.952332e-10	5.882747e-10
	-2.32302e-10	-8.963279e-10	0.02925651	-0.004032724	2.095678e-09	2.207667e-08	0.01549013	0.006539741
	0.01577527	0.005865135	2.095678e-09	2.207667e-08	0.02957251	-0.004766989	-1.615396e-09	4.785598e-09
	-6.952332e-10	5.882747e-10	0.01549013	0.006539741	-1.615396e-09	4.785598e-09	0.029334	-0.004124157
3e+08	0.0295491	-0.005754853	-2.679728e-10	-9.170466e-10	0.0161566	0.005276607	-6.720461e-10	6.643244e-10
	-2.679728e-10	-9.170466e-10	0.02920948	-0.005065168	2.15304e-09	2.286042e-08	0.01588647	0.005997955
	0.0161566	0.005276607	2.15304e-09	2.286042e-08	0.02950725	-0.005848609	-1.519272e-09	5.095089e-09
	-6.720461e-10	6.643244e-10	0.01588647	0.005997955	-1.519272e-09	5.095089e-09	0.02928282	-0.005162659
3.1e+08	0.02941061	-0.006832575	-3.048017e-10	-9.35237e-10	0.01648216	0.004657424	-6.412519e-10	7.398269e-10
	-3.048017e-10	-9.35237e-10	0.02908584	-0.006094235	2.216979e-09	2.364536e-08	0.01623049	0.005425017
	0.01648216	0.004657424	2.216979e-09	2.364536e-08	0.02936164	-0.006926049	-1.401788e-09	5.401349e-09
	-6.412519e-10	7.398269e-10	0.01623049	0.005425017	-1.401788e-09	5.401349e-09	0.02915457	-0.006197437
3.2e+08	0.02919267	-0.007900665	-3.426097e-10	-9.50775e-10	0.01674952	0.00401247	-6.028053e-10	8.140102e-10
	-3.426097e-10	-9.50775e-10	0.02888637	-0.007114278	2.287749e-09	2.44309e-08	0.01651976	0.004825474
	0.01674952	0.00401247	2.287749e-09	2.44309e-08	0.02913649	-0.007993284	-1.262987e-09	5.702298e-09
	-6.028053e-10	8.140102e-10	0.01651976	0.004825474	-1.262987e-09	5.702298e-09	0.02895008	-0.007222799
3.3e+08	0.02889645	-0.008953203	-3.812095e-10	-9.635458e-10	0.01695665	0.003346821	-5.567412e-10	8.860927e-10
	-3.812095e-10	-9.635458e-10	0.02861223	-0.008119738	2.36554e-09	2.521643e-08	0.01675222	0.004204064
	0.01695665	0.003346821	2.36554e-09	2.521643e-08	0.028833	-0.009044376	-1.103116e-09	5.99585e-09
	-5.567412e-10	8.860927e-10	0.01675222	0.004204064	-1.103116e-09	5.99585e-09	0.02867053	-0.008233149
3.4e+08	0.02852356	-0.00998438	-4.204062e-10	-9.734422e-10	0.01710198	0.002665709	-5.031757e-10	9.552915e-10
	-4.204062e-10	-9.734422e-10	0.02826497	-0.009105163	2.450474e-09	2.600132e-08	0.01692623	0.003565678
	0.01710198	0.002665709	2.450474e-09	2.600132e-08	0.02845284	-0.0100735	-9.226274e-10	6.279938e-09
	-5.031757e-10	9.552915e-10	0.01692623	0.003565678	-9.226274e-10	6.279938e-09	0.02831751	-0.009223
3.5e+08	0.02807598	-0.01098853	-4.599957e-10	-9.803658e-10	0.01718438	0.00197448	-4.423068e-10	1.020832e-09
	-4.599957e-10	-9.803658e-10	0.0278465	-0.01006525	2.542612e-09	2.678493e-08	0.01704058	0.002915331
	0.01718438	0.00197448	2.542612e-09	2.678493e-08	0.02799806	-0.01107498	-7.221718e-10	6.552528e-09
	-4.423068e-10	1.020832e-09	0.01704058	0.002915331	-7.221718e-10	6.552528e-09	0.02789298	-0.01018702
3.6e+08	0.02755612	-0.01196017	-4.997646e-10	-9.84225e-10	0.01720319	0.001278561	-3.744132e-10	1.081956e-09
	-4.997646e-10	-9.84225e-10	0.02735909	-0.01099486	2.641944e-09	2.756663e-08	0.01709445	0.002258121
	0.01720319	0.001278561	2.641944e-09	2.756663e-08	0.02747111	-0.01204333	-5.025999e-10	6.811641e-09
	-3.744132e-10	1.081956e-09	0.01709445	0.002258121	-5.025999e-10	6.811641e-09	0.02739925	-0.01112003
3.7e+08	0.02696675	-0.012894	-5.394889e-10	-9.849366e-10	0.01715819	0.0005834195	-2.998525e-10	1.137931e-09
	-5.394889e-10	-9.849366e-10	0.02680539	-0.01188904	2.748398e-09	2.834577e-08	0.01708748	0.001599196
	0.01715819	0.0005834195	2.748398e-09	2.834577e-08	0.02687482	-0.01297326	-2.649533e-10	7.055374e-09
	-2.998525e-10	1.137931e-09	0.01708748	0.001599196	-2.649533e-10	7.055374e-09	0.026839	-0.01201706
3.8e+08	0.02631103	-0.01378496	-5.789323e-10	-9.824257e-10	0.01704965	-0.0001054773	-2.190581e-10	1.188061e-09
	-5.789323e-10	-9.824257e-10	0.02618835	-0.01274307	2.861838e-09	2.912174e-08	0.01701974	0.000943718
	0.01704965	-0.0001054773	2.861838e-09	2.912174e-08	0.0262124	-0.0138597	-1.045742e-11	7.281917e-09
	-2.190581e-10	1.188061e-09	0.01701974	0.000943718	-1.045742e-11	7.281917e-09	0.02621526	-0.01287336
3.9e+08	0.02559247	-0.01462823	-6.178457e-10	-9.766266e-10	0.01687828	-0.0007827005	-1.325351e-10	1.23169e-09
	-6.178457e-10	-9.766266e-10	0.02551126	-0.01355243	2.982066e-09	2.989392e-08	0.01689173	0.0002968258
	0.01687828	-0.0007827005	2.982066e-09	2.989392e-08	0.02548744	-0.01469786	2.594881e-10	7.489569e-09
	-1.325351e-10	1.23169e-09	0.01689173	0.0002968258	2.594881e-10	7.489569e-09	0.02553137	-0.01368441
4e+08	0.02481493	-0.01541929	-6.55965e-10	-9.67485e-10	0.01664528	-0.001442899	-4.085519e-11	1.268216e-09
	-6.55965e-10	-9.67485e-10	0.02477775	-0.0143129	3.108827e-09	3.066172e-08	0.01670438	-0.0003364009
	0.01664528	-0.001442899	3.108827e-09	3.066172e-08	0.02470382	-0.01548323	5.43321e-10	7.676757e-09
	-4.085519e-11	1.268216e-09	0.01670438	-0.0003364009	5.43321e-10	7.676757e-09	0.02479097	-0.01444598
4.1e+08	0.02398256	-0.0161539	-6.930105e-10	-9.549588e-10	0.01635227	-0.002080837	5.534928e-11	1.297089e-09
	-6.930105e-10	-9.549588e-10	0.02399168	-0.01502053	3.241808e-09	3.142458e-08	0.01645904	-0.0009509778
	0.01635227	-0.002080837	3.241808e-09	3.142458e-08	0.02386579	-0.01621159	8.393291e-10	7.84205e-09
	5.534928e-11	1.297089e-09	0.01645904	-0.0009509778	8.393291e-10	7.84205e-09	0.02399803	-0.01515409
4.2e+08	0.02309984	-0.01682815	-7.286853e-10	-9.390212e-10	0.01600133	-0.002691435	1.553919e-10	1.317828e-09
	-7.286853e-10	-9.390212e-10	0.02315721	-0.01567165	3.380645e-09	3.218196e-08	0.01615748	-0.00154205
	0.01600133	-0.002691435	3.380645e-09	3.218196e-08	0.02297783	-0.01687907	1.145665e-09	7.984171e-09
	1.553919e-10	1.317828e-09	0.01615748	-0.00154205	1.145665e-09	7.984171e-09	0.02315673	-0.01580509
4.3e+08	0.02217149	-0.0174385	-7.626751e-10	-9.196632e-10	0.01559496	-0.003269801	2.585397e-10	1.330017e-09
	-7.626751e-10	-9.196632e-10	0.02227875	-0.01626295	3.524926e-09	3.293338e-08	0.01580187	-0.002104929
	0.01559496	-0.003269801	3.524926e-09	3.293338e-08	0.02204475	-0.01748215	1.460362e-09	8.102012e-09
	2.585397e-10	1.330017e-09	0.01580187	-0.002104929	1.460362e-09	8.102012e-09	0.02227154	-0.01639566
4.4e+08	0.0212025	-0.01798175	-7.946472e-10	-8.968982e-10	0.01513606	-0.003811271	3.640207e-10	1.333314e-09
	-7.946472e-10	-8.968982e-10	0.02136092	-0.01679142	3.674194e-09	3.367838e-08	0.01539479	-0.002635121
	0.01513606	-0.003811271	3.674194e-09	3.367838e-08	0.02107157	-0.01801768	1.781348e-09	8.19464e-09
	3.640207e-10	1.333314e-09	0.01539479	-0.002635121	1.781348e-09	8.19464e-09	0.02134714	-0.01692282
4.5e+08	0.02019806	-0.01845509	-8.242521e-10	-8.707646e-10	0.01462795	-0.004311443	4.710325e-10	1.327452e-09
	-8.242521e-10	-8.707646e-10	0.02040853	-0.01725442	3.827952e-09	3.441653e-08	0.01493915	-0.003128366
	0.01462795	-0.004311443	3.827952e-09	3.441653e-08	0.02006353	-0.01848289	2.106466e-09	8.26131e-09
	4.710324e-10	1.327452e-09	0.01493915	-0.003128366	2.106466e-09	8.26131e-09	0.0203884	-0.01738392
4.6e+08	0.01916356	-0.01885612	-8.511222e-10	-8.413299e-10	0.01407427	-0.004766204	5.787501e-10	1.312243e-09
	-8.511222e-10	-8.413299e-10	0.01942659	-0.01764969	3.985668e-09	3.514748e-08	0.01443823	-0.00358066
	0.01407427	-0.004766204	3.985668e-09	3.514748e-08	0.01902605	-0.01887542	2.433491e-09	8.301467e-09
	5.787501e-10	1.312243e-09	0.01443823	-0.00358066	2.433491e-09	8.301467e-09	0.01940037	-0.01777672
4.7e+08	0.01810454	-0.01918282	-8.748765e-10	-8.086967e-10	0.01347903	-0.005171766	6.863338e-10	1.287576e-09
	-8.748765e-10	-8.086967e-10	0.01842024	-0.01797531	4.14678e-09	3.587089e-08	0.01389565	-0.003988292
	0.01347903	-0.005171766	4.14678e-09	3.587089e-08	0.01796474	-0.01919333	2.760138e-09	8.314747e-09
	6.863338e-10	1.287576e-09	0.01389565	-0.003988292	2.760138e-09	8.314747e-09	0.01838822	-0.01809931
4.8e+08	0.0170267	-0.01943365	-8.951184e-10	-7.730019e-10	0.01284655	-0.005524691	7.929403e-10	1.253424e-09
