!$
! Info: Touchstone file created by Circ.  Input file=Tx_6in_Rx_93ohms_TxVia_10mils_RxVia_20mils.circ
!$
# Hz S RI R 50
0	0.00560328	4.231161e-26	-1.745854e-11	4.106626e-27	4.387368e-05	5.790863e-24	-2.163759e-08	2.649813e-24
	-1.744427e-11	4.105609e-27	0.005602646	6.034483e-26	1.688225e-11	1.394518e-28	4.348249e-05	7.925597e-24
	4.198413e-05	5.709303e-24	1.684695e-11	1.397947e-28	0.005617391	4.403414e-26	1.747881e-08	7.453731e-27
	-2.163832e-08	2.649903e-24	4.493983e-05	8.157341e-24	1.747934e-08	7.452568e-27	0.005608268	5.757861e-26
1e+07	0.008302828	0.0001264157	3.778617e-11	-4.249209e-11	0.0001517117	0.001069498	-7.276336e-09	1.903493e-08
	3.778619e-11	-4.249239e-11	0.008188994	-0.0002400475	-2.068563e-12	-7.45463e-11	0.0001556176	0.001166927
	0.0001516729	0.001069523	-2.068621e-12	-7.454599e-11	0.007748947	-0.0001923367	-9.242719e-09	1.859524e-08
	-7.276336e-09	1.903493e-08	0.00015565	0.001166915	-9.242719e-09	1.859524e-08	0.008037146	-0.0002502933
2e+07	0.01018561	-0.001895163	4.344484e-11	-5.081748e-11	0.0003991887	0.002163357	-7.488539e-09	2.291784e-08
	4.344455e-11	-5.081771e-11	0.009727852	-0.002448374	1.547039e-11	-1.790384e-10	0.0003308657	0.002340433
	0.0003991959	0.002163375	1.547058e-11	-1.790382e-10	0.009447501	-0.002209406	-1.225411e-08	1.849518e-08
	-7.488539e-09	2.291784e-08	0.0003308628	0.002340412	-1.225411e-08	1.849518e-08	0.009610557	-0.002409636
3e+07	0.01117603	-0.004810495	4.9046e-11	-1.158339e-10	0.0007723887	0.003218808	-2.744543e-09	1.790223e-08
	4.904594e-11	-1.158339e-10	0.01044413	-0.005375117	-3.848334e-11	-2.113687e-10	0.0006848445	0.003430103
	0.0007723862	0.003218809	-3.848323e-11	-2.113687e-10	0.01029659	-0.005087836	-9.085505e-09	2.124049e-08
	-2.744543e-09	1.790223e-08	0.0006848395	0.003430101	-9.085505e-09	2.124049e-08	0.0103535	-0.005326872
4e+07	0.01150192	-0.008031542	5.185542e-11	-1.688913e-10	0.001268512	0.004219272	-7.926679e-10	1.526539e-08
	5.185547e-11	-1.688913e-10	0.01053701	-0.008536463	-1.302882e-11	-2.680729e-10	0.001193947	0.004445713
	0.001268507	0.004219274	-1.30288e-11	-2.68073e-10	0.01050907	-0.008244089	-3.88967e-09	1.89027e-08
	-7.926679e-10	1.526539e-08	0.001193947	0.004445715	-3.88967e-09	1.89027e-08	0.01046807	-0.008490896
5e+07	0.01125027	-0.01137212	6.539494e-11	-2.188899e-10	0.001880181	0.005148963	9.484433e-10	1.509867e-08
	6.539497e-11	-2.188899e-10	0.01008546	-0.01176859	-5.056314e-11	-3.261459e-10	0.001813225	0.005382899
	0.00188018	0.005148965	-5.056314e-11	-3.261459e-10	0.01016699	-0.01149907	-3.940638e-10	1.43798e-08
	9.484433e-10	1.509867e-08	0.001813225	0.005382899	-3.940639e-10	1.43798e-08	0.01003265	-0.01173173
6e+07	0.01047275	-0.01471763	9.344121e-11	-2.741922e-10	0.002597672	0.005993851	6.182955e-09	1.597164e-08
	9.344121e-11	-2.741922e-10	0.009138845	-0.01496729	-8.816184e-11	-3.594562e-10	0.002533088	0.006230655
	0.002597673	0.005993848	-8.816185e-11	-3.594563e-10	0.009320205	-0.01474258	1.46318e-09	9.742931e-09
	6.182955e-09	1.597164e-08	0.002533085	0.006230656	1.46318e-09	9.74293e-09	0.009097745	-0.0149425
7e+07	0.009210281	-0.01798259	1.336882e-10	-3.326977e-10	0.003409552	0.006741639	1.282763e-08	9.858097e-09
	1.336883e-10	-3.326976e-10	0.007738332	-0.01805291	-1.220671e-10	-3.917914e-10	0.003342119	0.006978303
	0.003409552	0.006741633	-1.220672e-10	-3.917914e-10	0.008009209	-0.01789189	2.246181e-09	5.646894e-09
	1.282763e-08	9.858097e-09	0.003342114	0.006978305	2.246181e-09	5.646894e-09	0.007704988	-0.01804286
8e+07	0.007500924	-0.02109786	1.726933e-10	-3.743176e-10	0.004303086	0.007382008	1.196965e-08	3.295114e-09
	1.726935e-10	-3.743175e-10	0.005924121	-0.02095938	-1.563526e-10	-4.350615e-10	0.004227374	0.007616238
	0.004303085	0.007382002	-1.563527e-10	-4.350616e-10	0.006272827	-0.02087929	2.33485e-09	2.252251e-09
	1.196965e-08	3.295114e-09	0.00422737	0.007616242	2.33485e-09	2.252251e-09	0.00589422	-0.02096636
9e+07	0.005382397	-0.02400654	1.601348e-10	-4.155293e-10	0.005264912	0.007907294	9.86931e-09	7.572055e-10
	1.601348e-10	-4.155293e-10	0.003738943	-0.02362907	-1.79355e-10	-4.956085e-10	0.005174645	0.008136326
	0.005264911	0.00790729	-1.79355e-10	-4.956085e-10	0.004151364	-0.02364699	1.902055e-09	-4.428044e-10
	9.86931e-09	7.572055e-10	0.005174642	0.00813633	1.902054e-09	-4.428044e-10	0.003707509	-0.02365482
1e+08	0.002886067	-0.02667125	1.390998e-10	-5.587069e-10	0.00628514	0.008318264	8.199015e-09	-4.209801e-10
	1.390998e-10	-5.587069e-10	0.001237111	-0.02600059	-1.745502e-10	-5.590888e-10	0.006168734	0.008531926
	0.00628514	0.008318264	-1.745502e-10	-5.590888e-10	0.001690414	-0.02614175	1.063122e-09	-2.587769e-09
	8.199015e-09	-4.209801e-10	0.006168734	0.008531926	1.063122e-09	-2.587769e-09	0.001197509	-0.02604782
1.1e+08	2.405619e-05	-0.02899264	1.52329e-10	-6.390224e-10	0.007310656	0.00861603	8.990375e-09	-1.522402e-09
	1.52329e-10	-6.390224e-10	-0.001497835	-0.02811389	-1.949573e-10	-5.959125e-10	0.007192217	0.008799018
	0.007310656	0.00861603	-1.949573e-10	-5.959125e-10	-0.001050641	-0.02835473	1.186433e-09	-3.022328e-09
	8.990375e-09	-1.522402e-09	0.007192217	0.008799018	1.186433e-09	-3.022328e-09	-0.001555468	-0.0281744
1.2e+08	-0.00308577	-0.03093641	1.601485e-10	-7.21784e-10	0.008347037	0.008766165	9.656253e-09	-2.798028e-09
	1.601485e-10	-7.21784e-10	-0.004504803	-0.02990743	-2.140358e-10	-6.296576e-10	0.008230582	0.008936458
	0.008347037	0.008766165	-2.140358e-10	-6.296576e-10	-0.004058893	-0.03023308	1.286943e-09	-3.488733e-09
	9.656253e-09	-2.798028e-09	0.008230582	0.008936457	1.286943e-09	-3.488733e-09	-0.004579827	-0.02997542
1.3e+08	-0.006400716	-0.03249224	1.630045e-10	-8.077189e-10	0.009382287	0.008777444	1.016806e-08	-4.231687e-09
	1.630045e-10	-8.077189e-10	-0.007722721	-0.03133587	-2.312528e-10	-6.607753e-10	0.009267521	0.008943432
	0.009382287	0.008777444	-2.312528e-10	-6.607753e-10	-0.007280089	-0.03174296	1.359826e-09	-3.985402e-09
	1.016806e-08	-4.231687e-09	0.009267521	0.008943432	1.359826e-09	-3.985402e-09	-0.007815462	-0.03140778
1.4e+08	-0.009870177	-0.03364381	1.602373e-10	-8.970225e-10	0.01040028	0.008653619	1.049893e-08	-5.802145e-09
	1.602373e-10	-8.970225e-10	-0.01109729	-0.03237491	-2.461934e-10	-6.898835e-10	0.0102868	0.008821478
	0.01040028	0.008653619	-2.461934e-10	-6.898835e-10	-0.01066152	-0.03286214	1.399604e-09	-4.509658e-09
	1.049893e-08	-5.802145e-09	0.0102868	0.008821478	1.399604e-09	-4.509658e-09	-0.01120793	-0.03244756
1.5e+08	-0.01344211	-0.03437955	1.511996e-10	-9.886801e-10	0.0113848	0.008399412	1.062474e-08	-7.483939e-09
	1.511996e-10	-9.886801e-10	-0.0145747	-0.0330092	-2.585991e-10	-7.172143e-10	0.01127254	0.008574197
	0.0113848	0.008399412	-2.585991e-10	-7.172143e-10	-0.01415028	-0.03357594	1.401219e-09	-5.056862e-09
	1.062474e-08	-7.483939e-09	0.01127254	0.008574197	1.401219e-09	-5.056862e-09	-0.01470313	-0.03307961
1.6e+08	-0.01706415	-0.03469366	1.35253e-10	-1.081981e-09	0.01232013	0.008021137	1.052485e-08	-9.247785e-09
	1.35253e-10	-1.081981e-09	-0.01810149	-0.03323089	-2.682109e-10	-7.432561e-10	0.01220953	0.008207149
	0.01232013	0.008021137	-2.682109e-10	-7.432561e-10	-0.01769353	-0.03387661	1.360148e-09	-5.621995e-09
	1.052485e-08	-9.247785e-09	0.01220953	0.008207149	1.360148e-09	-5.621995e-09	-0.01824726	-0.03329623
1.7e+08	-0.02068432	-0.03458636	1.118245e-10	-1.176045e-09	0.01319137	0.007526807	1.018277e-08	-1.106108e-08
	1.118245e-10	-1.176045e-09	-0.02162487	-0.03303902	-2.748419e-10	-7.6853e-10	0.0130834	0.007727731
	0.01319137	0.007526807	-2.748419e-10	-7.6853e-10	-0.02123902	-0.03376297	1.272563e-09	-6.19926e-09
	1.018277e-08	-1.106108e-08	0.0130834	0.007727731	1.272563e-09	-6.19926e-09	-0.02178721	-0.03309663
1.8e+08	-0.02425167	-0.03406381	8.0455e-11	-1.269838e-09	0.01398476	0.006926092	9.586627e-09	-1.288851e-08
	8.0455e-11	-1.269838e-09	-0.02509334	-0.03243916	-2.783816e-10	-7.935781e-10	0.01388087	0.007145038
	0.01398476	0.006926092	-2.783816e-10	-7.935781e-10	-0.02473562	-0.03324013	1.13546e-09	-6.782179e-09
	9.586627e-09	-1.288851e-08	0.01388087	0.007145038	1.13546e-09	-6.782179e-09	-0.02527113	-0.03248658
1.9e+08	-0.02771692	-0.03313797	4.083894e-11	-1.362187e-09	0.01468786	0.006230202	8.729651e-09	-1.469274e-08
	4.083894e-11	-1.362187e-09	-0.02845716	-0.03144305	-2.78798e-10	-8.189542e-10	0.01458996	0.006469704
	0.01468786	0.006230202	-2.78798e-10	-8.189542e-10	-0.02813391	-0.03231923	9.4678e-10	-7.363721e-09
	8.729651e-09	-1.469274e-08	0.01458996	0.006469704	9.4678e-10	-7.363721e-09	-0.02864901	-0.03147802
2e+08	-0.03103302	-0.03182639	-7.140754e-12	-1.451813e-09	0.01528973	0.005451726	7.610451e-09	-1.643514e-08
	-7.140754e-12	-1.451813e-09	-0.03166902	-0.03006829	-2.76139e-10	-8.452137e-10	0.01520013	0.005713718
	0.01528973	0.005451726	-2.76139e-10	-8.452137e-10	-0.03138675	-0.03101711	7.05502e-10	-7.936444e-09
	7.610451e-09	-1.643514e-08	0.01520013	0.005713718	7.05502e-10	-7.936444e-09	-0.03187327	-0.0300888
2.1e+08	-0.03415612	-0.03015178	-6.336739e-11	-1.537365e-09	0.01578593	0.004591959	6.2333e-09	-1.807651e-08
	-6.336739e-11	-1.537365e-09	-0.03468458	-0.02833791	-2.705193e-10	-8.728895e-10	0.01570244	0.00489023
	0.01578593	0.004591959	-2.705193e-10	-8.728895e-10	-0.03445019	-0.0293559	4.11626e-10	-8.492373e-09
	6.2333e-09	-1.807651e-08	0.01570244	0.00489023	4.11626e-10	-8.492373e-09	-0.03489934	-0.0283422
2.2e+08	-0.03704545	-0.02814166	-1.27501e-10	-1.617463e-09	0.01616724	0.003663969	4.608087e-09	-1.957799e-08
	-1.27501e-10	-1.617463e-09	-0.03746303	-0.02627994	-2.621372e-10	-9.025061e-10	0.01608967	0.004013339
	0.01616724	0.003663969	-2.621372e-10	-9.025061e-10	-0.03728336	-0.02736261	6.647574e-11	-9.023607e-09
	4.608087e-09	-1.957799e-08	0.01608967	0.004013339	6.647574e-11	-9.023607e-09	-0.0376862	-0.02626656
2.3e+08	-0.03966357	-0.0258281	-1.989742e-10	-1.690735e-09	0.01642165	0.0026986	2.750197e-09	-2.090189e-08
	-1.989742e-10	-1.690735e-09	-0.03996756	-0.02392692	-2.512849e-10	-9.345761e-10	0.01635642	0.003097867
	0.01642165	0.0026986	-2.512849e-10	-9.345761e-10	-0.03984872	-0.02506888	-3.273636e-10	-9.522773e-09
	2.750197e-09	-2.090189e-08	0.01635642	0.003097867	-3.273636e-10	-9.522773e-09	-0.04019688	-0.02389471
2.4e+08	-0.04197777	-0.02324707	-2.769449e-10	-1.755872e-09	0.0165459	0.001712094	6.805998e-10	-2.201228e-08
	-2.769449e-10	-1.755872e-09	-0.04216584	-0.02131536	-2.383113e-10	-9.695572e-10	0.01649917	0.002159134
	0.0165459	0.001712094	-2.383113e-10	-9.695572e-10	-0.04211349	-0.02251027	-7.662742e-10	-9.982468e-09
	6.805998e-10	-2.201228e-08	0.01649917	0.002159134	-7.662742e-10	-9.982468e-09	-0.04239892	-0.02126348
2.5e+08	-0.04396004	-0.02043791	-3.603231e-10	-1.811677e-09	0.01653876	0.0007209302	-1.574496e-09	-2.28759e-08
	-3.603231e-10	-1.811676e-09	-0.04403038	-0.01848518	-2.2363e-10	-1.007858e-09	0.0165163	0.001212723
	0.01653876	0.0007209303	-2.2363e-10	-1.007858e-09	-0.04404952	-0.01972581	-1.245503e-09	-1.039574e-08
	-1.574496e-09	-2.28759e-08	0.0165163	0.001212723	-1.245503e-09	-1.039574e-08	-0.04426475	-0.01841311
2.6e+08	-0.04558738	-0.01744275	-4.47784e-10	-1.857112e-09	0.01640104	-0.0002584485	-3.983985e-09	-2.346283e-08
	-4.47784e-10	-1.857112e-09	-0.04553889	-0.01547904	-2.077062e-10	-1.049833e-09	0.01640812	0.0002742478
	0.01640104	-0.0002584485	-2.077062e-10	-1.049833e-09	-0.04563373	-0.01675733	-1.759222e-09	-1.075626e-08
	-3.983985e-09	-2.346283e-08	0.01640812	0.0002742478	-1.759222e-09	-1.075626e-08	-0.04577201	-0.01538661
2.7e+08	-0.04684206	-0.01430594	-5.378061e-10	-1.891349e-09	0.01613556	-0.001209872	-6.512311e-09	-2.37472e-08
	-5.378061e-10	-1.891349e-09	-0.04667443	-0.01234176	-1.910669e-10	-1.09577e-09	0.01617684	-0.0006408813
	0.01613556	-0.001209872	-1.910669e-10	-1.09577e-09	-0.04684828	-0.01364892	-2.300621e-09	-1.10585e-08
	-6.512311e-09	-2.37472e-08	0.01617684	-0.0006408813	-2.300621e-09	-1.10585e-08	-0.04690378	-0.01222913
2.8e+08	-0.0477118	-0.01107333	-6.286983e-10	-1.913803e-09	0.01574709	-0.002117686	-9.12e-09	-2.370781e-08
	-6.286983e-10	-1.913803e-09	-0.04742569	-0.009119624	-1.742777e-10	-1.145887e-09	0.01582653	-0.00151768
	0.01574709	-0.002117686	-1.742777e-10	-1.145887e-09	-0.04768079	-0.01044622	-2.862015e-09	-1.129783e-08
	-9.12e-09	-2.370781e-08	0.01582653	-0.00151768	-2.862015e-09	-1.129783e-08	-0.0476488	-0.008987288
2.9e+08	-0.0481899	-0.007791694	-7.18646e-10	-1.924171e-09	0.01524227	-0.00296698	-1.176428e-08	-2.332868e-08
	-7.18646e-10	-1.924171e-09	-0.04778703	-0.005859706	-1.579361e-10	-1.200326e-09	0.01536304	-0.002341809
	0.01524227	-0.00296698	-1.579361e-10	-1.200326e-09	-0.04812446	-0.007195822	-3.434987e-09	-1.147074e-08
	-1.176428e-08	-2.332868e-08	0.01536304	-0.002341809	-3.434987e-09	-1.147074e-08	-0.04800149	-0.005708485
3e+08	-0.04827525	-0.004508063	-8.057621e-10	-1.922452e-09	0.01462951	-0.003743804	-1.439975e-08	-2.259953e-08
	-8.057621e-10	-1.922452e-09	-0.04775852	-0.002609207	-1.426638e-10	-1.259149e-09	0.01479392	-0.003099778
	0.01462951	-0.003743804	-1.426638e-10	-1.259149e-09	-0.0481781	-0.00394459	-4.01054e-09	-1.157487e-08
	-1.439975e-08	-2.259953e-08	0.01479392	-0.003099778	-4.01054e-09	-1.157487e-08	-0.04796207	-0.002440229
3.1e+08	-0.0479723	-0.001269036	-8.881445e-10	-1.908964e-09	0.01391884	-0.004435373	-1.697916e-08	-2.151614e-08
	-8.881445e-10	-1.908964e-09	-0.04734589	0.0005852393	-1.290965e-10	-1.322334e-09	0.01412829	-0.003779143
	0.01391884	-0.004435373	-1.290965e-10	-1.322334e-09	-0.04784609	-0.0007389884	-4.579276e-09	-1.160913e-08
	-1.697916e-08	-2.151614e-08	0.01412829	-0.003779143	-4.579276e-09	-1.160913e-08	-0.0475364	0.0007705469
3.2e+08	-0.04729096	0.001879822	-9.639325e-10	-1.884344e-09	0.01312179	-0.005030248	-1.945422e-08	-2.008067e-08
	-9.639325e-10	-1.884344e-09	-0.04656035	0.003678201	-1.178734e-10	-1.389772e-09	0.01337669	-0.004368679
	0.01312179	-0.005030248	-1.178734e-10	-1.389772e-09	-0.0471383	0.002375538	-5.131571e-09	-1.157377e-08
	-1.945422e-08	-2.008067e-08	0.01337669	-0.004368679	-5.131571e-09	-1.157377e-08	-0.04673592	0.003878139
3.3e+08	-0.04624644	0.004894619	-1.031365e-09	-1.849541e-09	0.01225117	-0.005518505	-2.177639e-08	-1.830182e-08
	-1.031365e-09	-1.849541e-09	-0.04541845	0.006626091	-1.096262e-10	-1.461266e-09	0.01255095	-0.004858543
	0.01225117	-0.005518505	-1.096262e-10	-1.461266e-09	-0.04606985	0.005355202	-5.657777e-09	-1.147037e-08
	-2.177639e-08	-1.830182e-08	0.01255095	-0.004858543	-5.657777e-09	-1.147037e-08	-0.04557738	0.006838714
3.4e+08	-0.04485892	0.007733736	-1.088835e-09	-1.805794e-09	0.01132091	-0.005891881	-2.389782e-08	-1.619493e-08
	-1.088835e-09	-1.805794e-09	-0.04394176	0.009387783	-1.049677e-10	-1.536533e-09	0.01166398	-0.005240415
	0.01132091	-0.005891881	-1.049677e-10	-1.536533e-09	-0.04466093	0.008158488	-6.148414e-09	-1.130191e-08
	-2.389782e-08	-1.619493e-08	0.01166398	-0.005240415	-6.148414e-09	-1.130191e-08	-0.04408262	0.009610928
3.5e+08	-0.04315335	0.01035838	-1.134943e-09	-1.754603e-09	0.01034585	-0.006143889	-2.577223e-08	-1.37819e-08
	-1.134943e-09	-1.754603e-09	-0.04215652	0.01192516	-1.044803e-10	-1.6152e-09	0.01072964	-0.005507618
	0.01034585	-0.006143889	-1.044803e-10	-1.6152e-09	-0.04293644	0.01074669	-6.594364e-09	-1.107268e-08
	-2.577223e-08	-1.37819e-08	0.01072964	-0.005507618	-6.594364e-09	-1.107268e-08	-0.04227819	0.01215648
3.6e+08	-0.04115895	0.01273312	-1.168538e-09	-1.697687e-09	0.009341487	-0.00626992	-2.735577e-08	-1.109106e-08
	-1.168538e-09	-1.697687e-09	-0.04009328	0.01420364	-1.087039e-10	-1.696813e-09	0.009762455	-0.005655211
	0.009341487	-0.00626992	-1.087039e-10	-1.696813e-09	-0.04092562	0.01308447	-6.987064e-09	-1.078825e-08
	-2.735577e-08	-1.109106e-08	0.009762455	-0.005655211	-6.987064e-09	-1.078825e-08	-0.04019492	0.01444066
3.7e+08	-0.03890887	0.01482632	-1.188751e-09	-1.63694e-09	0.008323795	-0.006267311	-2.860791e-08	-8.15691e-09
	-1.188751e-09	-1.63694e-09	-0.03778639	0.01619267	-1.181242e-10	-1.780834e-09	0.008777467	-0.005680071
	0.008323795	-0.006267311	-1.181242e-10	-1.780834e-09	-0.03866163	0.0151403	-7.318677e-09	-1.045539e-08
	-2.860791e-08	-8.15691e-09	0.008777467	-0.005680071	-7.318677e-09	-1.045539e-08	-0.0378675	0.0164328
3.8e+08	-0.03643966	0.01661063	-1.195023e-09	-1.574374e-09	0.00730895	-0.006135387	-2.949231e-08	-5.019678e-09
	-1.195023e-09	-1.574374e-09	-0.03527351	0.01786611	-1.331602e-10	-1.866653e-09	0.007789988	-0.005580935
	0.00730895	-0.006135387	-1.331602e-10	-1.866653e-09	-0.03618101	0.01688693	-7.582264e-09	-1.008198e-08
	-2.949231e-08	-5.019678e-09	0.007789988	-0.005580935	-7.582264e-09	-1.008198e-08	-0.03533394	0.01810669
3.9e+08	-0.03379077	0.01806328	-1.187117e-09	-1.512065e-09	0.006313099	-0.005875476	-2.997758e-08	-1.724844e-09
	-1.187117e-09	-1.512065e-09	-0.03259507	0.01920257	-1.541536e-10	-1.953593e-09	0.006815376	-0.005358422
	0.006313099	-0.005875476	-1.541536e-10	-1.953593e-09	-0.03352325	0.01830169	-7.771927e-09	-9.676831e-09
	-2.997758e-08	-1.724844e-09	0.006815376	-0.005358422	-7.771927e-09	-9.676831e-09	-0.03263499	0.01944094
4e+08	-0.03100393	0.01916641	-1.165118e-09	-1.452098e-09	0.005352117	-0.005490895	-3.003808e-08	1.677489e-09
	-1.165118e-09	-1.452098e-09	-0.02979364	0.02018576	-1.813578e-10	-2.040919e-09	0.005868811	-0.005015034
	0.005352117	-0.005490895	-1.813578e-10	-2.040919e-09	-0.0307301	0.01936686	-7.882933e-09	-9.249588e-09
	-3.003808e-08	1.677489e-09	0.005868811	-0.005015034	-7.882933e-09	-9.249588e-09	-0.02981359	0.02041928
4.1e+08	-0.02812261	0.0199073	-1.12943e-09	-1.396507e-09	0.004441361	-0.004986909	-2.965451e-08	5.133324e-09
	-1.12943e-09	-1.396507e-09	-0.02691333	0.02080461	-2.149281e-10	-2.127852e-09	0.004965064	-0.004555123
	0.004441361	-0.004986909	-2.149281e-10	-2.127852e-09	-0.02784507	0.02006985	-7.911822e-09	-8.810543e-09
	-2.965451e-08	5.133324e-09	0.004965064	-0.004555123	-7.911822e-09	-8.810543e-09	-0.02691419	0.02103072
4.2e+08	-0.02519137	0.0202785	-1.080752e-09	-1.34723e-09	0.003595439	-0.004370654	-2.881453e-08	8.585583e-09
	-1.080752e-09	-1.34723e-09	-0.02399916	0.02105349	-2.549136e-10	-2.213577e-09	0.004118276	-0.003984831
	0.003595439	-0.004370654	-2.549136e-10	-2.213577e-09	-0.02491273	0.02040337	-7.856484e-09	-8.370467e-09
	-2.881453e-08	8.585583e-09	0.004118276	-0.003984831	-7.856484e-09	-8.370467e-09	-0.02398215	0.02126975
4.3e+08	-0.02225523	0.02027797	-1.020053e-09	-1.306058e-09	0.00282798	-0.00365104	-2.751322e-08	1.197502e-08
	-1.020053e-09	-1.306058e-09	-0.0210964	0.02093222	-3.012506e-10	-2.297263e-09	0.003341741	-0.003312006
	0.00282798	-0.00365104	-3.012506e-10	-2.297263e-09	-0.02197812	0.02036553	-7.716214e-09	-7.940429e-09
	-2.751322e-08	1.197502e-08	0.003341741	-0.003312006	-7.716214e-09	-7.940429e-09	-0.02106303	0.02113633
4.4e+08	-0.01935902	0.01990902	-9.485371e-10	-1.274602e-09	0.002151417	-0.002838622	-2.575341e-08	1.524117e-08
	-9.485371e-10	-1.274602e-09	-0.01824988	0.02044604	-3.537582e-10	-2.378076e-09	0.002647697	-0.002546091
	0.002151417	-0.002838622	-3.537582e-10	-2.378076e-09	-0.01908609	0.01995983	-7.491741e-09	-7.531608e-09
	-2.575341e-08	1.524117e-08	0.002647697	-0.002546091	-7.491741e-09	-7.531608e-09	-0.01820198	0.02063593
4.5e+08	-0.01654678	0.0191803	-8.675926e-10	-1.254278e-09	0.001576793	-0.001945445	-2.354593e-08	1.832344e-08
	-8.675926e-10	-1.254278e-09	-0.01550341	0.01960557	-4.121371e-10	-2.455195e-09	0.00204714	-0.001697988
	0.001576793	-0.001945445	-4.121371e-10	-2.455195e-09	-0.01628066	0.01919512	-7.185223e-09	-7.155128e-09
	-2.354593e-08	1.832344e-08	0.00204714	-0.001697988	-7.185223e-09	-7.155128e-09	-0.01544307	0.01977939
4.6e+08	-0.01386106	0.01810566	-7.799456e-10	-1.244272e-09	0.001113576	-0.0009848629	-2.090822e-08	2.116017e-08
	-7.799456e-10	-1.244272e-09	-0.01289908	0.0184266	-4.758616e-10	-2.528071e-09	0.001549643	-0.0007798975
	0.001113576	-0.0009848629	-4.758616e-10	-2.528071e-09	-0.01360438	0.01808542	-6.80146e-09	-6.819736e-09
	-2.090822e-08	2.116017e-08	0.001549643	-0.0007798975	-6.80146e-09	-6.819736e-09	-0.0128286	0.0185828
4.7e+08	-0.0113424	0.01670384	-6.858429e-10	-1.247616e-09	0.0007695057	2.866212e-05	-1.786888e-08	2.369471e-08
