!$
! Info: Touchstone file created by Circ.  Input file=Tx_6in_Rx_85ohms_TxVia_10mils_RxVia_20mils.circ
!$
# Hz S RI R 50
0	0.004933098	4.245631e-26	-3.268527e-05	1.876088e-25	4.401936e-05	5.091815e-24	-3.269053e-05	4.683044e-25
	-3.268528e-05	1.878393e-25	0.004932474	6.055593e-26	-3.268569e-05	4.551822e-26	4.362913e-05	6.967253e-24
	4.212976e-05	5.020119e-24	-3.268569e-05	4.576866e-26	0.004947246	4.418512e-26	-3.268469e-05	3.874067e-25
	-3.269052e-05	4.669462e-25	4.508672e-05	7.170977e-24	-3.268467e-05	3.857898e-25	0.004938103	5.777938e-26
1e+07	0.007386047	-0.005318297	-0.0001413082	-2.062645e-05	0.0001132583	0.00115478	-9.781335e-05	5.889018e-05
	-0.0001413082	-2.062645e-05	0.006571774	-0.005422319	-3.998578e-06	-9.447115e-06	0.0001579264	0.001158708
	0.0001132197	0.001154806	-3.998576e-06	-9.447116e-06	0.006598729	-0.005525515	-2.971042e-05	-1.052967e-05
	-9.781335e-05	5.889018e-05	0.0001579587	0.001158697	-2.971042e-05	-1.052967e-05	0.006567774	-0.005417963
2e+07	0.007970851	-0.01260906	-0.0001277019	1.30925e-06	0.0003335145	0.002293816	-9.67105e-05	5.486182e-05
	-0.0001277019	1.309248e-06	0.007220902	-0.01248441	-3.614334e-06	-2.814142e-06	0.0003982787	0.002263313
	0.000333522	0.002293834	-3.614333e-06	-2.814143e-06	0.007163271	-0.01266033	-2.684316e-05	1.818028e-06
	-9.67105e-05	5.486183e-05	0.0003982755	0.002263292	-2.684316e-05	1.818029e-06	0.007220199	-0.01246958
3e+07	0.007094164	-0.02043869	-0.0001204363	-6.830135e-06	0.0007269214	0.003357007	-9.038745e-05	6.437976e-05
	-0.0001204363	-6.830135e-06	0.00638621	-0.02022514	-3.389848e-06	-1.00886e-06	0.0007670026	0.003318345
	0.000726919	0.003357008	-3.389848e-06	-1.00886e-06	0.006271365	-0.02042272	-2.611246e-05	-1.547411e-06
	-9.038745e-05	6.437976e-05	0.0007669975	0.003318342	-2.611246e-05	-1.547411e-06	0.006388424	-0.02020313
4e+07	0.004989877	-0.02825497	-0.0001149561	-9.810424e-06	0.001244429	0.004349861	-8.016617e-05	7.347775e-05
	-0.0001149561	-9.810423e-06	0.004310557	-0.02797862	-3.170335e-06	2.5365e-08	0.001258575	0.00431087
	0.001244424	0.004349864	-3.170335e-06	2.536512e-08	0.004156839	-0.02818216	-2.589483e-05	-3.212466e-06
	-8.016617e-05	7.347775e-05	0.001258575	0.004310871	-2.589483e-05	-3.212466e-06	0.004315075	-0.02795223
5e+07	0.001777232	-0.03582314	-0.0001105975	-1.053603e-05	0.001876926	0.005259947	-6.686582e-05	7.999272e-05
	-0.0001105975	-1.053603e-05	0.001116161	-0.0354938	-2.943217e-06	7.554075e-07	0.001863806	0.005226643
	0.001876924	0.005259949	-2.943217e-06	7.554075e-07	0.0009384169	-0.03569582	-2.603711e-05	-4.052487e-06
	-6.686582e-05	7.999272e-05	0.001863806	0.005226643	-2.603711e-05	-4.052487e-06	0.001120989	-0.03546376
6e+07	-0.002447001	-0.04297348	-0.0001069635	-9.933855e-06	0.002612718	0.006074472	-5.135956e-05	8.283599e-05
	-0.0001069635	-9.933855e-06	-0.003098285	-0.04259452	-2.703709e-06	1.326873e-06	0.002571374	0.006052453
	0.002612719	0.00607447	-2.703709e-06	1.326873e-06	-0.003287297	-0.04279163	-2.642624e-05	-4.32852e-06
	-5.135956e-05	8.283599e-05	0.002571371	0.006052454	-2.642624e-05	-4.328521e-06	-0.003094274	-0.04256053
7e+07	-0.00758738	-0.0495678	-0.0001037695	-8.383038e-06	0.00343821	0.006781827	-3.463038e-05	8.127178e-05
	-0.0001037695	-8.383038e-06	-0.008235735	-0.04913908	-2.604284e-06	1.428933e-06	0.003368252	0.006776611
	0.00343821	0.006781822	-2.604284e-06	1.428933e-06	-0.008424725	-0.04933031	-2.696737e-05	-4.14245e-06
	-3.463038e-05	8.127178e-05	0.003368247	0.006776614	-2.696737e-05	-4.142451e-06	-0.008233252	-0.04910104
8e+07	-0.0135435	-0.05548971	-0.0001007712	-6.044094e-06	0.004338281	0.007372175	-1.779823e-05	7.47381e-05
	-0.0001007712	-6.044093e-06	-0.01419432	-0.05500896	-2.585199e-06	1.365009e-06	0.004239994	0.007389325
	0.00433828	0.007372169	-2.585199e-06	1.365008e-06	-0.01437301	-0.05519469	-2.757186e-05	-3.543256e-06
	-1.779823e-05	7.47381e-05	0.00423999	0.00738933	-2.757186e-05	-3.543257e-06	-0.01419436	-0.0549669
9e+07	-0.02020831	-0.06064119	-9.77066e-05	-2.926352e-06	0.00529667	0.007837845	-2.208526e-06	6.266884e-05
	-9.77066e-05	-2.926352e-06	-0.02086569	-0.06010498	-2.571782e-06	1.327872e-06	0.005171161	0.007883095
	0.005296668	0.007837841	-2.571783e-06	1.327872e-06	-0.02102407	-0.06028556	-2.815308e-05	-2.554662e-06
	-2.208525e-06	6.266884e-05	0.005171158	0.007883099	-2.815308e-05	-2.554662e-06	-0.02086962	-0.06005857
1e+08	-0.02746842	-0.06494169	-9.398272e-05	1.544477e-06	0.006296774	0.008174092	9.608295e-06	4.296261e-05
	-9.398272e-05	1.544477e-06	-0.02813629	-0.06434745	-2.567512e-06	1.294391e-06	0.006146624	0.008254261
	0.006296774	0.008174092	-2.567512e-06	1.294391e-06	-0.02825988	-0.06451631	-2.859789e-05	-1.127184e-06
	9.608295e-06	4.296261e-05	0.006146624	0.008254261	-2.859789e-05	-1.127184e-06	-0.02814564	-0.06429591
1.1e+08	-0.03520397	-0.06833482	-9.256564e-05	7.689726e-06	0.007323148	0.008374272	2.652326e-05	1.444317e-05
	-9.256564e-05	7.689726e-06	-0.03589044	-0.06766958	-2.515271e-06	1.265959e-06	0.007154512	0.008490598
	0.007323147	0.008374272	-2.515271e-06	1.265959e-06	-0.03594304	-0.06785896	-2.920278e-05	7.180997e-07
	2.652326e-05	1.444317e-05	0.007154512	0.008490598	-2.920278e-05	7.180997e-07	-0.0359053	-0.0676106
1.2e+08	-0.04329417	-0.07075963	-9.147113e-05	1.29492e-05	0.00835355	0.008438327	4.162929e-05	-1.442168e-05
	-9.147113e-05	1.29492e-05	-0.04399388	-0.07001293	-2.458094e-06	1.272356e-06	0.008167749	0.008593142
	0.00835355	0.008438327	-2.458094e-06	1.272356e-06	-0.0439877	-0.07024753	-2.966662e-05	2.657364e-06
	4.162929e-05	-1.442168e-05	0.008167749	0.008593142	-2.966662e-05	2.657364e-06	-0.04401425	-0.06994503
1.3e+08	-0.051611	-0.07218587	-9.025066e-05	1.801441e-05	0.009371091	0.008368947	5.285567e-05	-4.550549e-05
	-9.025066e-05	1.801441e-05	-0.05231834	-0.07135001	-2.397955e-06	1.296185e-06	0.009170752	0.008565529
	0.009371091	0.008368947	-2.397955e-06	1.296185e-06	-0.05226192	-0.07164355	-2.991252e-05	4.734383e-06
	5.285567e-05	-4.550549e-05	0.009170752	0.008565529	-2.991252e-05	4.734383e-06	-0.05234407	-0.07127174
1.4e+08	-0.06002613	-0.07259941	-8.879557e-05	2.299142e-05	0.01035906	0.008170274	5.931364e-05	-7.86568e-05
	-8.879557e-05	2.299142e-05	-0.06073436	-0.07166779	-2.334099e-06	1.331764e-06	0.01014755	0.008411723
	0.01035906	0.008170275	-2.334099e-06	1.331764e-06	-0.06063626	-0.07203073	-2.990396e-05	6.917081e-06
	5.931364e-05	-7.86568e-05	0.01014755	0.008411723	-2.990396e-05	6.917081e-06	-0.06076501	-0.0715777
1.5e+08	-0.06841267	-0.072002	-8.704837e-05	2.789662e-05	0.01130157	0.007848395	6.037429e-05	-0.0001133102
	-8.704837e-05	2.789662e-05	-0.06911387	-0.0709691	-2.265678e-06	1.375309e-06	0.01108286	0.008137417
	0.01130157	0.007848395	-2.265678e-06	1.375309e-06	-0.06898313	-0.07140974	-2.961844e-05	9.160247e-06
	6.037429e-05	-0.0001133102	0.01108286	0.008137417	-2.961844e-05	9.160247e-06	-0.06914871	-0.07086579
1.6e+08	-0.07664676	-0.0704107	-8.497616e-05	3.271226e-05	0.01218381	0.007411235	5.560339e-05	-0.0001486937
	-8.497616e-05	3.271226e-05	-0.07733192	-0.06927219	-2.192003e-06	1.423813e-06	0.01196239	0.007750021
	0.01218381	0.007411235	-2.192003e-06	1.423813e-06	-0.07717813	-0.06979704	-2.904515e-05	1.141395e-05
	5.560339e-05	-0.0001486937	0.01196239	0.007750021	-2.904515e-05	1.141395e-05	-0.07736989	-0.06915436
1.7e+08	-0.08460912	-0.06785714	-8.256299e-05	3.740514e-05	0.01299229	0.006868384	4.475046e-05	-0.0001839162
	-8.256299e-05	3.740514e-05	-0.08526826	-0.06661004	-2.112655e-06	1.474651e-06	0.01277309	0.00725851
	0.01299229	0.006868384	-2.112655e-06	1.474651e-06	-0.08510156	-0.06722395	-2.818404e-05	1.362734e-05
	4.475046e-05	-0.0001839162	0.01277309	0.00725851	-2.818404e-05	1.362734e-05	-0.08530808	-0.06647656
1.8e+08	-0.09218656	-0.06438665	-7.980637e-05	4.193521e-05	0.01371498	0.006230879	2.774795e-05	-0.000218022
	-7.980637e-05	4.193521e-05	-0.09280889	-0.06302944	-2.02754e-06	1.525446e-06	0.01350327	0.006673234
	0.01371498	0.006230879	-2.02754e-06	1.525446e-06	-0.09263986	-0.06373567	-2.704492e-05	1.575114e-05
	2.774795e-05	-0.000218022	0.01350327	0.006673234	-2.704492e-05	1.575114e-05	-0.09284903	-0.0628794
1.9e+08	-0.09927331	-0.06005725	-7.671513e-05	4.62605e-05	0.01434149	0.005510985	4.708949e-06	-0.0002500348
	-7.671513e-05	4.62605e-05	-0.09984745	-0.05859006	-1.936921e-06	1.574035e-06	0.01414278	0.006005708
	0.01434149	0.005510985	-1.936921e-06	1.574035e-06	-0.09968699	-0.0593902	-2.56464e-05	1.773955e-05
	4.708949e-06	-0.0002500348	0.01414278	0.006005708	-2.56464e-05	1.773955e-05	-0.0998862	-0.05842279
2e+08	-0.1057723	-0.05493854	-7.330762e-05	5.034018e-05	0.01486313	0.004721964	-2.407809e-05	-0.0002789953
	-7.330762e-05	5.034018e-05	-0.1062865	-0.05336321	-1.841421e-06	1.618482e-06	0.01468304	0.005268396
	0.01486313	0.004721964	-1.841421e-06	1.618482e-06	-0.1061457	-0.05425722	-2.401475e-05	1.955166e-05
	-2.407809e-05	-0.0002789953	0.01468304	0.005268396	-2.401475e-05	1.955166e-05	-0.106322	-0.05317833
2.1e+08	-0.1115961	-0.0491105	-6.961013e-05	5.41368e-05	0.01527296	0.003877842	-5.815947e-05	-0.0003039936
	-6.961013e-05	5.41368e-05	-0.1120386	-0.04743071	-1.742012e-06	1.65712e-06	0.01511714	0.0044745
	0.01527296	0.003877842	-1.742012e-06	1.65712e-06	-0.1119284	-0.04841683	-2.218256e-05	2.115264e-05
	-5.815947e-05	-0.0003039936	0.01511714	0.0044745	-2.218256e-05	2.115264e-05	-0.1120689	-0.04722811
2.2e+08	-0.1166683	-0.04266216	-6.565547e-05	5.761761e-05	0.01556585	0.002993186	-9.692983e-05	-0.0003241989
	-6.565547e-05	5.761761e-05	-0.1170273	-0.04088342	-1.639976e-06	1.688599e-06	0.01543983	0.003637753
	0.01556585	0.002993186	-1.639976e-06	1.688599e-06	-0.1169586	-0.04195826	-2.018737e-05	2.251443e-05
	-9.692983e-05	-0.0003241989	0.01543983	0.003637753	-2.018737e-05	2.251443e-05	-0.1170505	-0.04066332
2.3e+08	-0.1209238	-0.03569026	-6.14815e-05	6.075553e-05	0.0157385	0.002082889	-0.0001396497	-0.0003388852
	-6.14815e-05	6.075553e-05	-0.1211882	-0.03381992	-1.53684e-06	1.711937e-06	0.01564757	0.002772222
	0.0157385	0.002082889	-1.53684e-06	1.711937e-06	-0.1211711	-0.03497843	-1.807029e-05	2.361633e-05
	-0.0001396497	-0.0003388852	0.01564757	0.002772222	-1.807029e-05	2.361633e-05	-0.1212022	-0.03358285
2.4e+08	-0.1243097	-0.02829782	-5.712972e-05	6.352994e-05	0.01578938	0.001161967	-0.000185467	-0.000347451
	-5.712972e-05	6.352994e-05	-0.124469	-0.02634505	-1.434319e-06	1.726566e-06	0.01573847	0.00189212
	0.01578938	0.001161967	-1.434319e-06	1.726566e-06	-0.1245132	-0.02758061	-1.587463e-05	2.444522e-05
	-0.000185467	-0.000347451	0.01573847	0.00189212	-1.587463e-05	2.444522e-05	-0.1244719	-0.02609184
2.5e+08	-0.126786	-0.02059266	-5.264403e-05	6.592685e-05	0.01571873	0.0002453679	-0.0002334403	-0.0003494379
	-5.264403e-05	6.592685e-05	-0.1268307	-0.01856836	-1.334215e-06	1.732352e-06	0.0157123	0.001011637
	0.01571873	0.0002453679	-1.334215e-06	1.732352e-06	-0.1269448	-0.01987285	-1.364458e-05	2.499556e-05
	-0.0002334403	-0.0003494379	0.0157123	0.001011637	-1.364458e-05	2.499556e-05	-0.1268206	-0.01830014
2.6e+08	-0.1283255	-0.01268597	-4.806948e-05	6.793908e-05	0.01552848	-0.0006522129	-0.0002825643	-0.0003445419
	-4.806948e-05	6.793908e-05	-0.1282474	-0.01060262	-1.238327e-06	1.729607e-06	0.0155704	0.0001447718
	0.01552848	-0.0006522129	-1.238327e-06	1.729607e-06	-0.128439	-0.01196658	-1.142399e-05	2.526928e-05
	-0.0002825643	-0.0003445419	0.0155704	0.0001447718	-1.142399e-05	2.526928e-05	-0.1282226	-0.01032082
2.7e+08	-0.1289144	-0.00469079	-4.345118e-05	6.956612e-05	0.01522225	-0.001516495	-0.0003317964	-0.0003326232
	-4.345118e-05	6.956612e-05	-0.1287068	-0.002562306	-1.148355e-06	1.719068e-06	0.01531569	-0.0006948164
	0.01522225	-0.001516495	-1.148355e-06	1.719068e-06	-0.1289821	-0.003975083	-9.255218e-06	2.527541e-05
	-0.0003317964	-0.0003326232	0.01531569	-0.0006948164	-9.255218e-06	2.527541e-05	-0.1286658	-0.002268648
2.8e+08	-0.128552	0.003279479	-3.883326e-05	7.081411e-05	0.0148052	-0.002333776	-0.0003800849	-0.0003137067
	-3.883326e-05	7.081411e-05	-0.12821	0.005437924	-1.065813e-06	1.701879e-06	0.01495255	-0.001493952
	0.0148052	-0.002333776	-1.065813e-06	1.701879e-06	-0.1285736	0.003988027	-7.17811e-06	2.502971e-05
	-0.0003800849	-0.0003137067	0.01495255	-0.001493952	-7.17811e-06	2.502971e-05	-0.1281514	0.005741488
2.9e+08	-0.1272509	0.01111251	-3.425786e-05	7.169535e-05	0.01428404	-0.003091075	-0.0004263957	-0.0002879825
	-3.425786e-05	7.169535e-05	-0.1267714	0.01328473	-9.919352e-07	1.67953e-06	0.01448681	-0.00224008
	0.01428404	-0.003091075	-9.919352e-07	1.67953e-06	-0.1272266	0.01181022	-5.229014e-06	2.455404e-05
	-0.0004263957	-0.0002879825	0.01448681	-0.00224008	-5.229014e-06	2.455404e-05	-0.1266942	0.01359602
3e+08	-0.1250365	0.01869849	-2.976436e-05	7.222788e-05	0.01366688	-0.003776279	-0.0004697392	-0.0002558026
	-2.976436e-05	7.222788e-05	-0.1244187	0.02086757	-9.276134e-07	1.653779e-06	0.01392564	-0.002921393
	0.01366688	-0.003776279	-9.276134e-07	1.653779e-06	-0.1249666	0.01938154	-3.439981e-06	2.387574e-05
	-0.0004697392	-0.0002558026	0.01392564	-0.002921393	-3.439981e-06	2.387574e-05	-0.1243221	0.02118421
3.1e+08	-0.1219467	0.02593158	-2.538845e-05	7.243506e-05	0.01296314	-0.004378278	-0.0005091953	-0.0002176655
	-2.538845e-05	7.243506e-05	-0.1211919	0.0280801	-8.733417e-07	1.626584e-06	0.01327749	-0.003526961
	0.01296314	-0.004378278	-8.733417e-07	1.626584e-06	-0.121832	0.026596	-1.837953e-06	2.30269e-05
	-0.0005091953	-0.0002176655	0.01327749	-0.003526961	-1.837953e-06	2.30269e-05	-0.1210754	0.02839957
3.2e+08	-0.1180314	0.03271118	-2.116145e-05	7.234481e-05	0.0121835	-0.004887095	-0.0005439359	-0.0001742063
	-2.116145e-05	7.234481e-05	-0.1171434	0.0348216	-8.291823e-07	1.599995e-06	0.01255201	-0.004046853
	0.0121835	-0.004887095	-8.291823e-07	1.599995e-06	-0.1178732	0.03335294	-4.441268e-07	2.204349e-05
	-0.0005439359	-0.0001742063	0.01255201	-0.004046853	-4.441268e-07	2.204349e-05	-0.1170069	0.03514125
3.3e+08	-0.1133519	0.0389433	-1.710971e-05	7.198948e-05	0.01133973	-0.005294013	-0.0005732554	-0.000126201
	-1.710971e-05	7.198948e-05	-0.1123368	0.04099821	-7.94748e-07	1.576065e-06	0.01175993	-0.004472258
	0.01133973	-0.005294013	-7.94748e-07	1.576065e-06	-0.1131518	0.03955834	7.26556e-07	2.096468e-05
	-0.0005732554	-0.000126201	0.01175993	-0.004472258	7.26556e-07	2.096468e-05	-0.1121805	0.04131535
3.4e+08	-0.1079799	0.04454181	-1.324422e-05	7.131181e-05	0.0104446	-0.005591695	-0.0005927976	-6.685549e-05
	-1.324422e-05	7.131181e-05	-0.1068462	0.04652424	-7.701975e-07	1.557823e-06	0.01091298	-0.004795605
	0.0104446	-0.005591695	-7.701975e-07	1.557823e-06	-0.10774	0.04512609	1.670755e-06	1.973907e-05
	-0.0005927976	-6.685549e-05	0.01091298	-0.004795605	1.670755e-06	1.973907e-05	-0.1066708	0.0468362
3.5e+08	-0.1019968	0.04942949	-9.604616e-06	7.04261e-05	0.009511738	-0.005774305	-0.0006043278	-4.217949e-06
	-9.604616e-06	7.04261e-05	-0.1007553	0.05132331	-7.532082e-07	1.546424e-06	0.01002378	-0.005010678
	0.009511738	-0.005774305	-7.532082e-07	1.546424e-06	-0.1017198	0.04997907	2.36625e-06	1.848642e-05
	-0.0006043278	-4.217949e-06	0.01002378	-0.005010678	2.36625e-06	1.848642e-05	-0.1005618	0.05162743
3.6e+08	-0.09549233	0.05353915	-6.201624e-06	6.938745e-05	0.008555463	-0.00583761	-0.0006081297	5.944944e-05
	-6.201624e-06	6.938745e-05	-0.09415639	0.05532941	-7.419724e-07	1.543157e-06	0.009105672	-0.005112724
	0.008555463	-0.00583761	-7.419724e-07	1.543157e-06	-0.09518136	0.0540503	2.817443e-06	1.726491e-05
	-0.0006081297	5.944944e-05	0.009105672	-0.005112724	2.817443e-06	1.726491e-05	-0.09394612	0.05562313
3.7e+08	-0.08856387	0.05681463	-3.036229e-06	6.823756e-05	0.007590627	-0.005779083	-0.0006041689	0.0001230458
	-3.036229e-06	6.823756e-05	-0.08714883	0.05848783	-7.345805e-07	1.549082e-06	0.008172599	-0.005098562
	0.007590627	-0.005779083	-7.345805e-07	1.549082e-06	-0.08822255	0.05728382	3.038372e-06	1.611759e-05
	-0.0006041689	0.0001230458	0.008172599	-0.005098562	3.038372e-06	1.611759e-05	-0.08692357	0.05876873
3.8e+08	-0.08131475	0.05921154	-1.021714e-07	6.701705e-05	0.006632427	-0.005597986	-0.0005925838	0.0001854823
	-1.021714e-07	6.701705e-05	-0.07983803	0.060756	-7.289453e-07	1.564855e-06	0.007238923	-0.004966667
	0.006632427	-0.005597986	-7.289453e-07	1.564855e-06	-0.08094718	0.05963558	3.050648e-06	1.508469e-05
	-0.0005925838	0.0001854823	0.007238923	-0.004966667	3.050648e-06	1.508469e-05	-0.07959987	0.06102186
3.9e+08	-0.07385306	0.06069803	2.61391e-06	6.57642e-05	0.005696196	-0.005295438	-0.0005736807	0.0002457109
	2.61391e-06	6.57642e-05	-0.07233386	0.06210414	-7.228923e-07	1.590704e-06	0.006319242	-0.004717255
	0.005696196	-0.005295438	-7.228923e-07	1.590704e-06	-0.07346377	0.0610741	2.883043e-06	1.420226e-05
	-0.0005736807	0.0002457109	0.006319242	-0.004717255	2.883043e-06	1.420226e-05	-0.07208525	0.06235299
4e+08	-0.06629012	0.06125528	5.13202e-06	6.451359e-05	0.004797184	-0.004874462	-0.0005479261	0.0003027509
	5.13202e-06	6.451359e-05	-0.06474921	0.06251581	-7.142568e-07	1.626421e-06	0.005428184	-0.004352337
	0.004797184	-0.004874462	-7.142568e-07	1.626421e-06	-0.06588408	0.06158103	2.570786e-06	1.350081e-05
	-0.0005479261	0.0003027509	0.005428184	-0.004352337	2.570786e-06	1.350081e-05	-0.06449289	0.06274599
4.1e+08	-0.05873896	0.06087792	7.478187e-06	6.329488e-05	0.00395032	-0.004340003	-0.0005159325	0.0003557159
	7.478187e-06	6.329488e-05	-0.05719834	0.06198825	-7.009679e-07	1.671389e-06	0.004580184	-0.003875753
	0.00395032	-0.004340003	-7.009679e-07	1.671389e-06	-0.05832149	0.0611515	2.154642e-06	1.300411e-05
	-0.0005159325	0.0003557159	0.004580184	-0.003875753	2.154642e-06	1.300411e-05	-0.05693732	0.06219842
4.2e+08	-0.05131271	0.05957421	9.683527e-06	6.21316e-05	0.003169962	-0.00369892	-0.0004784397	0.0004038371
	9.683527e-06	6.21316e-05	-0.0497953	0.06053249	-6.811272e-07	1.724616e-06	0.003789249	-0.003293181
	0.003169962	-0.00369892	-6.811272e-07	1.724616e-06	-0.05088943	0.05979434	1.679691e-06	1.272804e-05
	-0.0004784397	0.0004038371	0.003789249	-0.003293181	1.679691e-06	1.272804e-05	-0.04953282	0.06072172
4.3e+08	-0.04412293	0.05736603	1.1783e-05	6.104015e-05	0.002469642	-0.002959939	-0.000436294	0.0004464828
	1.1783e-05	6.104015e-05	-0.04265221	0.05817339	-6.530792e-07	1.784789e-06	0.003068713	-0.002612106
	0.002469642	-0.002959939	-6.530792e-07	1.784789e-06	-0.0436997	0.05753209	1.193839e-06	1.267974e-05
	-0.000436294	0.0004464828	0.003068713	-0.002612106	1.193839e-06	1.267974e-05	-0.04239167	0.05834115
4.4e+08	-0.03727798	0.05428871	1.381396e-05	6.002901e-05	0.001861805	-0.002133571	-0.0003904224	0.0004831746
	1.381396e-05	6.002901e-05	-0.03587759	0.05494935	-6.154612e-07	1.850331e-06	0.002430988	-0.001841762
	0.001861805	-0.002133571	-6.154612e-07	1.850331e-06	-0.03686083	0.05440072	7.461393e-07	1.285692e-05
	-0.0003904224	0.0004831746	0.002430988	-0.001841762	7.461393e-07	1.285692e-05	-0.03562252	0.05509558
4.5e+08	-0.03088137	0.05039061	1.581457e-05	5.909825e-05	0.001357554	-0.001231988	-0.0003418042	0.0005135993
	1.581457e-05	5.909825e-05	-0.02957469	0.05091185	-5.672381e-07	1.919478e-06	0.00188731	-0.000993026
	0.001357554	-0.001231988	-5.672381e-07	1.919478e-06	-0.0304764	0.05044932	3.849393e-07	1.324767e-05
	-0.0003418042	0.0005135993	0.00188731	-0.000993026	3.849393e-07	1.324767e-05	-0.02932868	0.05103694
4.6e+08	-0.02503013	0.0457325	1.782206e-05	5.823942e-05	0.0009664085	-0.0002688559	-0.0002914412	0.0005376146
	1.782206e-05	5.823942e-05	-0.02383988	0.0461248	-5.077067e-07	1.99035e-06	0.001447509	-7.827615e-05
	0.0009664085	-0.0002688559	-5.077067e-07	1.99035e-06	-0.02464342	0.04573938	1.559763e-07	1.383046e-05
	-0.0002914412	0.0005376146	0.001447509	-7.827615e-05	1.559763e-07	1.383046e-05	-0.02360652	0.04622964
4.7e+08	-0.0198133	0.04038675	1.987083e-05	5.743572e-05	0.0006960793	0.0007408654	-0.0002403271	0.0005552499
	1.987083e-05	5.743572e-05	-0.01876111	0.04066363	-4.365166e-07	2.061012e-06	0.001119774	0.0008887891
	0.0006960793	0.0007408654	-4.365166e-07	2.061012e-06	-0.01945083	0.04034401	1.00362e-07	1.457473e-05
	-0.0002403271	0.0005552499	0.001119774	0.0008887891	1.00362e-07	1.457473e-05	-0.0185439	0.0407496
