!$
! Info: Touchstone file created by Circ.  Input file=Tx_6in_Rx_85ohms_TxVia_10mils_RxVia_20mils.circ
!$
# Hz S RI R 50
0	0.004932867	4.825283e-26	3.246289e-09	2.102432e-27	4.419488e-05	5.003197e-24	-3.554715e-09	4.687865e-25
	3.246281e-09	2.102608e-27	0.004932474	6.055593e-26	-3.005467e-09	4.167703e-25	4.362913e-05	6.967253e-24
	4.646853e-05	5.014814e-24	-3.003521e-09	4.165296e-25	0.004925537	4.209772e-26	1.253142e-08	1.211732e-29
	-3.551971e-09	4.684487e-25	4.508672e-05	7.170977e-24	1.253151e-08	1.195783e-29	0.004938103	5.777938e-26
1e+07	0.006576228	-0.005421941	4.948707e-09	8.22629e-09	0.0001599797	0.001158221	7.997868e-09	5.717712e-08
	4.948708e-09	8.226291e-09	0.006571774	-0.005422319	1.589101e-10	5.856515e-08	0.0001579264	0.001158708
	0.0001600277	0.001158195	1.589103e-10	5.856516e-08	0.006572174	-0.005417516	-1.059571e-08	4.547577e-08
	7.997869e-09	5.717712e-08	0.0001579587	0.001158697	-1.059571e-08	4.547576e-08	0.006567774	-0.005417963
2e+07	0.007238483	-0.01248507	7.42453e-09	1.449513e-08	0.0004062834	0.002261386	2.410834e-08	7.742289e-08
	7.424529e-09	1.449513e-08	0.007220902	-0.01248441	3.088876e-09	8.228451e-08	0.0003982787	0.002263313
	0.000406275	0.002261361	3.088877e-09	8.228451e-08	0.007237403	-0.01247028	-6.271596e-09	4.703572e-08
	2.410834e-08	7.74229e-08	0.0003982755	0.002263292	-6.271597e-09	4.703573e-08	0.007220199	-0.01246958
3e+07	0.006425546	-0.02023001	1.031009e-08	2.018895e-08	0.0007845209	0.003313393	5.038392e-08	9.562201e-08
	1.031009e-08	2.018895e-08	0.00638621	-0.02022514	8.982817e-09	1.097388e-07	0.0007670026	0.003318345
	0.0007845214	0.00331339	8.982817e-09	1.097388e-07	0.006426393	-0.02020799	-1.701827e-09	5.510803e-08
	5.038392e-08	9.562201e-08	0.0007669975	0.003318342	-1.701827e-09	5.510803e-08	0.006388424	-0.02020313
4e+07	0.004379566	-0.02799256	1.361604e-08	2.5176e-08	0.001288838	0.004300644	7.895418e-08	1.079416e-07
	1.361604e-08	2.5176e-08	0.004310557	-0.02797862	1.270165e-08	1.363633e-07	0.001258575	0.00431087
	0.001288842	0.00430064	1.270165e-08	1.363633e-07	0.004381728	-0.02796567	4.703179e-09	6.19704e-08
	7.895418e-08	1.079416e-07	0.001258575	0.004310871	4.703178e-09	6.19704e-08	0.004315075	-0.02795223
5e+07	0.001221769	-0.03552316	1.725513e-08	2.944152e-08	0.001909568	0.005208302	1.09758e-07	1.150036e-07
	1.725513e-08	2.944152e-08	0.001116161	-0.0354938	1.448329e-08	1.632838e-07	0.001863806	0.005226643
	0.001909569	0.005208299	1.448329e-08	1.632838e-07	0.001223195	-0.0354922	1.262259e-08	6.635345e-08
	1.09758e-07	1.150036e-07	0.001863806	0.005226643	1.262259e-08	6.635345e-08	0.001120989	-0.03546376
6e+07	-0.002950384	-0.04264691	2.113619e-08	3.296046e-08	0.00263483	0.006022671	1.42624e-07	1.162728e-07
	2.11362e-08	3.296046e-08	-0.003098285	-0.04259452	1.501541e-08	1.908717e-07	0.002571374	0.006052453
	0.00263483	0.006022672	1.501541e-08	1.908717e-07	-0.002951251	-0.04261148	2.133701e-08	6.808231e-08
	1.42624e-07	1.162728e-07	0.002571371	0.006052454	2.133701e-08	6.808231e-08	-0.003094274	-0.04256053
7e+07	-0.008041265	-0.04922312	2.515488e-08	3.570118e-08	0.003450982	0.006731683	1.768178e-07	1.110867e-07
	2.515488e-08	3.570118e-08	-0.008235735	-0.04913908	1.479286e-08	2.192075e-07	0.003368252	0.006776611
	0.003450983	0.006731687	1.479286e-08	2.192075e-07	-0.008045397	-0.04918264	3.005769e-08	6.732908e-08
	1.768178e-07	1.110867e-07	0.003368247	0.006776614	3.005769e-08	6.732908e-08	-0.008233252	-0.04910104
8e+07	-0.01395054	-0.05513402	2.91912e-08	3.763877e-08	0.004342931	0.007325261	2.112568e-07	9.897296e-08
	2.91912e-08	3.763877e-08	-0.01419432	-0.05500896	1.417697e-08	2.483027e-07	0.004239994	0.007389325
	0.004342934	0.007325266	1.417697e-08	2.483027e-07	-0.01395875	-0.05508801	3.807581e-08	6.443147e-08
	2.112568e-07	9.897296e-08	0.00423999	0.00738933	3.807581e-08	6.443147e-08	-0.01419436	-0.0549669
9e+07	-0.02057149	-0.06028093	3.311299e-08	3.876407e-08	0.005294551	0.007795714	2.446809e-07	7.973191e-08
	3.311299e-08	3.876407e-08	-0.02086569	-0.06010498	1.341012e-08	2.781655e-07	0.005171161	0.007883095
	0.005294554	0.007795717	1.341012e-08	2.781655e-07	-0.02058466	-0.06022892	4.481298e-08	5.982037e-08
	2.446809e-07	7.973191e-08	0.005171158	0.007883099	4.481298e-08	5.982037e-08	-0.02086962	-0.06005857
1e+08	-0.02779219	-0.06458442	3.678144e-08	3.908914e-08	0.006289998	0.008139293	2.757674e-07	5.345427e-08
	3.678144e-08	3.908914e-08	-0.02813629	-0.06434745	1.273238e-08	3.087624e-07	0.006146624	0.008254261
	0.006289998	0.008139293	1.273238e-08	3.087624e-07	-0.02781142	-0.06452592	4.982114e-08	5.394425e-08
	2.757674e-07	5.345427e-08	0.006146624	0.008254261	4.982114e-08	5.394425e-08	-0.02814564	-0.06429591
1.1e+08	-0.03549798	-0.0679789	4.004539e-08	3.86792e-08	0.007317251	0.008344215	3.042988e-07	2.260771e-08
	4.004539e-08	3.86792e-08	-0.03589044	-0.06766958	1.045687e-08	3.41636e-07	0.007154512	0.008490598
	0.007317252	0.008344215	1.045687e-08	3.41636e-07	-0.03552342	-0.06791112	5.413549e-08	5.356213e-08
	3.042988e-07	2.260771e-08	0.007154512	0.008490598	5.413549e-08	5.356213e-08	-0.0359053	-0.0676106
1.2e+08	-0.04355778	-0.07040435	4.279519e-08	3.759224e-08	0.008347676	0.0084109	3.286699e-07	-1.440417e-08
	4.279519e-08	3.759224e-08	-0.04399388	-0.07001293	8.327227e-09	3.753701e-07	0.008167749	0.008593142
	0.008347676	0.008410899	8.327227e-09	3.753701e-07	-0.04358976	-0.07032576	5.775819e-08	5.229509e-08
	3.286699e-07	-1.440417e-08	0.008167749	0.008593142	5.775819e-08	5.229509e-08	-0.04401425	-0.06994503
1.3e+08	-0.05184477	-0.07183257	4.4919e-08	3.590312e-08	0.009365007	0.008343468	3.478436e-07	-5.696795e-08
	4.4919e-08	3.590312e-08	-0.05231834	-0.07135001	6.525244e-09	4.099707e-07	0.009170752	0.008565529
	0.009365007	0.008343468	6.525244e-09	4.099707e-07	-0.05188331	-0.07174148	6.054488e-08	5.024507e-08
	3.478436e-07	-5.696795e-08	0.009170752	0.008565529	6.054488e-08	5.024507e-08	-0.05234407	-0.07127174
1.4e+08	-0.06023089	-0.07224972	4.631359e-08	3.370438e-08	0.01035267	0.008146377	3.608712e-07	-1.043156e-07
	4.631359e-08	3.370438e-08	-0.06073436	-0.07166779	5.230919e-09	4.454104e-07	0.01014755	0.008411723
	0.01035267	0.008146377	5.230919e-09	4.454104e-07	-0.06027558	-0.07214432	6.23633e-08	4.753617e-08
	3.608712e-07	-1.043156e-07	0.01014755	0.008411723	6.23633e-08	4.753617e-08	-0.06076501	-0.0715777
1.5e+08	-0.0685894	-0.07165758	4.6888e-08	3.110505e-08	0.01129484	0.007825854	3.669171e-07	-1.555354e-07
	4.6888e-08	3.110505e-08	-0.06911387	-0.0709691	4.617701e-09	4.816303e-07	0.01108286	0.008137417
	0.01129484	0.007825853	4.617701e-09	4.816303e-07	-0.06863937	-0.0715361	6.309779e-08	4.43132e-08
	3.669171e-07	-1.555354e-07	0.01108286	0.008137417	6.309779e-08	4.43132e-08	-0.06914871	-0.07086579
1.6e+08	-0.07679655	-0.07007317	4.656661e-08	2.822908e-08	0.01217674	0.007389897	3.65281e-07	-2.095895e-07
	4.656661e-08	2.822908e-08	-0.07733192	-0.06927219	4.848342e-09	5.185419e-07	0.01196239	0.007750021
	0.01217674	0.007389897	4.848342e-09	5.185419e-07	-0.07685052	-0.06993398	6.265301e-08	4.073953e-08
	3.65281e-07	-2.095895e-07	0.01196239	0.007750021	6.265301e-08	4.073953e-08	-0.07736989	-0.06915436
1.7e+08	-0.08473314	-0.06752803	4.529179e-08	2.521317e-08	0.01298491	0.006848136	3.554156e-07	-2.653335e-07
	4.529179e-08	2.521317e-08	-0.08526826	-0.06661004	6.070679e-09	5.560283e-07	0.01277309	0.00725851
	0.01298491	0.006848136	6.070679e-09	5.560283e-07	-0.08478949	-0.06736973	6.09573e-08	3.699414e-08
	3.554156e-07	-2.653335e-07	0.01277309	0.00725851	6.09573e-08	3.699414e-08	-0.08530808	-0.06647656
1.8e+08	-0.09228606	-0.06406738	4.302622e-08	2.220401e-08	0.01370734	0.006211632	3.369422e-07	-3.215404e-07
	4.302622e-08	2.220401e-08	-0.09280889	-0.06302944	8.413382e-09	5.939466e-07	0.01350327	0.006673234
	0.01370734	0.006211631	8.413382e-09	5.939466e-07	-0.09234284	-0.06388886	5.79653e-08	3.326801e-08
	3.369422e-07	-3.215404e-07	0.01350327	0.006673234	5.79653e-08	3.326801e-08	-0.09284903	-0.0628794
1.9e+08	-0.09934955	-0.05974912	3.975455e-08	1.935516e-08	0.01433362	0.005492664	3.096607e-07	-3.769249e-07
	3.975455e-08	1.935516e-08	-0.09984745	-0.05859006	1.198183e-08	6.321313e-07	0.01414278	0.006005708
	0.01433362	0.005492664	1.198183e-08	6.321313e-07	-0.09940465	-0.05954962	5.365988e-08	2.976015e-08
	3.096607e-07	-3.769249e-07	0.01414278	0.006005708	5.365988e-08	2.976015e-08	-0.0998862	-0.05842279
2e+08	-0.1058266	-0.05464272	3.548461e-08	1.682368e-08	0.01485508	0.004704502	2.73557e-07	-4.301695e-07
	3.548461e-08	1.682368e-08	-0.1062865	-0.05336321	1.685428e-08	6.703973e-07	0.01468304	0.005268396
	0.01485508	0.004704502	1.685428e-08	6.703973e-07	-0.1058777	-0.05442184	4.805343e-08	2.667331e-08
	2.73557e-07	-4.301695e-07	0.01468304	0.005268396	4.805343e-08	2.667331e-08	-0.106322	-0.05317833
2.1e+08	-0.1116298	-0.04882806	3.024793e-08	1.476655e-08	0.01526478	0.003861179	2.288058e-07	-4.799501e-07
	3.024793e-08	1.476655e-08	-0.1120386	-0.04743071	2.30786e-08	7.085446e-07	0.01511714	0.0044745
	0.01526478	0.003861179	2.30786e-08	7.085446e-07	-0.1116746	-0.04858574	4.118838e-08	2.420959e-08
	2.288058e-07	-4.799501e-07	0.01511714	0.0044745	4.118838e-08	2.420959e-08	-0.1120689	-0.04722811
2.2e+08	-0.1166828	-0.04239404	2.409979e-08	1.333708e-08	0.01555759	0.002977267	1.757703e-07	-5.249623e-07
	2.409979e-08	1.333708e-08	-0.1170273	-0.04088342	3.066967e-08	7.463634e-07	0.01543983	0.003637753
	0.01555759	0.002977267	3.066967e-08	7.463634e-07	-0.1167188	-0.04213062	3.313705e-08	2.256602e-08
	1.757703e-07	-5.249623e-07	0.01543983	0.003637753	3.313705e-08	2.256602e-08	-0.1170505	-0.04066332
2.3e+08	-0.1209203	-0.03543729	1.711864e-08	1.268135e-08	0.0157302	0.002067663	1.14999e-07	-5.63946e-07
	1.711864e-08	1.268135e-08	-0.1211882	-0.03381992	3.960763e-08	7.836395e-07	0.01564757	0.002772222
	0.0157302	0.002067663	3.960763e-08	7.836395e-07	-0.1209452	-0.03515348	2.400084e-08	2.193021e-08
	1.14999e-07	-5.63946e-07	0.01564757	0.002772222	2.400084e-08	2.193021e-08	-0.1212022	-0.03358285
2.4e+08	-0.1242898	-0.02806071	9.404985e-09	1.293477e-08	0.01578108	0.001147386	4.721865e-08	-5.957104e-07
	9.404985e-09	1.293477e-08	-0.124469	-0.02634505	4.983712e-08	8.201603e-07	0.01573847	0.00189212
	0.01578108	0.001147386	4.983712e-08	8.201603e-07	-0.1243011	-0.02775759	1.390886e-08	2.247626e-08
	4.721865e-08	-5.957104e-07	0.01573847	0.00189212	1.390886e-08	2.247626e-08	-0.1244719	-0.02609184
2.5e+08	-0.1267509	-0.02037203	1.079794e-09	1.421886e-08	0.01571047	0.0002313857	-2.66749e-08	-6.191568e-07
	1.079794e-09	1.421886e-08	-0.1268307	-0.01856836	6.12675e-08	8.557204e-07	0.0157123	0.001011637
	0.01571047	0.0002313856	6.12675e-08	8.557204e-07	-0.1267466	-0.02005103	3.01589e-09	2.436082e-08
	-2.66749e-08	-6.191568e-07	0.0157123	0.001011637	3.01589e-09	2.436082e-08	-0.1268206	-0.01830014
2.6e+08	-0.1282766	-0.01248234	-7.717563e-09	1.663828e-08	0.0155203	-0.0006656398	-1.056287e-07	-6.333007e-07
	-7.717563e-09	1.663828e-08	-0.1282474	-0.01060262	7.377422e-08	8.901282e-07	0.0155704	0.0001447718
	0.0155203	-0.0006656398	7.377422e-08	8.901282e-07	-0.1282546	-0.01214521	-8.500028e-09	2.771956e-08
	-1.056287e-07	-6.333007e-07	0.0155704	0.0001447718	-8.500028e-09	2.771956e-08	-0.1282226	-0.01032082
2.7e+08	-0.1288529	-0.004504572	-1.683179e-08	2.027821e-08	0.01521418	-0.001529409	-1.884472e-07	-6.372918e-07
	-1.683179e-08	2.027821e-08	-0.1287068	-0.002562306	8.720114e-08	9.23211e-07	0.01531569	-0.0006948164
	0.01521418	-0.001529409	8.720114e-08	9.23211e-07	-0.1288115	-0.004153392	-2.044058e-08	3.266397e-08
	-1.884472e-07	-6.372918e-07	0.01531569	-0.0006948164	-2.044058e-08	3.266397e-08	-0.1286658	-0.002268648
2.8e+08	-0.1284793	0.003447944	-2.609444e-08	2.520213e-08	0.0147973	-0.002346219	-2.738086e-07	-6.304334e-07
	-2.609444e-08	2.520213e-08	-0.12821	0.005437924	1.013639e-07	9.548203e-07	0.01495255	-0.001493952
	0.0147973	-0.002346219	1.013639e-07	9.548203e-07	-0.1284169	0.003810812	-3.259046e-08	3.927857e-08
	-2.738086e-07	-6.304334e-07	0.01495255	-0.001493952	-3.259046e-08	3.927857e-08	-0.1281514	0.005741488
2.9e+08	-0.1271683	0.01126297	-3.532708e-08	3.144998e-08	0.01427633	-0.003103088	-3.60284e-07	-6.121987e-07
	-3.532708e-08	3.144998e-08	-0.1267714	0.01328473	1.160543e-07	9.848367e-07	0.01448681	-0.00224008
	0.01427633	-0.003103088	1.160543e-07	9.848367e-07	-0.1270837	0.01163491	-4.472107e-08	4.761862e-08
	-3.60284e-07	-6.121987e-07	0.01448681	-0.00224008	-4.472107e-08	4.761862e-08	-0.1266942	0.01359602
3e+08	-0.1249452	0.01883078	-4.434452e-08	3.903677e-08	0.01365938	-0.003787905	-4.463578e-07	-5.822457e-07
	-4.434452e-08	3.903677e-08	-0.1244187	0.02086757	1.31045e-07	1.013173e-06	0.01392564	-0.002921393
	0.01365938	-0.003787905	1.31045e-07	1.013173e-06	-0.1248375	0.01920898	-5.659443e-08	5.770827e-08
	-4.463578e-07	-5.822457e-07	0.01392564	-0.002921393	-5.659443e-08	5.770827e-08	-0.1243221	0.02118421
3.1e+08	-0.121848	0.0260456	-5.295837e-08	4.795176e-08	0.0129559	-0.00438956	-5.304505e-07	-5.404305e-07
	-5.295837e-08	4.795176e-08	-0.1211919	0.0280801	1.460955e-07	1.039778e-06	0.01327749	-0.003526961
	0.0129559	-0.00438956	1.460955e-07	1.039778e-06	-0.1217167	0.02642706	-6.796732e-08	6.953923e-08
	-5.304505e-07	-5.404305e-07	0.01327749	-0.003526961	-6.796732e-08	6.953923e-08	-0.1210754	0.02839957
3.2e+08	-0.1179265	0.03280693	-6.098055e-08	5.815797e-08	0.01217655	-0.004898079	-6.109431e-07	-4.86817e-07
	-6.098055e-08	5.815797e-08	-0.1171434	0.0348216	1.609575e-07	1.064637e-06	0.01255201	-0.004046853
	0.01217655	-0.004898079	1.609575e-07	1.064637e-06	-0.1177715	0.03318852	-7.859561e-08	8.307001e-08
	-6.109431e-07	-4.86817e-07	0.01255201	-0.004046853	-7.859561e-08	8.307001e-08	-0.1170069	0.03514125
3.3e+08	-0.113242	0.03902084	-6.822694e-08	6.959203e-08	0.01133309	-0.005304745	-6.862033e-07	-4.216851e-07
	-6.822694e-08	6.959203e-08	-0.1123368	0.04099821	1.753819e-07	1.087773e-06	0.01175993	-0.004472258
	0.01133309	-0.005304745	1.753819e-07	1.087773e-06	-0.1130636	0.03939939	-8.823866e-08	9.822563e-08
	-6.862033e-07	-4.216851e-07	0.01175993	-0.004472258	-8.823866e-08	9.822563e-08	-0.1121805	0.04131535
3.4e+08	-0.1078661	0.04460123	-7.452095e-08	8.21651e-08	0.01043831	-0.005602226	-7.546125e-07	-3.455351e-07
	-7.452095e-08	8.21651e-08	-0.1068462	0.04652424	1.891239e-07	1.109247e-06	0.01091298	-0.004795605
	0.01043831	-0.005602226	1.891239e-07	1.109247e-06	-0.1076651	0.04497356	-9.666369e-08	1.148981e-07
	-7.546125e-07	-3.455351e-07	0.01091298	-0.004795605	-9.666369e-08	1.148981e-07	-0.1066708	0.0468362
3.5e+08	-0.1018801	0.04947096	-7.969696e-08	9.576369e-08	0.009505817	-0.005784688	-8.145949e-07	-2.590897e-07
	-7.969696e-08	9.576369e-08	-0.1007553	0.05132331	2.019496e-07	1.129156e-06	0.01002378	-0.005010678
	0.009505817	-0.005784688	2.019496e-07	1.129156e-06	-0.1016577	0.04983395	-1.036504e-07	1.329467e-07
	-8.145949e-07	-2.590897e-07	0.01002378	-0.005010678	-1.036504e-07	1.329467e-07	-0.1005618	0.05162743
3.6e+08	-0.095374	0.05356292	-8.360365e-08	1.102512e-07	0.008549928	-0.005847899	-8.646471e-07	-1.632918e-07
	-8.360365e-08	1.102512e-07	-0.09415639	0.05532941	2.136413e-07	1.147629e-06	0.009105672	-0.005112724
	0.008549928	-0.005847899	2.136413e-07	1.147629e-06	-0.09513182	0.05391355	-1.08995e-07	1.522003e-07
	-8.646471e-07	-1.632918e-07	0.009105672	-0.005112724	-1.08995e-07	1.522003e-07	-0.09394612	0.05562313
3.7e+08	-0.0884449	0.05682101	-8.610704e-08	1.254697e-07	0.007585492	-0.005789337	-9.03368e-07	-5.929909e-08
	-8.610704e-08	1.254697e-07	-0.08714883	0.05848783	2.240017e-07	1.164826e-06	0.008172599	-0.005098562
	0.007585492	-0.005789337	2.240017e-07	1.164826e-06	-0.08818502	0.05715642	-1.125147e-07	1.724584e-07
	-9.03368e-07	-5.929909e-08	0.008172599	-0.005098562	-1.125147e-07	1.724584e-07	-0.08692357	0.05876873
3.8e+08	-0.08119616	0.0592009	-8.70934e-08	1.412425e-07	0.0066277	-0.005608264	-9.294893e-07	5.152579e-08
	-8.70934e-08	1.412425e-07	-0.07983803	0.060756	2.328589e-07	1.180934e-06	0.007238923	-0.004966667
	0.0066277	-0.005608264	2.328589e-07	1.180934e-06	-0.08092106	0.05951847	-1.140515e-07	1.934946e-07
	-9.294893e-07	5.152579e-08	0.007238923	-0.004966667	-1.140515e-07	1.934946e-07	-0.07959987	0.06102186
3.9e+08	-0.07373581	0.0606708	-8.64717e-08	1.573762e-07	0.005691879	-0.005305803	-9.419049e-07	1.67629e-07
	-8.64717e-08	1.573762e-07	-0.07233386	0.06210414	2.400688e-07	1.19616e-06	0.006319242	-0.004717255
	0.005691879	-0.005305803	2.400688e-07	1.19616e-06	-0.07344838	0.0609682	-1.134758e-07	2.150587e-07
	-9.419049e-07	1.67629e-07	0.006319242	-0.004717255	-1.134758e-07	2.150587e-07	-0.07208525	0.06235299
4e+08	-0.06617515	0.06121197	-8.417581e-08	1.736644e-07	0.004793272	-0.004884975	-9.397002e-07	2.872842e-07
	-8.417581e-08	1.736644e-07	-0.06474921	0.06251581	2.455175e-07	1.210729e-06	0.005428184	-0.004352337
	0.004793272	-0.004884975	2.455175e-07	1.210729e-06	-0.06587863	0.0614872	-1.106897e-07	2.368809e-07
	-9.397002e-07	2.872842e-07	0.005428184	-0.004352337	-1.106897e-07	2.368809e-07	-0.06449289	0.06274599
4.1e+08	-0.05862715	0.06081907	-8.01663e-08	1.898901e-07	0.0039468	-0.004350726	-9.221789e-07	4.08615e-07
	-8.01663e-08	1.898901e-07	-0.05719834	0.06198825	2.491229e-07	1.224877e-06	0.004580184	-0.003875753
	0.0039468	-0.004350726	2.491229e-07	1.224877e-06	-0.0583251	0.06107058	-1.056302e-07	2.586755e-07
	-9.221789e-07	4.08615e-07	0.004580184	-0.003875753	-1.056302e-07	2.586755e-07	-0.05693732	0.06219842
4.2e+08	-0.05120489	0.05950044	-7.443181e-08	2.058299e-07	0.003166815	-0.003709914	-8.888875e-07	5.296224e-07
	-7.443181e-08	2.058299e-07	-0.0497953	0.06053249	2.50835e-07	1.238848e-06	0.003789249	-0.003293181
	0.003166815	-0.003709914	2.50835e-07	1.238848e-06	-0.05090112	0.05972708	-9.827116e-08	2.801453e-07
	-8.888875e-07	5.296224e-07	0.003789249	-0.003293181	-9.827116e-08	2.801453e-07	-0.04953282	0.06072172
4.3e+08	-0.04401987	0.057278	-6.699006e-08	2.212568e-07	0.002466838	-0.002971263	-8.396364e-07	6.482163e-07
	-6.699006e-08	2.212568e-07	-0.04265221	0.05817339	2.506353e-07	1.252888e-06	0.003068713	-0.002612106
	0.002466838	-0.002971263	2.506353e-07	1.252888e-06	-0.04371841	0.05747914	-8.862549e-08	3.009863e-07
	-8.396364e-07	6.482163e-07	0.003068713	-0.002612106	-8.862549e-08	3.009863e-07	-0.04239167	0.05834115
4.4e+08	-0.03718039	0.05418713	-5.788836e-08	2.359443e-07	0.001859308	-0.002145278	-7.745176e-07	7.622505e-07
	-5.788836e-08	2.359443e-07	-0.03587759	0.05494935	2.485361e-07	1.267241e-06	0.002430988	-0.001841762
	0.001859308	-0.002145278	2.485361e-07	1.267241e-06	-0.03688542	0.05436267	-7.674637e-08	3.208929e-07
	-7.745176e-07	7.622505e-07	0.002430988	-0.001841762	-7.674637e-08	3.208929e-07	-0.03562252	0.05509558
4.5e+08	-0.03078989	0.05027625	-4.720372e-08	2.496703e-07	0.00135532	-0.001244126	-6.939169e-07	8.69562e-07
	-4.720372e-08	2.496703e-07	-0.02957469	0.05091185	2.445787e-07	1.282146e-06	0.00188731	-0.000993026
	0.00135532	-0.001244126	2.445787e-07	1.282146e-06	-0.03050565	0.05042661	-6.272792e-08	3.395632e-07
	-6.939169e-07	8.69562e-07	0.00188731	-0.000993026	-6.272792e-08	3.395632e-07	-0.02932868	0.05103694
4.6e+08	-0.02494533	0.04560616	-3.504256e-08	2.622202e-07	0.0009643861	-0.0002814683	-5.985207e-07	9.680115e-07
	-3.504256e-08	2.622202e-07	-0.02383988	0.0461248	2.388312e-07	1.297835e-06	0.001447509	-7.827615e-05
	0.0009643861	-0.0002814683	2.388312e-07	1.297835e-06	-0.02467606	0.04573237	-4.670515e-08	3.567041e-07
	-5.985207e-07	9.680115e-07	0.001447509	-7.827615e-05	-4.670515e-08	3.567041e-07	-0.02360652	0.04622964
4.7e+08	-0.01973567	0.04024927	-2.15399e-08	2.733915e-07	0.0006942115	0.0007277445	-4.893171e-07	1.055527e-06
	-2.15399e-08	2.733915e-07	-0.01876111	0.04066363	2.31387e-07	1.314526e-06	0.001119774	0.0008887891
	0.0006942115	0.0007277445	2.31387e-07	1.314526e-06	-0.01948555	0.04035292	-2.885329e-08	3.720372e-07
	-4.893171e-07	1.055527e-06	0.001119774	0.0008887891	-2.885329e-08	3.720372e-07	-0.0185439	0.0407496
4.8e+08	-0.01524043	0.03428853	-6.858203e-09	2.829967e-07	0.0005504959	0.001767517	-3.675899e-07	1.130149e-06
	-6.858203e-09	2.829967e-07	-0.01441647	0.03461423	2.22362e-07	1.332429e-06	0.000910463	0.001893373
