!$
! Info: Touchstone file created by Circ.  Input file=Tx_6in_Rx_100ohms_TxVia_10mils_RxVia_20mils.circ
!$
# Hz S RI R 50
0	0.006325042	4.411268e-26	-3.258059e-05	1.91641e-25	4.539806e-05	6.689387e-24	-3.260633e-05	2.99643e-24
	-3.258059e-05	1.924618e-25	0.00632571	6.035488e-26	-3.257352e-05	8.159384e-26	4.348519e-05	8.959574e-24
	4.409689e-05	6.517933e-24	-3.257352e-05	8.166479e-26	0.00634037	4.621344e-26	-3.258334e-05	3.801048e-25
	-3.260632e-05	2.995559e-24	4.494226e-05	9.22155e-24	-3.258333e-05	3.786734e-25	0.006331324	5.758854e-26
1e+07	0.009062959	0.004331437	-0.0001156026	6.969106e-06	0.0003510807	0.001181197	-4.394602e-05	-4.892832e-06
	-0.0001156026	6.969104e-06	0.009156166	0.004326354	-1.069413e-05	7.303779e-05	0.0003491323	0.001179715
	0.0003510367	0.0011812	-1.069413e-05	7.303779e-05	0.00917309	0.004328967	-0.0001156218	6.938571e-06
	-4.394601e-05	-4.892831e-06	0.0003491648	0.001179704	-0.0001156218	6.938572e-06	0.009078707	0.004334161
2e+07	0.01161835	0.006598328	-9.073243e-05	-4.106138e-05	0.0004803553	0.002441589	-3.448189e-05	-9.638575e-06
	-9.073243e-05	-4.106138e-05	0.01168417	0.006555182	-3.947451e-05	0.0001197887	0.0004730371	0.002439506
	0.0004803452	0.002441617	-3.947451e-05	0.0001197887	0.01170729	0.006559053	-9.076147e-05	-4.113034e-05
	-3.448189e-05	-9.638575e-06	0.0004730345	0.002439484	-9.076147e-05	-4.113034e-05	0.011631	0.006602624
3e+07	0.01383853	0.007885783	-7.331224e-05	-5.704295e-05	0.0007690177	0.003568352	-2.836284e-05	-1.547347e-05
	-7.331224e-05	-5.704295e-05	0.01387795	0.007829576	-8.37405e-05	0.0001383587	0.0007530839	0.003567125
	0.0007690183	0.003568356	-8.37405e-05	0.0001383587	0.01391103	0.007833207	-7.335833e-05	-5.715236e-05
	-2.836284e-05	-1.547347e-05	0.0007530788	0.003567122	-7.335833e-05	-5.715236e-05	0.01384693	0.007893493
4e+07	0.0159142	0.008693964	-6.00345e-05	-6.60105e-05	0.001214944	0.004614428	-2.35399e-05	-1.850672e-05
	-6.00345e-05	-6.601049e-05	0.01592628	0.008632822	-0.0001207337	0.0001497064	0.001187409	0.004616009
	0.00121494	0.004614426	-0.0001207337	0.0001497064	0.01597279	0.008633868	-6.009799e-05	-6.616699e-05
	-2.35399e-05	-1.850672e-05	0.001187409	0.00461601	-6.009799e-05	-6.616699e-05	0.01591659	0.008704186
5e+07	0.01789837	0.009144057	-4.925608e-05	-7.168557e-05	0.001888537	0.005544505	-1.948014e-05	-2.032984e-05
	-4.925608e-05	-7.168557e-05	0.01788197	0.009084039	-0.0001537083	0.0001579709	0.00184677	0.005551263
	0.001888535	0.005544504	-0.0001537083	0.0001579709	0.01794481	0.00907946	-4.933985e-05	-7.189533e-05
	-1.948014e-05	-2.032984e-05	0.00184677	0.005551263	-4.933985e-05	-7.189533e-05	0.01789162	0.009157716
6e+07	0.0198061	0.009294729	-4.006652e-05	-7.532672e-05	0.002657341	0.006375358	-1.590447e-05	-2.149161e-05
	-4.006652e-05	-7.532672e-05	0.01976035	0.009241351	-0.0001844505	0.0001646466	0.002599205	0.006390208
	0.002657346	0.006375356	-0.0001844505	0.0001646466	0.01984177	0.00922761	-4.017519e-05	-7.559609e-05
	-1.590447e-05	-2.149161e-05	0.002599202	0.006390209	-4.017519e-05	-7.559609e-05	0.01978805	0.009313848
7e+07	0.0216373	0.009181486	-4.665285e-05	-7.040193e-05	0.003509983	0.007098175	-1.250292e-05	-2.210345e-05
	-4.665285e-05	-7.040193e-05	0.02156183	0.009140109	-0.0002140904	0.0001703619	0.003433856	0.007124372
	0.003509993	0.007098168	-0.0002140904	0.0001703619	0.02166336	0.009113333	-4.679098e-05	-7.072563e-05
	-1.250292e-05	-2.210345e-05	0.003433851	0.007124374	-4.679098e-05	-7.072563e-05	0.02160645	0.009207987
8e+07	0.0233852	0.008830227	-6.190665e-05	-5.715828e-05	0.004433287	0.007704419	-1.521048e-05	-1.889585e-05
	-6.190665e-05	-5.715828e-05	0.02328025	0.008806202	-0.0002437836	0.0001749345	0.004338086	0.007745491
	0.004433297	0.007704409	-0.0002437836	0.0001749345	0.02340274	0.00876231	-6.207129e-05	-5.753472e-05
	-1.521048e-05	-1.889585e-05	0.004338081	0.007745495	-6.207129e-05	-5.753472e-05	0.02334003	0.008865995
9e+07	0.02504053	0.008263316	-7.350798e-05	-4.037891e-05	0.005412325	0.008186184	-1.866845e-05	-1.367516e-05
	-7.350798e-05	-4.037891e-05	0.02490712	0.0082621	-0.000275365	0.0001771039	0.005297541	0.008245865
	0.005412332	0.008186175	-0.000275365	0.0001771039	0.02505074	0.008196913	-7.37046e-05	-4.08126e-05
	-1.866845e-05	-1.367516e-05	0.005297538	0.008245868	-7.37046e-05	-4.08126e-05	0.0249794	0.008310634
1e+08	0.0265995	0.007509523	-7.922757e-05	-1.796461e-05	0.006427886	0.008533	-2.010284e-05	-6.773051e-06
	-7.922757e-05	-1.796461e-05	0.02644028	0.007537593	-0.0003155639	0.0001690243	0.006293602	0.008615161
	0.006427886	0.008533	-0.0003155639	0.0001690243	0.02660451	0.007446926	-7.946158e-05	-1.846288e-05
	-2.010284e-05	-6.773051e-06	0.006293602	0.008615161	-7.946158e-05	-1.846288e-05	0.02652098	0.007571319
1.1e+08	0.02807651	0.006523823	-7.292615e-05	-3.157167e-06	0.007451531	0.008766322	-1.761264e-05	-2.600586e-06
	-7.292615e-05	-3.157167e-06	0.02789693	0.006582648	-0.0003260334	0.0001428858	0.007298115	0.008874487
	0.00745153	0.008766322	-0.0003260334	0.0001428858	0.02808232	0.006461105	-7.321436e-05	-3.727206e-06
	-1.761264e-05	-2.600586e-06	0.007298115	0.008874487	-7.321436e-05	-3.727206e-06	0.02798063	0.006604747
1.2e+08	0.02939277	0.005351582	-6.865501e-05	6.900419e-06	0.008496001	0.008878059	-1.594153e-05	-4.337635e-08
	-6.865501e-05	6.900419e-06	0.02919331	0.005442738	-0.0003288079	0.0001319785	0.00832506	0.00901632
	0.008496001	0.008878059	-0.0003288079	0.0001319785	0.0293968	0.005286106	-6.901472e-05	6.264467e-06
	-1.594153e-05	-4.337635e-08	0.00832506	0.00901632	-6.901472e-05	6.264467e-06	0.02928006	0.005454628
1.3e+08	0.03054549	0.004025232	-6.468325e-05	1.526692e-05	0.009541623	0.008861302	-1.449147e-05	1.896657e-06
	-6.468325e-05	1.526692e-05	0.03032794	0.004151552	-0.0003294251	0.0001267848	0.009355368	0.009033408
	0.009541623	0.008861303	-0.0003294251	0.0001267848	0.03054611	0.003956331	-6.512999e-05	1.457115e-05
	-1.449147e-05	1.896657e-06	0.009355368	0.009033408	-6.512999e-05	1.457115e-05	0.03041693	0.004153457
1.4e+08	0.03152649	0.002567284	-6.067118e-05	2.257245e-05	0.01057151	0.008715972	-1.315586e-05	3.435881e-06
	-6.067118e-05	2.257245e-05	0.03129321	0.002731709	-0.0003287616	0.0001250021	0.01037271	0.008925298
	0.01057151	0.008715972	-0.0003287616	0.0001250021	0.03152238	0.002494966	-6.122009e-05	2.182531e-05
	-1.315586e-05	3.435881e-06	0.01037271	0.008925298	-6.122009e-05	2.182531e-05	0.03138351	0.002723742
1.5e+08	0.0323277	0.0009992067	-5.647156e-05	2.90839e-05	0.01156941	0.008444694	-1.189433e-05	4.68202e-06
	-5.647156e-05	2.90839e-05	0.03208163	0.001204547	-0.0003271613	0.0001254602	0.01136136	0.008694201
	0.01156941	0.008444694	-0.0003271613	0.0001254602	0.03231781	0.0009238492	-5.7137e-05	2.829661e-05
	-1.189433e-05	4.68202e-06	0.01136136	0.008694201	-5.7137e-05	2.829661e-05	0.03217224	0.00118685
1.6e+08	0.03294215	-0.0006575902	-5.200953e-05	3.4925e-05	0.01251976	0.008052302	-1.0688e-05	5.698238e-06
	-5.200953e-05	3.4925e-05	0.03268672	-0.000408784	-0.0003248115	0.0001274294	0.01230622	0.008344479
	0.01251976	0.008052302	-0.0003248115	0.0001274294	0.03292565	-0.0007353879	-5.280463e-05	3.41116e-05
	-1.0688e-05	5.698238e-06	0.01230622	0.008344479	-5.280463e-05	3.41116e-05	0.03277667	-0.000436017
1.7e+08	0.03336433	-0.002381487	-4.724935e-05	4.014899e-05	0.0134078	0.007545614	-9.527325e-06	6.525902e-06
	-4.724935e-05	4.014899e-05	0.03310346	-0.002087041	-0.0003218488	0.0001304056	0.01319295	0.007882419
	0.0134078	0.007545614	-0.0003218488	0.0001304056	0.03334061	-0.002460989	-4.818547e-05	3.932622e-05
	-9.527325e-06	6.525902e-06	0.01319295	0.007882419	-4.818547e-05	3.932622e-05	0.03319179	-0.002123545
1.8e+08	0.03359053	-0.004150634	-4.218192e-05	4.477039e-05	0.01421977	0.006933265	-8.407425e-06	7.194175e-06
	-4.218192e-05	4.477039e-05	0.03332853	-0.003808855	-0.0003183943	0.0001340222	0.01400813	0.00731607
	0.01421977	0.006933265	-0.0003183943	0.0001340222	0.0335591	-0.004231023	-4.326809e-05	4.395745e-05
	-8.407425e-06	7.194175e-06	0.01400813	0.00731607	-4.326809e-05	4.395745e-05	0.03341433	-0.003854281
1.9e+08	0.03361895	-0.005943054	-3.681864e-05	4.878219e-05	0.01494316	0.006225548	-7.325976e-06	7.724763e-06
	-3.681864e-05	4.878219e-05	0.03336054	-0.005552811	-0.0003145691	0.0001380069	0.01473953	0.006655083
	0.01494316	0.006225548	-0.0003145691	0.0001380069	0.0335795	-0.006023457	-3.806109e-05	4.800039e-05
	-7.325976e-06	7.724763e-06	0.01473953	0.006655083	-3.806109e-05	4.800039e-05	0.03344289	-0.005606731
2e+08	0.0334499	-0.007736822	-3.118801e-05	5.216622e-05	0.01556682	0.005434236	-6.282074e-06	8.134529e-06
	-3.118801e-05	5.216622e-05	0.03320003	-0.007297623	-0.0003104983	0.0001421599	0.01537618	0.005910548
	0.01556682	0.005434236	-0.0003104983	0.0001421599	0.03340222	-0.007816328	-3.258969e-05	5.14385e-05
	-6.282074e-06	8.134529e-06	0.01537618	0.005910548	-3.258969e-05	5.14385e-05	0.0332781	-0.007359512
2.1e+08	0.03308577	-0.009510248	-2.533284e-05	5.490028e-05	0.01608117	0.004572392	-5.275675e-06	8.437037e-06
	-2.533284e-05	5.490028e-05	0.03284961	-0.009022298	-0.0003063118	0.0001463404	0.01590859	0.005094813
	0.01608117	0.004572392	-0.0003063118	0.0001463404	0.0330298	-0.009587922	-2.689315e-05	5.425065e-05
	-5.275675e-06	8.437037e-06	0.01590859	0.005094813	-2.689315e-05	5.425065e-05	0.0329226	-0.009091548
2.2e+08	0.03253116	-0.0112421	-1.930826e-05	5.696311e-05	0.01647834	0.003654166	-4.307228e-06	8.643517e-06
	-1.930826e-05	5.696311e-05	0.03231393	-0.01070634	-0.0003021415	0.000150459	0.01632888	0.004221294
	0.01647834	0.003654166	-0.0003021415	0.000150459	0.03246692	-0.01131699	-2.102272e-05	5.641605e-05
	-4.307228e-06	8.643517e-06	0.01632888	0.004221294	-2.102272e-05	5.641605e-05	0.03238111	-0.01078225
2.3e+08	0.03179275	-0.01291182	-1.317954e-05	5.833817e-05	0.01675226	0.002694573	-3.377459e-06	8.763508e-06
	-1.317954e-05	5.833817e-05	0.03159967	-0.01232995	-0.0002981167	0.0001544716	0.01663086	0.003304265
	0.01675226	0.002694573	-0.0002981167	0.0001544716	0.0317204	-0.01298296	-1.503973e-05	5.79179e-05
	-3.377459e-06	8.763508e-06	0.01663086	0.003304266	-1.503973e-05	5.79179e-05	0.0316604	-0.01241174
2.4e+08	0.03087933	-0.01449974	-7.019362e-06	5.901658e-05	0.01689878	0.001709259	-2.487276e-06	8.805289e-06
	-7.019362e-06	5.901658e-05	0.03071544	-0.01387426	-0.0002943619	0.0001583754	0.01681017	0.002358645
	0.01689878	0.001709259	-0.0002943619	0.0001583754	0.03079913	-0.01456618	-9.012882e-06	5.874641e-05
	-2.487276e-06	8.805289e-06	0.01681017	0.002358645	-9.012882e-06	5.874641e-05	0.03076917	-0.01396105
2.5e+08	0.02980165	-0.01598735	-9.05915e-07	5.899909e-05	0.01691572	0.0007142653	-1.637639e-06	8.776189e-06
	-9.05915e-07	5.899909e-05	0.02967175	-0.01532146	-0.0002909901	0.0001622045	0.0168643	0.001399769
	0.01691572	0.0007142653	-0.0002909901	0.0001622045	0.029714	-0.01604813	-3.016555e-06	5.890068e-05
	-1.637639e-06	8.776189e-06	0.0168643	0.001399769	-3.016555e-06	5.890068e-05	0.02971804	-0.01541233
2.6e+08	0.02857234	-0.01735741	5.079927e-06	5.829749e-05	0.01680291	-0.0002742208	-8.295347e-07	8.682806e-06
	5.079927e-06	5.829749e-05	0.02848087	-0.01665509	-0.0002880991	0.0001660253	0.01679264	0.0004431549
	0.01680291	-0.0002742207	-0.0002880991	0.0001660253	0.02847774	-0.01741162	2.871935e-06	5.839019e-05
	-8.295347e-07	8.682806e-06	0.01679264	0.0004431549	2.871935e-06	5.839019e-05	0.02851938	-0.01674904
2.7e+08	0.02720577	-0.01859426	1.085685e-05	5.693539e-05	0.01656216	-0.001240115	-6.389449e-08	8.531172e-06
	1.085685e-05	5.693539e-05	0.02715665	-0.01786014	-0.0002857666	0.0001699316	0.01659651	-0.0004957249
	0.01656216	-0.001240115	-0.0002857666	0.0001699316	0.02710484	-0.01864102	8.574426e-06	5.723558e-05
	-6.389449e-08	8.531172e-06	0.01659651	-0.0004957249	8.574426e-06	5.723558e-05	0.02718719	-0.01795615
2.8e+08	0.02571784	-0.0196839	1.634594e-05	5.494854e-05	0.01619729	-0.002167681	6.583799e-07	8.32689e-06
	1.634594e-05	5.494854e-05	0.02571444	-0.01892324	-0.0002840472	0.0001740416	0.0162791	-0.001401682
	0.01619729	-0.002167681	-0.0002840472	0.0001740416	0.02561135	-0.01972238	1.401464e-05	5.54691e-05
	6.583799e-07	8.32689e-06	0.0162791	-0.001401682	1.401464e-05	5.54691e-05	0.02573694	-0.01902025
2.9e+08	0.02412584	-0.0206142	2.147294e-05	5.238441e-05	0.01571402	-0.003041775	1.336491e-06	8.07522e-06
	2.147294e-05	5.238441e-05	0.02417084	-0.01983281	-0.0002829687	0.000178491	0.01584543	-0.00226004
	0.01571402	-0.003041775	-0.0002829687	0.000178491	0.02401463	-0.02064366	1.912034e-05	5.313425e-05
	1.336491e-06	8.07522e-06	0.01584543	-0.00226004	1.912034e-05	5.313425e-05	0.02418537	-0.01992974
3e+08	0.02244821	-0.02137503	2.617043e-05	4.930148e-05	0.01511992	-0.003848074	1.969774e-06	7.781144e-06
	2.617043e-05	4.930148e-05	0.02254353	-0.02057916	-0.000282529	0.0001834272	0.01530232	-0.003056854
	0.01511992	-0.003848074	-0.000282529	0.0001834272	0.02233327	-0.02139481	2.38254e-05	5.02852e-05
	1.969774e-06	7.781144e-06	0.01530232	-0.003056854	2.38254e-05	5.02852e-05	0.0225503	-0.02067498
3.1e+08	0.02070436	-0.02195837	3.038013e-05	4.576805e-05	0.01442426	-0.004573304	2.55768e-06	7.449443e-06
	3.038013e-05	4.576805e-05	0.02085108	-0.02115463	-0.0002826954	0.0001890055	0.0146582	-0.003779124
	0.01442426	-0.004573304	-0.0002826954	0.0001890055	0.02058673	-0.02196793	2.807212e-05	4.698573e-05
	2.55768e-06	7.449443e-06	0.0146582	-0.003779124	2.807212e-05	4.698573e-05	0.02085044	-0.02124829
3.2e+08	0.01891436	-0.0223584	3.405449e-05	4.186055e-05	0.0136379	-0.005205436	3.099848e-06	7.084709e-06
	3.405449e-05	4.186055e-05	0.01911269	-0.02155364	-0.0002834031	0.0001953812	0.01392308	-0.004414988
	0.0136379	-0.005205436	-0.0002834031	0.0001953812	0.0187952	-0.02235731	3.181266e-05	4.330772e-05
	3.099848e-06	7.084709e-06	0.01392308	-0.004414988	3.181266e-05	4.330772e-05	0.01910512	-0.02164417
3.3e+08	0.01709877	-0.02257157	3.715807e-05	3.766177e-05	0.0127731	-0.005733878	3.596115e-06	6.691367e-06
	3.715807e-05	3.766177e-05	0.017348	-0.02177275	-0.0002845558	0.0002027032	0.01310832	-0.004953906
	0.0127731	-0.005733878	-0.0002845558	0.0002027032	0.01697931	-0.02255954	3.501053e-05	3.932944e-05
	3.596115e-06	6.691367e-06	0.01310832	-0.004953906	3.501053e-05	3.932944e-05	0.01733411	-0.02185923
3.4e+08	0.01527838	-0.02259662	3.966879e-05	3.32586e-05	0.01184336	-0.006149639	4.046513e-06	6.273711e-06
	3.966879e-05	3.32586e-05	0.01557683	-0.02181071	-0.0002860264	0.000211111	0.0122265	-0.005386817
	0.01184336	-0.006149639	-0.0002860264	0.000211111	0.01515988	-0.02257351	3.76418e-05	3.513355e-05
	4.046513e-06	6.273711e-06	0.0122265	-0.005386817	3.76418e-05	3.513355e-05	0.01555736	-0.0218923
3.5e+08	0.0134739	-0.02243462	4.157837e-05	2.873977e-05	0.01086317	-0.006445467	4.451313e-06	5.835874e-06
	4.157837e-05	2.873977e-05	0.01381895	-0.02166842	-0.0002876596	0.0002207261	0.0112912	-0.005706275
	0.01086317	-0.006445467	-0.0002876596	0.0002207261	0.01335767	-0.02240042	3.969562e-05	3.080488e-05
	4.451313e-06	5.835874e-06	0.0112912	-0.005706275	3.969562e-05	3.080488e-05	0.01379473	-0.02174439
3.6e+08	0.01170578	-0.02208889	4.289263e-05	2.419339e-05	0.00984785	-0.006615965	4.811016e-06	5.381838e-06
	4.289263e-05	2.419339e-05	0.01209385	-0.02134898	-0.000289274	0.0002316494	0.01031684	-0.005906566
	0.00984785	-0.006615965	-0.000289274	0.0002316494	0.01159312	-0.02204379	4.117456e-05	2.642822e-05
	4.811016e-06	5.381838e-06	0.01031684	-0.005906566	4.117456e-05	2.642822e-05	0.01206583	-0.0214187
3.7e+08	0.009993892	-0.02156503	4.363114e-05	1.970462e-05	0.00881324	-0.006657672	5.126375e-06	4.915404e-06
	4.363114e-05	1.970462e-05	0.01042049	-0.02085756	-0.0002906665	0.0002439546	0.009318401	-0.00598379
	0.00881324	-0.006657672	-0.0002906665	0.0002439546	0.009886134	-0.02150935	4.209438e-05	2.2086e-05
	5.126375e-06	4.915404e-06	0.009318401	-0.00598379	4.209438e-05	2.2086e-05	0.01038969	-0.02092053
3.8e+08	0.00835734	-0.02087079	4.382654e-05	1.53533e-05	0.007775513	-0.006569123	5.39838e-06	4.440172e-06
	4.382654e-05	1.53533e-05	0.008817111	-0.02020139	-0.0002916169	0.0002576853	0.008311255	-0.005935926
	0.007775513	-0.006569123	-0.0002916169	0.0002576853	0.008255762	-0.02080502	4.248351e-05	1.785608e-05
	5.39838e-06	4.440172e-06	0.008311255	-0.005935926	4.248351e-05	1.785608e-05	0.008784614	-0.02025725
3.9e+08	0.006814195	-0.02001598	4.352346e-05	1.121175e-05	0.006750901	-0.00635087	5.628251e-06	3.959521e-06
	4.352346e-05	1.121175e-05	0.007300961	-0.01938965	-0.000291892	0.0002728518	0.007310889	-0.005762857
	0.006750901	-0.00635087	-0.000291892	0.0002728518	0.006720029	-0.01994077	4.238204e-05	1.380963e-05
	5.628251e-06	3.959521e-06	0.007310889	-0.005762857	4.238204e-05	1.380963e-05	0.007267905	-0.01943816
4e+08	0.005381269	-0.01901233	4.277695e-05	7.342931e-06	0.005755449	-0.006005476	5.817417e-06	3.476578e-06
	4.277695e-05	7.342931e-06	0.005888137	-0.01843331	-0.0002912525	0.0002894284	0.006332685	-0.005466376
	0.005755449	-0.006005476	-0.0002912525	0.0002894284	0.005295685	-0.0189285	4.18404e-05	1.000929e-05
	5.817417e-06	3.476578e-06	0.006332685	-0.005466376	4.18404e-05	1.000929e-05	0.005855686	-0.01847441
4.1e+08	0.004073935	-0.01787336	4.165076e-05	3.798693e-06	0.004804766	-0.005537478	5.967488e-06	2.994201e-06
	4.165076e-05	3.798693e-06	0.004593369	-0.01734504	-0.0002894578	0.0003073531	0.005391687	-0.005050153
	0.004804766	-0.005537478	-0.0002894578	0.0003073531	0.003998009	-0.01778188	4.091768e-05	6.5075e-06
	5.967488e-06	2.994201e-06	0.005391687	-0.005050153	4.091768e-05	6.5075e-06	0.004562699	-0.0173788
4.2e+08	0.002905911	-0.01661422	4.021516e-05	6.185386e-07	0.003913782	-0.004953319	6.08022e-06	2.514965e-06
	4.021516e-05	6.185386e-07	0.003429851	-0.01613901	-0.0002862717	0.0003265271	0.004502371	-0.004519685
	0.003913782	-0.004953319	-0.0002862717	0.0003265271	0.002840605	-0.01651617	3.967978e-05	3.345187e-06
	6.08022e-06	2.514965e-06	0.004502371	-0.004519685	3.967978e-05	3.345187e-06	0.003402126	-0.01616566
4.3e+08	0.001889101	-0.0152514	3.854469e-05	-2.171246e-06	0.003096521	-0.004261246	6.157476e-06	2.041137e-06
	3.854469e-05	-2.171246e-06	0.002409086	-0.01483073	-0.0002814691	0.000346815	0.003678422	-0.003882208
	0.003096521	-0.004261246	-0.0002814691	0.000346815	0.001835262	-0.01514802	3.819717e-05	5.508919e-07
	6.157476e-06	2.041137e-06	0.003678422	-0.003882208	3.819717e-05	5.508919e-07	0.002385445	-0.01485064
4.4e+08	0.001033459	-0.01380264	3.671574e-05	-4.558078e-06	0.002365876	-0.003471188	6.201182e-06	1.574679e-06
	3.671574e-05	-4.558078e-06	0.001540753	-0.01343682	-0.0002748416	0.0003680464	0.002932528	-0.003146585
	0.002365876	-0.003471188	-0.0002748416	0.0003680464	0.0009917819	-0.01369525	3.654269e-05	-1.859809e-06
	6.201182e-06	1.574679e-06	0.002932528	-0.003146585	3.654269e-05	-1.859809e-06	0.001522284	-0.01345054
4.5e+08	0.0003468587	-0.0122866	3.480407e-05	-6.543066e-06	0.001733415	-0.002594602	6.213278e-06	1.117254e-06
	3.480407e-05	-6.543066e-06	0.0008325934	-0.01197484	-0.0002662036	0.0003900191	0.002276186	-0.002323173
	0.001733415	-0.002594602	-0.0002662036	0.0003900191	0.0003178853	-0.01217663	3.478923e-05	-3.884399e-06
	6.213278e-06	1.117254e-06	0.002276186	-0.002323173	3.478923e-05	-3.884399e-06	0.0008203188	-0.01198303
4.6e+08	-0.000164987	-0.01072269	3.28824e-05	-8.140669e-06	0.001209202	-0.001644294	6.195652e-06	6.702137e-07
	3.28824e-05	-8.140669e-06	0.0002903297	-0.01046302	-0.0002553948	0.0004125026	0.001719528	-0.001423663
	0.001209202	-0.001644294	-0.0002553948	0.0004125026	-0.0001808906	-0.01061164	3.300742e-05	-5.533176e-06
	6.195652e-06	6.702137e-07	0.001719528	-0.001423663	3.300742e-05	-5.533176e-06	0.0002851847	-0.01046649
4.7e+08	-0.0004985853	-0.009130753	3.101806e-05	-9.377789e-06	0.0008016337	-0.0006342274	6.149905e-06	2.344518e-07
	3.101806e-05	-9.377789e-06	-8.239914e-05	-0.008920077	-0.0002422889	0.0004352412	0.00127117	-0.0004609013
	0.0008016337	-0.0006342274	-0.0002422889	0.0004352412	-0.0005012481	-0.009020189	3.12633e-05	-6.828597e-06
	6.149905e-06	2.344518e-07	0.00127117	-0.0004609013	3.12633e-05	-6.828597e-06	-7.955574e-05	-0.008919726
