!$
! Info: Touchstone file created by Circ.  Input file=Tx_6in_Rx_93ohms_TxVia_10mils_RxVia_20mils.circ
!$
# Hz S RI R 50
0	0.005603041	4.809257e-26	3.242031e-09	2.384351e-27	4.404655e-05	5.690042e-24	-3.549978e-09	4.682069e-25
	3.242023e-09	2.384523e-27	0.005602646	6.034483e-26	-3.022549e-09	4.187966e-25	4.348249e-05	7.925597e-24
	4.632015e-05	5.703229e-24	-3.020606e-09	4.185563e-25	0.005595671	4.195836e-26	1.253633e-08	1.233893e-29
	-3.547237e-09	4.678696e-25	4.493983e-05	8.157341e-24	1.253642e-08	1.217925e-29	0.005608268	5.757861e-26
1e+07	0.008191853	-0.0002391354	4.972441e-09	8.185705e-09	0.0001575015	0.001166466	7.82976e-09	5.705652e-08
	4.972442e-09	8.185705e-09	0.008188994	-0.0002400475	2.226404e-10	5.822085e-08	0.0001556176	0.001166927
	0.0001575496	0.00116644	2.226406e-10	5.822085e-08	0.008039969	-0.0002493501	-1.079616e-08	4.530988e-08
	7.82976e-09	5.705652e-08	0.00015565	0.001166915	-1.079616e-08	4.530988e-08	0.008037146	-0.0002502933
2e+07	0.009739331	-0.002447325	7.537916e-09	1.441175e-08	0.0003381828	0.002338621	2.363058e-08	7.739062e-08
	7.537915e-09	1.441175e-08	0.009727852	-0.002448374	3.919651e-09	8.139435e-08	0.0003308657	0.002340433
	0.0003381749	0.002338596	3.919652e-09	8.139435e-08	0.009621687	-0.002408709	-6.529601e-09	4.669519e-08
	2.363058e-08	7.739062e-08	0.0003308628	0.002340412	-6.529602e-09	4.669519e-08	0.009610557	-0.002409636
3e+07	0.01047004	-0.005375898	1.05624e-08	2.004002e-08	0.0007008726	0.003425523	4.951437e-08	9.587829e-08
	1.05624e-08	2.004002e-08	0.01044413	-0.005375117	1.114868e-08	1.080995e-07	0.0006848445	0.003430103
	0.0007008731	0.00342552	1.114868e-08	1.080995e-07	0.0103781	-0.005327759	-1.94576e-09	5.46046e-08
	4.951437e-08	9.587829e-08	0.0006848395	0.003430101	-1.94576e-09	5.46046e-08	0.0103535	-0.005326872
4e+07	0.01058274	-0.008542188	1.404753e-08	2.493048e-08	0.001221679	0.004436369	7.769475e-08	1.086847e-07
	1.404753e-08	2.493048e-08	0.01053701	-0.008536463	1.668867e-08	1.336817e-07	0.001193947	0.004445713
	0.001221683	0.004436365	1.668867e-08	1.336817e-07	0.01051154	-0.008496258	4.528074e-09	6.131732e-08
	7.769475e-08	1.086847e-07	0.001193947	0.004445715	4.528074e-09	6.131732e-08	0.01046807	-0.008490896
5e+07	0.01015577	-0.01178337	1.790554e-08	2.90689e-08	0.001855234	0.005366234	1.081633e-07	1.164419e-07
	1.790554e-08	2.90689e-08	0.01008546	-0.01176859	2.071464e-08	1.591792e-07	0.001813225	0.005382899
	0.001855235	0.005366232	2.071464e-08	1.591792e-07	0.01009973	-0.01174578	1.259694e-08	6.555966e-08
	1.081633e-07	1.164419e-07	0.001813225	0.005382899	1.259694e-08	6.555966e-08	0.01003265	-0.01173173
6e+07	0.009237707	-0.01499611	2.204216e-08	3.242544e-08	0.002591453	0.006203667	1.408153e-07	1.186178e-07
	2.204216e-08	3.242544e-08	0.009138845	-0.01496729	2.384117e-08	1.848841e-07	0.002533088	0.006230655
	0.002591453	0.006203668	2.384117e-08	1.848841e-07	0.009192011	-0.01497014	2.157035e-08	6.713697e-08
	1.408153e-07	1.186178e-07	0.002533085	0.006230656	2.157035e-08	6.713697e-08	0.009097745	-0.0149425
7e+07	0.007868793	-0.01810143	2.63497e-08	3.49632e-08	0.003418379	0.006937633	1.749902e-07	1.145333e-07
	2.63497e-08	3.49632e-08	0.007738332	-0.01805291	2.6479e-08	2.108086e-07	0.003342119	0.006978303
	0.003418379	0.006937637	2.6479e-08	2.108086e-07	0.007829239	-0.0180893	3.069041e-08	6.619473e-08
	1.749902e-07	1.145333e-07	0.003342114	0.006978305	3.069041e-08	6.619473e-08	0.007704988	-0.01804286
8e+07	0.006088234	-0.02103378	3.070421e-08	3.665152e-08	0.004322489	0.007558253	2.09677e-07	1.036747e-07
	3.070421e-08	3.665153e-08	0.005924121	-0.02095938	2.889649e-08	2.369111e-07	0.004227374	0.007616238
	0.004322491	0.007558257	2.889649e-08	2.369111e-07	0.006050695	-0.02103728	3.928435e-08	6.304061e-08
	2.09677e-07	1.036747e-07	0.00422737	0.007616242	3.928435e-08	6.304061e-08	0.00589422	-0.02096636
9e+07	0.003937718	-0.02373587	3.496896e-08	3.747541e-08	0.005288964	0.0080572	2.436781e-07	8.577463e-08
	3.496897e-08	3.747541e-08	0.003738943	-0.02362907	3.122568e-08	2.631596e-07	0.005174645	0.008136326
	0.005288966	0.008057203	3.122568e-08	2.631596e-07	0.003897705	-0.02375661	4.681475e-08	5.807632e-08
	2.436781e-07	8.577463e-08	0.005174642	0.00813633	4.681475e-08	5.807632e-08	0.003707509	-0.02365482
1e+08	0.001470449	-0.02614651	3.899935e-08	3.743934e-08	0.006301968	0.00842772	2.757178e-07	6.083175e-08
	3.899935e-08	3.743934e-08	0.001237111	-0.02600059	3.360373e-08	2.894872e-07	0.006168734	0.008531926
	0.006301968	0.00842772	3.360373e-08	2.894872e-07	0.00142182	-0.02618747	5.289801e-08	5.174239e-08
	2.757178e-07	6.083175e-08	0.006168734	0.008531926	5.289801e-08	5.174239e-08	0.001197509	-0.02604782
1.1e+08	-0.001230269	-0.02830671	4.263197e-08	3.66031e-08	0.007343954	0.008666205	3.054771e-07	3.127157e-08
	4.263197e-08	3.66031e-08	-0.001497835	-0.02811389	3.405101e-08	3.173769e-07	0.007192217	0.008799018
	0.007343954	0.008666205	3.405101e-08	3.173769e-07	-0.001297565	-0.02835917	5.773873e-08	5.077144e-08
	3.054771e-07	3.127157e-08	0.007192217	0.008799018	5.773873e-08	5.077144e-08	-0.001555468	-0.0281744
1.2e+08	-0.004205893	-0.03015378	4.575373e-08	3.502579e-08	0.008398948	0.008770878	3.314526e-07	-4.565827e-09
	4.575373e-08	3.502579e-08	-0.004504803	-0.02990743	3.434584e-08	3.455108e-07	0.008230582	0.008936458
	0.008398948	0.008770878	3.434584e-08	3.455108e-07	-0.004291464	-0.03021195	6.189275e-08	4.882059e-08
	3.314526e-07	-4.565827e-09	0.008230582	0.008936457	6.189275e-08	4.882059e-08	-0.004579827	-0.02997542
1.3e+08	-0.007396293	-0.03164194	4.824478e-08	3.277664e-08	0.009450024	0.00874135	3.526006e-07	-4.616793e-08
	4.824478e-08	3.277664e-08	-0.007722721	-0.03133587	3.456736e-08	3.739161e-07	0.009267521	0.008943432
	0.009450024	0.00874135	3.456736e-08	3.739161e-07	-0.007500624	-0.03170208	6.520271e-08	4.598324e-08
	3.526006e-07	-4.616793e-08	0.009267521	0.008943432	6.520271e-08	4.598324e-08	-0.007815462	-0.03140778
1.4e+08	-0.01074807	-0.0327464	4.999207e-08	2.994439e-08	0.01048039	0.008579586	3.679421e-07	-9.285702e-08
	4.999207e-08	2.994439e-08	-0.01109729	-0.03237491	3.478668e-08	4.026101e-07	0.0102868	0.008821478
	0.01048039	0.008579586	3.478668e-08	4.026101e-07	-0.01087138	-0.03280504	6.752044e-08	4.237812e-08
	3.679421e-07	-9.285702e-08	0.0102868	0.008821478	6.752044e-08	4.237812e-08	-0.01120793	-0.03244756
1.5e+08	-0.01420831	-0.03345121	5.08934e-08	2.663555e-08	0.01147367	0.00828965	3.765906e-07	-1.43804e-07
	5.08934e-08	2.663555e-08	-0.0145747	-0.0330092	3.507178e-08	4.315991e-07	0.01127254	0.008574197
	0.01147367	0.00828965	3.507178e-08	4.315991e-07	-0.0143504	-0.03350505	6.87123e-08	3.814728e-08
	3.765906e-07	-1.43804e-07	0.01127254	0.008574197	6.87123e-08	3.814728e-08	-0.01470313	-0.03307961
1.6e+08	-0.01772437	-0.03374777	5.086066e-08	2.297327e-08	0.01241417	0.007877613	3.777764e-07	-1.980415e-07
	5.086066e-08	2.297327e-08	-0.01810149	-0.03323089	3.548754e-08	4.608786e-07	0.01220953	0.008207149
	0.01241417	0.007877613	3.548754e-08	4.608786e-07	-0.01788458	-0.03379368	6.86634e-08	3.345433e-08
	3.777764e-07	-1.980415e-07	0.01220953	0.008207149	6.86634e-08	3.345433e-08	-0.01824726	-0.03329623
1.7e+08	-0.02124423	-0.03363426	4.98228e-08	1.90954e-08	0.01328714	0.007351444	3.708683e-07	-2.544808e-07
	4.98228e-08	1.90954e-08	-0.02162487	-0.03303902	3.609538e-08	4.904346e-07	0.0130834	0.007727731
	0.01328714	0.007351444	3.609538e-08	4.904346e-07	-0.0214215	-0.03366932	6.728153e-08	2.848196e-08
	3.708683e-07	-2.544808e-07	0.0130834	0.007727731	6.728153e-08	2.848196e-08	-0.02178721	-0.03309663
1.8e+08	-0.02471701	-0.03311523	4.772844e-08	1.515212e-08	0.01407896	0.006720866	3.553923e-07	-3.11932e-07
	4.772844e-08	1.515212e-08	-0.02509334	-0.03243916	3.695264e-08	5.202441e-07	0.01388087	0.007145038
	0.01407896	0.006720866	3.695264e-08	5.202441e-07	-0.0249099	-0.03313681	6.450048e-08	2.342872e-08
	3.553923e-07	-3.11932e-07	0.01388087	0.007145038	6.450048e-08	2.342872e-08	-0.02527113	-0.03248658
1.9e+08	-0.02809351	-0.03220134	4.454801e-08	1.130306e-08	0.01477741	0.005997193	3.310467e-07	-3.691272e-07
	4.454801e-08	1.130306e-08	-0.02845716	-0.03144305	3.811184e-08	5.502754e-07	0.01458996	0.006469704
	0.01477741	0.005997193	3.811184e-08	5.502754e-07	-0.02830023	-0.03220705	6.028275e-08	1.850515e-08
	3.310467e-07	-3.691272e-07	0.01458996	0.006469704	6.028275e-08	1.850515e-08	-0.02864901	-0.03147802
2e+08	-0.03132677	-0.03090896	4.027546e-08	7.714054e-09	0.01537178	0.005193139	2.977138e-07	-4.247456e-07
	4.027546e-08	7.714054e-09	-0.03166902	-0.03006829	3.961976e-08	5.804891e-07	0.01520013	0.005713718
	0.01537178	0.005193139	3.961976e-08	5.804891e-07	-0.03154527	-0.03089676	5.462168e-08	1.392957e-08
	2.977138e-07	-4.247456e-07	0.01520013	0.005713718	5.462168e-08	1.392957e-08	-0.03187327	-0.0300888
2.1e+08	-0.03437264	-0.02925985	3.492935e-08	4.553602e-09	0.01585309	0.004322609	2.554675e-07	-4.774398e-07
	3.492935e-08	4.553602e-09	-0.03468458	-0.02833791	4.151654e-08	6.108389e-07	0.01570244	0.00489023
	0.01585309	0.004322609	4.151654e-08	6.108389e-07	-0.03460062	-0.02922802	4.754279e-08	9.923453e-09
	2.554675e-07	-4.774398e-07	0.01570244	0.00489023	4.754279e-08	9.923453e-09	-0.03489934	-0.0283422
2.2e+08	-0.0371903	-0.02728073	2.855349e-08	1.989192e-09	0.01621417	0.003400468	2.04577e-07	-5.258632e-07
	2.855349e-08	1.989192e-09	-0.03746303	-0.02627994	4.383479e-08	6.412721e-07	0.01608967	0.004013339
	0.01621417	0.003400468	4.383479e-08	6.412721e-07	-0.03742528	-0.02722789	3.910444e-08	6.706689e-09
	2.04577e-07	-5.258632e-07	0.01608967	0.004013339	3.910444e-08	6.706689e-09	-0.0376862	-0.02626656
2.3e+08	-0.03974275	-0.0250028	2.121685e-08	1.834951e-10	0.01644979	0.002442311	1.455071e-07	-5.686982e-07
	2.121685e-08	1.834951e-10	-0.03996756	-0.02392692	4.659871e-08	6.717309e-07	0.01635642	0.003097867
	0.01644979	0.002442311	4.659871e-08	6.717309e-07	-0.0399821	-0.02492795	2.939778e-08	4.492665e-09
	1.455071e-07	-5.686982e-07	0.01635642	0.003097867	2.939778e-08	4.492665e-09	-0.04019688	-0.02389471
2.4e+08	-0.04199728	-0.02246126	1.301303e-08	-7.094055e-10	0.01655671	0.001464208	7.891422e-08	-6.046828e-07
	1.301303e-08	-7.094055e-10	-0.04216584	-0.02131536	4.982341e-08	7.021539e-07	0.01649917	0.002159134
	0.01655671	0.001464208	4.982341e-08	7.021539e-07	-0.04223827	-0.02236376	1.854589e-08	3.483459e-09
	7.891422e-08	-6.046828e-07	0.01649917	0.002159134	1.854589e-08	3.483459e-09	-0.04239892	-0.02126348
2.5e+08	-0.04392579	-0.01969473	4.059073e-09	-5.477121e-10	0.01653369	0.0004824646	5.638643e-09	-6.326381e-07
	4.059073e-09	-5.477121e-10	-0.04403038	-0.01848518	5.351435e-08	7.32477e-07	0.0165163	0.001212723
	0.01653369	0.0004824646	5.351435e-08	7.32477e-07	-0.04416564	-0.01957432	6.702242e-09	3.86511e-09
	5.638643e-09	-6.326381e-07	0.0165163	0.001212723	6.702242e-09	3.86511e-09	-0.04426475	-0.01841311
2.6e+08	-0.04550524	-0.01674469	-5.506381e-09	7.94752e-10	0.01638155	-0.0004866359	-7.330646e-08	-6.514938e-07
	-5.506381e-09	7.94752e-10	-0.04553889	-0.01547904	5.766699e-08	7.62635e-07	0.01640812	0.0002742478
	0.01638155	-0.0004866359	5.766699e-08	7.62635e-07	-0.04574111	-0.01660149	-5.951506e-09	5.803163e-09
	-7.330646e-08	-6.514938e-07	0.01640812	0.0002742478	-5.951506e-09	5.803163e-09	-0.04577201	-0.01538661
2.7e+08	-0.04671772	-0.01365485	-1.552504e-08	3.42487e-09	0.01610308	-0.001427075	-1.567497e-07	-6.60312e-07
	-1.552504e-08	3.42487e-09	-0.04667443	-0.01234176	6.226661e-08	7.925632e-07	0.01617684	-0.0006408813
	0.01610308	-0.001427075	6.226661e-08	7.925632e-07	-0.04694686	-0.01348936	-1.920842e-08	9.438547e-09
	-1.567497e-07	-6.60312e-07	0.01617684	-0.0006408813	-1.920842e-08	9.438547e-09	-0.04690378	-0.01222913
2.8e+08	-0.0475508	-0.01047052	-2.582198e-08	7.427708e-09	0.01570305	-0.002323339	-2.433792e-07	-6.583096e-07
	-2.582198e-08	7.427708e-09	-0.04742569	-0.009119624	6.728846e-08	8.221989e-07	0.01582653	-0.00151768
	0.01570305	-0.002323339	6.728846e-08	8.221989e-07	-0.04777054	-0.01028358	-3.283974e-08	1.488387e-08
	-2.433792e-07	-6.583096e-07	0.01582653	-0.00151768	-3.283974e-08	1.488387e-08	-0.0476488	-0.008987288
2.9e+08	-0.04799758	-0.007237941	-3.620874e-08	1.286399e-08	0.01518808	-0.003160652	-3.317633e-07	-6.448776e-07
	-3.620874e-08	1.286399e-08	-0.04778703	-0.005859706	7.26981e-08	8.514832e-07	0.01536304	-0.002341809
	0.01518808	-0.003160652	7.26981e-08	8.514832e-07	-0.04820535	-0.007030771	-4.65989e-08	2.222027e-08
	-3.317633e-07	-6.448776e-07	0.01536304	-0.002341809	-4.65989e-08	2.222027e-08	-0.04800149	-0.005708485
3e+08	-0.04805673	-0.004003669	-4.648679e-08	1.976808e-08	0.01456655	-0.003925188	-4.203737e-07	-6.195983e-07
	-4.648679e-08	1.976808e-08	-0.04775852	-0.002609207	7.8452e-08	8.803618e-07	0.01479392	-0.003099778
	0.01456655	-0.003925188	7.8452e-08	8.803618e-07	-0.04825016	-0.003777805	-6.022594e-08	3.149477e-08
	-4.203737e-07	-6.195983e-07	0.01479392	-0.003099778	-6.022594e-08	3.149477e-08	-0.04796207	-0.002440229
3.1e+08	-0.04773246	-0.0008138671	-5.64513e-08	2.81465e-08	0.01384846	-0.004604282	-5.076108e-07	-5.82259e-07
	-5.64513e-08	2.81465e-08	-0.04734589	0.0005852393	8.44984e-08	9.08787e-07	0.01412829	-0.003779143
	0.01384846	-0.004604282	8.44984e-08	9.08787e-07	-0.04790938	-0.0005711655	-7.345229e-08	4.27184e-08
	-5.076108e-07	-5.82259e-07	0.01412829	-0.003779143	-7.345229e-08	4.27184e-08	-0.0475364	0.0007705469
3.2e+08	-0.04703444	0.002286294	-6.589513e-08	3.797706e-08	0.01304528	-0.005186608	-5.918313e-07	-5.328627e-07
	-6.589513e-08	3.797706e-08	-0.04656035	0.003678201	9.077827e-08	9.367188e-07	0.01337669	-0.004368679
	0.01304528	-0.005186608	9.077827e-08	9.367188e-07	-0.04719293	0.002543692	-8.600584e-08	5.586487e-08
	-5.918313e-07	-5.328627e-07	0.01337669	-0.004368679	-8.600584e-08	5.586487e-08	-0.04673592	0.003878139
3.3e+08	-0.04597757	0.005253276	-7.461285e-08	4.920849e-08	0.01216979	-0.005662346	-6.713769e-07	-4.716347e-07
	-7.461285e-08	4.920849e-08	-0.04541845	0.006626091	9.72266e-08	9.641257e-07	0.01255095	-0.004858543
	0.01216979	-0.005662346	9.72266e-08	9.641257e-07	-0.04611599	0.005522976	-9.76161e-08	7.087007e-08
	-6.713769e-07	-4.716347e-07	0.01255095	-0.004858543	-9.76161e-08	7.087007e-08	-0.04557738	0.006838714
3.4e+08	-0.04458178	0.008045774	-8.24049e-08	6.176071e-08	0.01123588	-0.006023333	-7.446036e-07	-3.990262e-07
	-8.24049e-08	6.176071e-08	-0.04394176	0.009387783	1.037737e-07	9.909856e-07	0.01166398	-0.005240415
	0.01123588	-0.006023333	1.037737e-07	9.909856e-07	-0.04469881	0.008325167	-1.080195e-07	8.763221e-08
	-7.446036e-07	-3.990262e-07	0.01166398	-0.005240415	-1.080195e-07	8.763221e-08	-0.04408262	0.009610928
3.5e+08	-0.04287168	0.01062527	-8.908151e-08	7.552566e-08	0.01025831	-0.006263175	-8.099125e-07	-3.157136e-07
	-8.908151e-08	7.552566e-08	-0.04215652	0.01192516	1.103468e-07	1.017287e-06	0.01072964	-0.005507618
	0.01025831	-0.006263175	1.103468e-07	1.017287e-06	-0.04296635	0.01091157	-1.169645e-07	1.060128e-07
	-8.099125e-07	-3.157136e-07	0.01072964	-0.005507618	-1.169645e-07	1.060128e-07	-0.04227819	0.01215648
3.6e+08	-0.04087622	0.01295656	-9.446667e-08	9.036869e-08	0.00925254	-0.006377349	-8.657798e-07	-2.225938e-07
	-9.446667e-08	9.036869e-08	-0.04009328	0.01420364	1.168714e-07	1.043027e-06	0.009762455	-0.005655211
	0.00925254	-0.006377349	1.168714e-07	1.043027e-06	-0.04094793	0.01324686	-1.242167e-07	1.258381e-07
	-8.657798e-07	-2.225938e-07	0.009762455	-0.005655211	-1.242167e-07	1.258381e-07	-0.04019492	0.01444066
3.7e+08	-0.03862822	0.01500824	-9.840167e-08	1.061305e-07	0.008234471	-0.006363269	-9.107866e-07	-1.207755e-07
	-9.840167e-08	1.061305e-07	-0.03778639	0.01619267	1.232727e-07	1.068216e-06	0.008777467	-0.005680071
	0.008234471	-0.006363269	1.232727e-07	1.068216e-06	-0.03867675	0.01529954	-1.295636e-07	1.469017e-07
	-9.107866e-07	-1.207755e-07	0.008777467	-0.005680071	-1.295636e-07	1.469017e-07	-0.0378675	0.0164328
3.8e+08	-0.03616393	0.01675309	-1.007485e-07	1.226295e-07	0.007220212	-0.006220335	-9.436479e-07	-1.156683e-08
	-1.007485e-07	1.226295e-07	-0.03527351	0.01786611	1.294777e-07	1.092872e-06	0.007789988	-0.005580935
	0.007220212	-0.006220335	1.294777e-07	1.092872e-06	-0.03618945	0.01704237	-1.328191e-07	1.689672e-07
	-9.436479e-07	-1.156683e-08	0.007789988	-0.005580935	-1.328191e-07	1.689672e-07	-0.03533394	0.01810669
3.9e+08	-0.03352248	0.0181685	-1.013927e-07	1.396646e-07	0.006225838	-0.005949939	-9.632399e-07	1.035411e-07
	-1.013927e-07	1.396646e-07	-0.03259507	0.01920257	1.354158e-07	1.117026e-06	0.006815376	-0.005358422
	0.006225838	-0.005949939	1.354158e-07	1.117026e-06	-0.03352557	0.01845275	-1.338274e-07	1.917718e-07
	-9.632399e-07	1.035411e-07	0.006815376	-0.005358422	-1.338274e-07	1.917718e-07	-0.03263499	0.01944094
4e+08	-0.0307453	0.01923669	-1.002463e-07	1.570185e-07	0.005267148	-0.005555458	-9.686252e-07	2.228942e-07
	-1.002463e-07	1.570185e-07	-0.02979364	0.02018576	1.410209e-07	1.140715e-06	0.005868811	-0.005015034
	0.005267148	-0.005555458	1.410209e-07	1.140715e-06	-0.03072693	0.01951299	-1.324668e-07	2.150303e-07
	-9.686252e-07	2.228942e-07	0.005868811	-0.005015034	-1.324668e-07	2.150303e-07	-0.02981359	0.02041928
4.1e+08	-0.02787556	0.01994502	-9.724928e-08	1.744613e-07	0.004359423	-0.005042204	-9.590762e-07	3.446994e-07
	-9.724928e-08	1.744613e-07	-0.02691333	0.02080461	1.462322e-07	1.163987e-06	0.004965064	-0.004555123
	0.004359423	-0.005042204	1.462322e-07	1.163987e-06	-0.02783708	0.02021056	-1.286524e-07	2.384397e-07
	-9.590762e-07	3.446994e-07	0.004965064	-0.004555123	-1.286524e-07	2.384397e-07	-0.02691419	0.02103072
4.2e+08	-0.02495752	0.0202861	-9.237187e-08	1.917538e-07	0.00351719	-0.004417359	-9.340944e-07	4.670506e-07
	-9.237187e-08	1.917538e-07	-0.02399916	0.02105349	1.509955e-07	1.186897e-06	0.004118276	-0.003984831
	0.00351719	-0.004417359	1.509955e-07	1.186897e-06	-0.02490068	0.02053824	-1.223386e-07	2.616838e-07
	-9.340944e-07	4.670506e-07	0.004118276	-0.003984831	-1.223386e-07	2.616838e-07	-0.02398215	0.02126975
4.3e+08	-0.02203594	0.02025789	-8.561529e-08	2.086518e-07	0.002753995	-0.003689869	-8.934272e-07	5.879589e-07
	-8.561529e-08	2.086518e-07	-0.0210964	0.02093222	1.552638e-07	1.209508e-06	0.003341741	-0.003312006
	0.002753995	-0.003689869	1.552638e-07	1.209508e-06	-0.02196279	0.02049422	-1.135211e-07	2.844387e-07
	-8.934272e-07	5.879589e-07	0.003341741	-0.003312006	-1.135211e-07	2.844387e-07	-0.02106303	0.02113633
4.4e+08	-0.01915537	0.0198637	-7.701253e-08	2.249102e-07	0.002082189	-0.002870314	-8.370809e-07	7.053842e-07
	-7.701253e-08	2.249102e-07	-0.01824988	0.02044604	1.589984e-07	1.231887e-06	0.002647697	-0.002546091
	0.002082189	-0.002870314	1.589984e-07	1.231887e-06	-0.01906832	0.02008208	-1.022376e-07	3.063776e-07
	-8.370809e-07	7.053842e-07	0.002647697	-0.002546091	-1.022376e-07	3.063776e-07	-0.01820198	0.02063593
4.5e+08	-0.01635957	0.01911214	-6.662845e-08	2.402867e-07	0.001512731	-0.00197076	-7.653288e-07	8.172691e-07
	-6.662845e-08	2.402867e-07	-0.01550341	0.01960557	1.621694e-07	1.254106e-06	0.00204714	-0.001697988
	0.001512731	-0.00197076	1.621694e-07	1.254106e-06	-0.0162613	0.01931074	-8.856857e-08	3.271767e-07
	-7.653288e-07	8.172691e-07	0.00204714	-0.001697988	-8.856857e-08	3.271767e-07	-0.01544307	0.01977939
4.6e+08	-0.0136909	0.01801698	-5.455939e-08	2.54546e-07	0.001055007	-0.001004571	-6.787157e-07	9.21574e-07
	-5.455939e-08	2.54546e-07	-0.01289908	0.0184266	1.647558e-07	1.276242e-06	0.001549643	-0.0007798975
	0.001055007	-0.001004571	1.647558e-07	1.276242e-06	-0.01358429	0.01819435	-7.26365e-08	3.465203e-07
	-6.787157e-07	9.21574e-07	0.001549643	-0.0007798975	-7.26365e-08	3.465203e-07	-0.0128286	0.0185828
4.7e+08	-0.01118965	0.01659694	-4.093233e-08	2.67464e-07	0.000716671	1.37846e-05	-5.780573e-07	1.016313e-06
	-4.093233e-08	2.67464e-07	-0.0104767	0.01692982	1.66746e-07	1.298373e-06	0.001163203	0.0001948659
	0.000716671	1.37846e-05	1.66746e-07	1.298373e-06	-0.01107782	0.01675196	-5.460574e-08	3.641068e-07
	-5.780573e-07	1.016313e-06	0.001163203	0.0001948659	-5.460574e-08	3.641068e-07	-0.01039862	0.01706714
4.8e+08	-0.008893522	0.01487538	-2.590357e-08	2.788313e-07	0.0005035202	0.001068963	-4.644348e-07	1.09959e-06
