!$
! Info: Touchstone file created by Circ.  Input file=Tx_6in_Rx_93ohms_TxVia_10mils_RxVia_20mils.circ
!$
# Hz S RI R 50
0	0.005603041	4.809257e-26	0.9942659	-4.821475e-26	4.404655e-05	5.690042e-24	-4.248141e-05	1.228381e-21
	0.9942659	-4.866231e-26	0.005602646	6.034483e-26	-4.235019e-05	1.212414e-21	4.348249e-05	7.925597e-24
	4.632015e-05	5.703229e-24	-4.229797e-05	1.206051e-21	0.005595671	4.195836e-26	0.9942358	-4.29357e-26
	-4.28916e-05	1.278646e-21	4.493983e-05	8.157341e-24	0.9942359	-4.496973e-26	0.005608268	5.757861e-26
1e+07	0.008191853	-0.0002391354	0.9895117	-0.06410175	0.0001575015	0.001166466	-8.101465e-05	-5.440889e-05
	0.9895117	-0.06410175	0.008188994	-0.0002400475	-8.103719e-05	-5.438469e-05	0.0001556176	0.001166927
	0.0001575496	0.00116644	-8.099913e-05	-5.440598e-05	0.008039969	-0.0002493501	0.9896575	-0.06419902
	-8.097659e-05	-5.443019e-05	0.00015565	0.001166915	0.9896575	-0.06419903	0.008037146	-0.0002502933
2e+07	0.009739331	-0.002447325	0.9815431	-0.1257417	0.0003381828	0.002338621	-4.156073e-05	-0.0001388652
	0.9815431	-0.1257417	0.009727852	-0.002448374	-4.155199e-05	-0.0001388379	0.0003308657	0.002340433
	0.0003381749	0.002338596	-4.155264e-05	-0.0001388664	0.009621687	-0.002408709	0.9816316	-0.1259934
	-4.15521e-05	-0.0001389007	0.0003308628	0.002340412	0.9816316	-0.1259934	0.009610557	-0.002409636
3e+07	0.01047004	-0.005375898	0.9703107	-0.1860152	0.0007008726	0.003425523	-4.566965e-05	-0.0001800899
	0.9703107	-0.1860152	0.01044413	-0.005375117	-4.567013e-05	-0.0001800832	0.0006848445	0.003430103
	0.0007008731	0.00342552	-4.567277e-05	-0.0001800873	0.0103781	-0.005327759	0.9703386	-0.1863764
	-4.567175e-05	-0.0001800962	0.0006848395	0.003430101	0.9703386	-0.1863764	0.0103535	-0.005326872
4e+07	0.01058274	-0.008542188	0.9556678	-0.2451593	0.001221679	0.004436369	-7.673975e-05	-0.0002051614
	0.9556678	-0.2451593	0.01053701	-0.008536463	-7.674704e-05	-0.0002051514	0.001193947	0.004445713
	0.001221683	0.004436365	-7.674409e-05	-0.0002051506	0.01051154	-0.008496258	0.9556282	-0.2456161
	-7.673596e-05	-0.0002051569	0.001193947	0.004445715	0.9556282	-0.2456161	0.01046807	-0.008490896
5e+07	0.01015577	-0.01178337	0.9376098	-0.3030802	0.001855234	0.005366234	-9.899419e-05	-0.0002266711
	0.9376098	-0.3030802	0.01008546	-0.01176859	-9.899594e-05	-0.0002266668	0.001813225	0.005382899
	0.001855235	0.005366232	-9.899431e-05	-0.0002266668	0.01009973	-0.01174578	0.9374943	-0.3036219
	-9.899124e-05	-0.0002266691	0.001813225	0.005382899	0.9374943	-0.3036219	0.01003265	-0.01173173
6e+07	0.009237707	-0.01499611	0.91618	-0.3596273	0.002591453	0.006203667	-0.0001146008	-0.0002489352
	0.91618	-0.3596273	0.009138845	-0.01496729	-0.0001146045	-0.0002489501	0.002533088	0.006230655
	0.002591453	0.006203668	-0.0001146077	-0.0002489492	0.009192011	-0.01497014	0.9159807	-0.3602435
	-0.0001146062	-0.0002489362	0.002533085	0.006230656	0.9159807	-0.3602435	0.009097745	-0.0149425
7e+07	0.007868793	-0.01810143	0.8914476	-0.4146311	0.003418379	0.006937633	-0.0001257443	-0.0002746603
	0.8914476	-0.4146311	0.007738332	-0.01805291	-0.0001257642	-0.0002746945	0.003342119	0.006978303
	0.003418379	0.006937637	-0.0001257713	-0.0002746908	0.007829239	-0.0180893	0.8911572	-0.4153112
	-0.0001257589	-0.0002746608	0.003342114	0.006978305	0.8911572	-0.4153112	0.007704988	-0.01804286
8e+07	0.006088234	-0.02103378	0.8635001	-0.4679159	0.004322489	0.007558253	-0.0001346263	-0.0003056432
	0.8635001	-0.4679159	0.005924121	-0.02095938	-0.0001346687	-0.0003056852	0.004227374	0.007616238
	0.004322491	0.007558257	-0.0001346766	-0.000305679	0.006050695	-0.02103728	0.8631124	-0.4686493
	-0.0001346449	-0.000305641	0.00422737	0.007616242	0.8631124	-0.4686493	0.00589422	-0.02096636
9e+07	0.003937718	-0.02373587	0.8324394	-0.519308	0.005288964	0.0080572	-0.0001435238	-0.0003430161
	0.8324394	-0.519308	0.003738943	-0.02362907	-0.0001435819	-0.0003430522	0.005174645	0.008136326
	0.005288966	0.008057203	-0.0001435871	-0.0003430466	0.003897705	-0.02375661	0.831949	-0.520083
	-0.000143538	-0.0003430125	0.005174642	0.00813633	0.831949	-0.520083	0.003707509	-0.02365482
1e+08	0.001470449	-0.02614651	0.7983706	-0.5686494	0.006301968	0.00842772	-0.0001547805	-0.0003870508
	0.7983706	-0.5686494	0.001237111	-0.02600059	-0.0001548348	-0.0003870729	0.006168734	0.008531926
	0.006301968	0.00842772	-0.0001548347	-0.0003870732	0.00142182	-0.02618747	0.797775	-0.5694523
	-0.0001547804	-0.0003870511	0.006168734	0.008531926	0.797775	-0.5694523	0.001197509	-0.02604782
1.1e+08	-0.001230269	-0.02830671	0.7613852	-0.6156965	0.007343954	0.008666205	-0.000170077	-0.0004384173
	0.7613852	-0.6156965	-0.001497835	-0.02811389	-0.0001701789	-0.0004384471	0.007192217	0.008799018
	0.007343954	0.008666205	-0.0001701788	-0.0004384473	-0.001297565	-0.02835917	0.7606867	-0.6165233
	-0.0001700769	-0.0004384175	0.007192217	0.008799018	0.7606867	-0.6165233	-0.001555468	-0.0281744
1.2e+08	-0.004205893	-0.03015378	0.7217113	-0.6603053	0.008398948	0.008770878	-0.0001932483	-0.0004973876
	0.7217113	-0.6603053	-0.004504803	-0.02990743	-0.0001933892	-0.0004974067	0.008230582	0.008936458
	0.008398948	0.008770878	-0.0001933892	-0.0004974069	-0.004291464	-0.03021195	0.7209029	-0.6611489
	-0.0001932483	-0.0004973878	0.008230582	0.008936457	0.7209029	-0.6611489	-0.004579827	-0.02997542
1.3e+08	-0.007396293	-0.03164194	0.6794911	-0.7023441	0.009450024	0.00874135	-0.0002267493	-0.0005622978
	0.6794911	-0.7023441	-0.007722721	-0.03133587	-0.0002269207	-0.0005622969	0.009267521	0.008943432
	0.009450024	0.00874135	-0.0002269207	-0.000562297	-0.007500624	-0.03170208	0.6785679	-0.7031946
	-0.0002267492	-0.0005622979	0.009267521	0.008943432	0.6785679	-0.7031946	-0.007815462	-0.03140778
1.4e+08	-0.01074807	-0.0327464	0.6348841	-0.7416755	0.01048039	0.008579586	-0.0002727068	-0.0006312567
	0.6348841	-0.7416755	-0.01109729	-0.03237491	-0.0002729028	-0.0006312317	0.0102868	0.008821478
	0.01048039	0.008579586	-0.0002729028	-0.0006312318	-0.01087138	-0.03280504	0.6338426	-0.7425222
	-0.0002727068	-0.0006312568	0.0102868	0.008821478	0.6338426	-0.7425222	-0.01120793	-0.03244756
1.5e+08	-0.01420831	-0.03345121	0.5880594	-0.7781701	0.01147367	0.00828965	-0.0003328538	-0.0007019718
	0.5880594	-0.7781701	-0.0145747	-0.0330092	-0.000333071	-0.0007019205	0.01127254	0.008574197
	0.01147367	0.00828965	-0.0003330711	-0.0007019206	-0.0143504	-0.03350505	0.5868968	-0.7790018
	-0.0003328538	-0.0007019719	0.01127254	0.008574197	0.5868968	-0.7790018	-0.01470313	-0.03307961
1.6e+08	-0.01772437	-0.03374777	0.5391938	-0.8117082	0.01241417	0.007877613	-0.0004084618	-0.0007718033
	0.5391938	-0.8117082	-0.01810149	-0.03323089	-0.0004086992	-0.0007717235	0.01220953	0.008207149
	0.01241417	0.007877613	-0.0004086992	-0.0007717236	-0.01788458	-0.03379368	0.5379084	-0.8125133
	-0.0004084618	-0.0007718034	0.01220953	0.008207149	0.5379084	-0.8125133	-0.01824726	-0.03329623
1.7e+08	-0.02124423	-0.03363426	0.4884711	-0.8421805	0.01328714	0.007351444	-0.0005002871	-0.0008378469
	0.4884711	-0.8421805	-0.02162487	-0.03303902	-0.0005005445	-0.0008377355	0.0130834	0.007727731
	0.01328714	0.007351444	-0.0005005445	-0.0008377356	-0.0214215	-0.03366932	0.4870623	-0.8429472
	-0.0005002871	-0.0008378469	0.0130834	0.007727731	0.4870623	-0.8429472	-0.02178721	-0.03309663
1.8e+08	-0.02471701	-0.03311523	0.4360809	-0.8694889	0.01407896	0.006720866	-0.0006085303	-0.0008970293
	0.4360809	-0.8694889	-0.02509334	-0.03243916	-0.0006088076	-0.000896882	0.01388087	0.007145038
	0.01407896	0.006720866	-0.0006088076	-0.0008968821	-0.0249099	-0.03313681	0.4345489	-0.8702052
	-0.0006085303	-0.0008970294	0.01388087	0.007145038	0.4345489	-0.8702052	-0.02527113	-0.03248658
1.9e+08	-0.02809351	-0.03220134	0.382218	-0.8935471	0.01477741	0.005997193	-0.0007328129	-0.0009462113
	0.382218	-0.8935471	-0.02845716	-0.03144305	-0.0007331096	-0.0009460223	0.01458996	0.006469704
	0.01477741	0.005997193	-0.0007331097	-0.0009460224	-0.02830023	-0.03220705	0.3805642	-0.8942008
	-0.0007328129	-0.0009462113	0.01458996	0.006469704	0.3805642	-0.8942008	-0.02864901	-0.03147802
2e+08	-0.03132677	-0.03090896	0.3270814	-0.9142802	0.01537178	0.005193139	-0.0008721732	-0.0009822931
	0.3270814	-0.9142802	-0.03166902	-0.03006829	-0.0008724875	-0.0009820559	0.01520013	0.005713718
	0.01537178	0.005193139	-0.0008724875	-0.0009820559	-0.03154527	-0.03089676	0.3253082	-0.9148592
	-0.0008721732	-0.0009822931	0.01520013	0.005713718	0.3253082	-0.9148592	-0.03187327	-0.0300888
2.1e+08	-0.03437264	-0.02925985	0.2708737	-0.9316256	0.01585309	0.004322609	-0.001025079	-0.00100232
	0.2708737	-0.9316256	-0.03468458	-0.02833791	-0.001025408	-0.001002027	0.01570244	0.00489023
	0.01585309	0.004322609	-0.001025408	-0.001002028	-0.03460062	-0.02922802	0.2689845	-0.9321178
	-0.001025079	-0.00100232	0.01570244	0.00489023	0.2689845	-0.9321178	-0.03489934	-0.0283422
2.2e+08	-0.0371903	-0.02728073	0.2138001	-0.9455325	0.01621417	0.003400468	-0.001189463	-0.001003584
	0.2138001	-0.9455325	-0.03746303	-0.02627994	-0.001189801	-0.001003229	0.01608967	0.004013339
	0.01621417	0.003400468	-0.001189801	-0.001003229	-0.03742528	-0.02722789	0.2117994	-0.9459261
	-0.001189463	-0.001003584	0.01608967	0.004013339	0.2117994	-0.9459261	-0.0376862	-0.02626656
2.3e+08	-0.03974275	-0.0250028	0.1560681	-0.9559627	0.01644979	0.002442311	-0.00136277	-0.0009837147
	0.1560681	-0.9559627	-0.03996756	-0.02392692	-0.00136311	-0.0009832906	0.01635642	0.003097867
	0.01644979	0.002442311	-0.00136311	-0.0009832906	-0.0399821	-0.02492795	0.1539613	-0.956246
	-0.00136277	-0.0009837147	0.01635642	0.003097867	0.1539613	-0.956246	-0.04019688	-0.02389471
2.4e+08	-0.04199728	-0.02246126	0.09788618	-0.9628898	0.01655671	0.001464208	-0.001542023	-0.0009407672
	0.09788618	-0.9628898	-0.04216584	-0.02131536	-0.001542356	-0.0009402681	0.01649917	0.002159134
	0.01655671	0.001464208	-0.001542356	-0.0009402681	-0.04223827	-0.02236376	0.09567976	-0.9630515
	-0.001542023	-0.0009407672	0.01649917	0.002159134	0.09567976	-0.9630515	-0.04239892	-0.02126348
2.5e+08	-0.04392579	-0.01969473	0.0394635	-0.9662996	0.01653369	0.0004824646	-0.001723903	-0.000873287
	0.0394635	-0.9662996	-0.04403038	-0.01848518	-0.00172422	-0.0008727083	0.0165163	0.001212723
	0.01653369	0.0004824646	-0.00172422	-0.0008727083	-0.04416564	-0.01957432	0.03716489	-0.9663288
	-0.001723903	-0.0008732871	0.0165163	0.001212723	0.03716489	-0.9663288	-0.04426475	-0.01841311
2.6e+08	-0.04550524	-0.01674469	-0.0189908	-0.9661903	0.01638155	-0.0004866359	-0.00190484	-0.0007803676
	-0.0189908	-0.9661903	-0.04553889	-0.01547904	-0.001905131	-0.0007797059	0.01640812	0.0002742478
	0.01638155	-0.0004866359	-0.001905131	-0.0007797059	-0.04574111	-0.01660149	-0.02137325	-0.9660766
	-0.00190484	-0.0007803676	0.01640812	0.0002742478	-0.02137325	-0.9660766	-0.04577201	-0.01538661
2.7e+08	-0.04671772	-0.01365485	-0.07726842	-0.9625718	0.01610308	-0.001427075	-0.002081111	-0.0006616855
	-0.07726842	-0.9625718	-0.04667443	-0.01234176	-0.002081363	-0.0006609395	0.01617684	-0.0006408813
	0.01610308	-0.001427075	-0.002081363	-0.0006609395	-0.04694686	-0.01348936	-0.07972541	-0.9623053
	-0.002081111	-0.0006616855	0.01617684	-0.0006408813	-0.07972541	-0.9623053	-0.04690378	-0.01222913
2.8e+08	-0.0475508	-0.01047052	-0.1351624	-0.955466	0.01570305	-0.002323339	-0.002248941	-0.0005175216
	-0.1351624	-0.955466	-0.04742569	-0.009119624	-0.002249141	-0.0005166916	0.01582653	-0.00151768
	0.01570305	-0.002323339	-0.002249141	-0.0005166916	-0.04777054	-0.01028358	-0.1376838	-0.9550374
	-0.002248941	-0.0005175216	0.01582653	-0.00151768	-0.1376838	-0.9550374	-0.0476488	-0.008987288
2.9e+08	-0.04799758	-0.007237941	-0.1924677	-0.9449064	0.01518808	-0.003160652	-0.002404609	-0.0003487611
	-0.1924677	-0.9449064	-0.04778703	-0.005859706	-0.002404745	-0.0003478492	0.01536304	-0.002341809
	0.01518808	-0.003160652	-0.002404745	-0.0003478492	-0.04820535	-0.007030771	-0.1950426	-0.9443073
	-0.002404609	-0.0003487611	0.01536304	-0.002341809	-0.1950426	-0.9443073	-0.04800149	-0.005708485
3e+08	-0.04805673	-0.004003669	-0.2489821	-0.9309383	0.01456655	-0.003925188	-0.00254455	-0.0001568764
	-0.2489821	-0.9309383	-0.04775852	-0.002609207	-0.002544608	-0.0001558869	0.01479392	-0.003099778
	0.01456655	-0.003925188	-0.002544608	-0.0001558869	-0.04825016	-0.003777805	-0.2515987	-0.9301608
	-0.00254455	-0.0001568764	0.01479392	-0.003099778	-0.2515987	-0.9301608	-0.04796207	-0.002440229
3.1e+08	-0.04773246	-0.0008138672	-0.3045064	-0.9136184	0.01384846	-0.004604282	-0.002665454	5.610828e-05
	-0.3045064	-0.9136184	-0.04734589	0.0005852393	-0.002665422	5.716915e-05	0.01412829	-0.003779143
	0.01384846	-0.004604282	-0.002665422	5.716915e-05	-0.04790938	-0.0005711655	-0.3071522	-0.9126555
	-0.002665454	5.610827e-05	0.01412829	-0.003779143	-0.3071522	-0.9126555	-0.0475364	0.0007705469
3.2e+08	-0.04703444	0.002286294	-0.3588452	-0.8930143	0.01304528	-0.005186608	-0.002764351	0.0002876681
	-0.3588452	-0.8930143	-0.04656035	0.003678201	-0.002764218	0.0002887924	0.01337669	-0.004368679
	0.01304528	-0.005186608	-0.002764218	0.0002887924	-0.04719293	0.002543692	-0.361507	-0.8918601
	-0.002764351	0.0002876681	0.01337669	-0.004368679	-0.361507	-0.8918601	-0.04673592	0.003878139
3.3e+08	-0.04597757	0.005253276	-0.4118074	-0.869205	0.01216979	-0.005662346	-0.002838697	0.000534844
	-0.4118074	-0.869205	-0.04541845	0.006626091	-0.002838452	0.0005360221	0.01255095	-0.004858543
	0.01216979	-0.005662346	-0.002838452	0.0005360221	-0.04611599	0.005522976	-0.4144716	-0.8678541
	-0.002838697	0.000534844	0.01255095	-0.004858543	-0.4144716	-0.8678541	-0.04557738	0.006838714
3.4e+08	-0.04458178	0.008045774	-0.4632069	-0.8422798	0.01123588	-0.006023333	-0.002886432	0.0007943218
	-0.4632069	-0.8422798	-0.04394176	0.009387783	-0.002886067	0.0007955424	0.01166398	-0.005240415
	0.01123588	-0.006023333	-0.002886067	0.0007955424	-0.04469881	0.008325167	-0.4658592	-0.840728
	-0.002886432	0.0007943218	0.01166398	-0.005240415	-0.4658592	-0.840728	-0.04408262	0.009610928
3.5e+08	-0.04287168	0.01062527	-0.5128629	-0.8123389	0.01025831	-0.006263175	-0.002906037	0.00106252
	-0.5128629	-0.8123389	-0.04215652	0.01192516	-0.002905543	0.00106377	0.01072964	-0.005507618
	0.01025831	-0.006263175	-0.002905543	0.00106377	-0.04296635	0.01091157	-0.5154886	-0.8105831
	-0.002906037	0.00106252	0.01072964	-0.005507618	-0.5154886	-0.8105831	-0.04227819	0.01215648
3.6e+08	-0.04087622	0.01295656	-0.5606009	-0.7794925	0.00925254	-0.006377349	-0.002896564	0.001335685
	-0.5606009	-0.7794925	-0.04009328	0.01420364	-0.002895934	0.001336952	0.009762455	-0.005655211
	0.00925254	-0.006377349	-0.002895934	0.001336952	-0.04094793	0.01324686	-0.5631848	-0.7775304
	-0.002896564	0.001335685	0.009762455	-0.005655211	-0.5631848	-0.7775304	-0.04019492	0.01444066
3.7e+08	-0.03862822	0.01500824	-0.6062527	-0.7438607	0.008234471	-0.006363269	-0.002857652	0.001609994
	-0.6062527	-0.7438607	-0.03778639	0.01619267	-0.002856883	0.001611263	0.008777467	-0.005680071
	0.008234471	-0.006363269	-0.002856883	0.001611263	-0.03867675	0.01529954	-0.6087793	-0.7416913
	-0.002857652	0.001609994	0.008777467	-0.005680071	-0.6087793	-0.7416913	-0.0378675	0.0164328
3.8e+08	-0.03616393	0.01675309	-0.6496573	-0.7055733	0.007220212	-0.006220335	-0.002789531	0.001881649
	-0.6496573	-0.7055733	-0.03527351	0.01786611	-0.00278862	0.001882906	0.007789988	-0.005580935
	0.007220212	-0.006220335	-0.00278862	0.001882906	-0.03618945	0.01704237	-0.6521108	-0.7031965
	-0.002789531	0.001881649	0.007789988	-0.005580935	-0.6521108	-0.7031965	-0.03533394	0.01810669
3.9e+08	-0.03352248	0.0181685	-0.6906612	-0.6647692	0.006225838	-0.005949939	-0.002692996	0.002146983
	-0.6906612	-0.6647692	-0.03259507	0.01920257	-0.002691943	0.002148212	0.006815376	-0.005358422
	0.006225838	-0.005949939	-0.002691943	0.002148212	-0.03352557	0.01845275	-0.6930257	-0.6621864
	-0.002692996	0.002146983	0.006815376	-0.005358422	-0.6930257	-0.6621864	-0.03263499	0.01944094
4e+08	-0.0307453	0.01923669	-0.7291194	-0.6215965	0.005267148	-0.005555458	-0.002569378	0.002402546
	-0.7291194	-0.6215965	-0.02979364	0.02018576	-0.002568184	0.002403733	0.005868811	-0.005015034
	0.005267148	-0.005555458	-0.002568184	0.002403733	-0.03072693	0.01951299	-0.7313788	-0.6188098
	-0.002569378	0.002402546	0.005868811	-0.005015034	-0.7313788	-0.6188098	-0.02981359	0.02041928
4.1e+08	-0.02787556	0.01994502	-0.7648953	-0.5762112	0.004359423	-0.005042204	-0.002420487	0.002645193
	-0.7648953	-0.5762112	-0.02691333	0.02080461	-0.002419155	0.002646323	0.004965064	-0.004555123
	0.004359423	-0.005042204	-0.002419155	0.002646323	-0.02783708	0.02021056	-0.7670335	-0.5732242
	-0.002420487	0.002645193	0.004965064	-0.004555123	-0.7670335	-0.5732242	-0.02691419	0.02103072
4.2e+08	-0.02495752	0.0202861	-0.7978617	-0.5287777	0.00351719	-0.004417359	-0.002248551	0.002872154
	-0.7978617	-0.5287777	-0.02399916	0.02105349	-0.002247086	0.002873215	0.004118276	-0.003984831
	0.00351719	-0.004417359	-0.002247086	0.002873215	-0.02490068	0.02053824	-0.7998625	-0.5255951
	-0.002248551	0.002872154	0.004118276	-0.003984831	-0.7998625	-0.5255951	-0.02398215	0.02126975
4.3e+08	-0.02203594	0.02025789	-0.827901	-0.4794678	0.002753995	-0.003689869	-0.002056136	0.0030811
	-0.827901	-0.4794678	-0.0210964	0.02093222	-0.002054545	0.003082078	0.003341741	-0.003312006
	0.002753995	-0.003689869	-0.002054545	0.003082078	-0.02196279	0.02049422	-0.8297486	-0.4760955
	-0.002056136	0.0030811	0.003341741	-0.003312006	-0.8297486	-0.4760955	-0.02106303	0.02113633
4.4e+08	-0.01915537	0.0198637	-0.8549059	-0.4284602	0.002082189	-0.002870314	-0.001846064	0.003270182
	-0.8549059	-0.4284602	-0.01824988	0.02044604	-0.001844355	0.003271066	0.002647697	-0.002546091
	0.002082189	-0.002870314	-0.001844355	0.003271066	-0.01906832	0.02008208	-0.8565845	-0.4249054
	-0.001846064	0.003270182	0.002647697	-0.002546091	-0.8565845	-0.4249054	-0.01820198	0.02063593
4.5e+08	-0.01635957	0.01911214	-0.8787799	-0.3759401	0.001512731	-0.00197076	-0.001621318	0.00343806
	-0.8787799	-0.3759401	-0.01550341	0.01960557	-0.001619498	0.003438842	0.00204714	-0.001697988
	0.001512731	-0.00197076	-0.001619498	0.003438842	-0.0162613	0.01931074	-0.8802741	-0.3722112
	-0.001621318	0.00343806	0.00204714	-0.001697988	-0.8802741	-0.3722112	-0.01544307	0.01977939
4.6e+08	-0.0136909	0.01801698	-0.8994374	-0.3220984	0.001055007	-0.001004571	-0.001384947	0.003583919
	-0.8994374	-0.3220984	-0.01289908	0.0184266	-0.001383026	0.003584589	0.001549643	-0.0007798975
	0.001055007	-0.001004571	-0.001383026	0.003584589	-0.01358429	0.01819435	-0.9007321	-0.3182049
	-0.001384947	0.003583919	0.001549643	-0.0007798975	-0.9007321	-0.3182049	-0.0128286	0.0185828
4.7e+08	-0.01118965	0.01659694	-0.9168044	-0.2671312	0.000716671	1.378459e-05	-0.001139976	0.003707457
	-0.9168044	-0.2671312	-0.0104767	0.01692982	-0.001137963	0.003708009	0.001163203	0.0001948659
	0.000716671	1.37846e-05	-0.001137963	0.003708009	-0.01107782	0.01675196	-0.9178852	-0.2630839
	-0.001139976	0.003707457	0.001163203	0.0001948659	-0.9178852	-0.2630839	-0.01039862	0.01706714
4.8e+08	-0.008893522	0.01487538	-0.9308189	-0.211239	0.0005035202	0.001068963	-0.0008893074	0.003808866
	-0.9308189	-0.211239	-0.008273219	0.01514057	-0.0008872126	0.003809293	0.0008941073	0.001212072
	0.0005035202	0.001068963	-0.0008872126	0.003809293	-0.008779742	0.01500735	-0.9316718	-0.2070497
	-0.0008893074	0.003808866	0.0008941073	0.001212072	-0.9316718	-0.2070497	-0.008190212	0.01525805
4.9e+08	-0.006837074	0.01287998	-0.9414311	-0.1546261	0.0004193865	0.002144979	-0.0006356443	0.003888789
	-0.9414311	-0.1546261	-0.006322159	0.01308838	-0.0006334767	0.003889088	0.0007468279	0.002256796
	0.0004193865	0.002144979	-0.0006334767	0.003889088	-0.006724703	0.01298862	-0.9420427	-0.1503079
	-0.0006356443	0.003888789	0.0007468279	0.002256796	-0.9420427	-0.1503079	-0.00623704	0.01318543
5e+08	-0.005051234	0.01064233	-0.9486037	-0.09749963	0.0004660664	0.003225456	-0.0003814105	0.003948266
