!$
! Info: Touchstone file created by Circ.  Input file=Tx_6in_Rx_85ohms_TxVia_10mils_RxVia_20mils.circ
!$
# Hz S RI R 50
0	0.004931799	4.425585e-26	1.11113e-10	1.078564e-28	4.554345e-05	5.2039e-24	-5.079759e-09	6.222891e-25
	1.11125e-10	1.080475e-28	0.004932474	6.055593e-26	5.486154e-10	2.709182e-27	4.362913e-05	6.967253e-24
	4.424204e-05	5.070531e-24	5.485535e-10	2.716395e-27	0.004947171	4.636379e-26	-9.216944e-09	1.142667e-24
	-5.07887e-09	6.221803e-25	4.508672e-05	7.170977e-24	-9.21714e-09	1.142691e-24	0.004938103	5.777938e-26
1e+07	0.006556067	-0.005419295	5.124738e-11	-1.8144e-11	0.0001599042	0.001156106	-8.022062e-09	1.673655e-08
	5.124741e-11	-1.814429e-11	0.006571774	-0.005422319	6.740686e-10	1.105806e-09	0.0001579264	0.001158708
	0.0001598603	0.001156109	6.740686e-10	1.105807e-09	0.006591638	-0.005408511	-9.418301e-09	1.643742e-08
	-8.022062e-09	1.673655e-08	0.0001579587	0.001158697	-9.418301e-09	1.643742e-08	0.006567774	-0.005417963
2e+07	0.007223347	-0.01247282	4.507438e-11	-1.911427e-11	0.0004057811	0.002257224	-7.422703e-09	1.318534e-08
	4.507418e-11	-1.911439e-11	0.007220902	-0.01248441	8.18736e-10	1.962331e-09	0.0003982787	0.002263313
	0.0004057716	0.002257252	8.187361e-10	1.962331e-09	0.007255154	-0.01245935	-9.104731e-09	1.355141e-08
	-7.422703e-09	1.318534e-08	0.0003982755	0.002263292	-9.104731e-09	1.355141e-08	0.007220199	-0.01246958
3e+07	0.006414768	-0.02021319	6.04635e-11	-4.395016e-11	0.0007833099	0.003307219	-4.485846e-09	1.273137e-08
	6.046346e-11	-4.395012e-11	0.00638621	-0.02022514	8.53077e-10	2.779455e-09	0.0007670026	0.003318345
	0.0007833107	0.003307223	8.53077e-10	2.779455e-09	0.006443632	-0.02019235	-5.776555e-09	1.375938e-08
	-4.485846e-09	1.273137e-08	0.0007669975	0.003318342	-5.776555e-09	1.375938e-08	0.006388424	-0.02020313
4e+07	0.004372922	-0.02797258	6.581267e-11	-7.078509e-11	0.001286654	0.004292578	-2.031768e-09	1.19356e-08
	6.581266e-11	-7.078513e-11	0.004310557	-0.02797862	8.40325e-10	3.617862e-09	0.001258575	0.00431087
	0.00128665	0.004292576	8.40325e-10	3.617862e-09	0.004399175	-0.02794332	-3.039769e-09	1.323742e-08
	-2.031768e-09	1.19356e-08	0.001258575	0.004310871	-3.039769e-09	1.323742e-08	0.004315075	-0.02795223
5e+07	0.001219138	-0.03550091	7.2461e-11	-9.051487e-11	0.001906182	0.00519846	-4.392346e-10	1.119939e-08
	7.246096e-11	-9.051489e-11	0.001116161	-0.0354938	8.064447e-10	4.465839e-09	0.001863806	0.005226643
	0.00190618	0.005198459	8.064446e-10	4.465839e-09	0.001242883	-0.03546265	-1.347509e-09	1.26111e-08
	-4.392346e-10	1.119939e-08	0.001863806	0.005226643	-1.347509e-09	1.26111e-08	0.001120989	-0.03546376
6e+07	-0.002949091	-0.04262308	9.486756e-11	-9.80765e-11	0.002630011	0.006011189	2.302905e-10	1.095964e-08
	9.486766e-11	-9.807648e-11	-0.003098285	-0.04259452	7.643622e-10	5.310405e-09	0.002571374	0.006052453
	0.002630016	0.006011186	7.643622e-10	5.310405e-09	-0.002927887	-0.04257532	-7.699997e-10	1.229803e-08
	2.302905e-10	1.095964e-08	0.002571371	0.006052454	-7.699997e-10	1.229803e-08	-0.003094274	-0.04256053
7e+07	-0.008036143	-0.04919832	1.927967e-10	-2.96362e-11	0.003444512	0.006718731	-9.208074e-10	1.16025e-08
	1.92797e-10	-2.963627e-11	-0.008235735	-0.04913908	7.723926e-10	6.141044e-09	0.003368252	0.006776611
	0.003444523	0.006718723	7.723926e-10	6.141044e-09	-0.008017551	-0.04914051	-1.961412e-09	1.225784e-08
	-9.208074e-10	1.16025e-08	0.003368247	0.006776614	-1.961412e-09	1.225784e-08	-0.008233252	-0.04910104
8e+07	-0.01394171	-0.05510882	3.640618e-10	-1.483525e-09	0.004334621	0.007311038	-7.143352e-09	8.982779e-09
	3.640622e-10	-1.483526e-09	-0.01419432	-0.05500896	8.461132e-10	7.245174e-09	0.004239994	0.007389325
	0.004334632	0.007311027	8.461132e-10	7.245174e-09	-0.01392578	-0.05504032	-6.046238e-09	9.778516e-09
	-7.143352e-09	8.982779e-09	0.00423999	0.00738933	-6.046238e-09	9.778516e-09	-0.01419436	-0.0549669
9e+07	-0.02055914	-0.0602559	1.779571e-10	-2.753227e-10	0.005284241	0.00778044	-4.004949e-09	3.438296e-10
	1.779574e-10	-2.753232e-10	-0.02086569	-0.06010498	5.475063e-10	8.223907e-09	0.005171161	0.007883095
	0.005284247	0.00778043	5.475063e-10	8.223907e-09	-0.0205458	-0.06017594	-4.756162e-09	2.415782e-09
	-4.004949e-09	3.438296e-10	0.005171158	0.007883099	-4.756162e-09	2.415782e-09	-0.02086962	-0.06005857
1e+08	-0.02777665	-0.06456029	1.323482e-10	-2.350398e-10	0.006277558	0.0081232	-2.828831e-10	-1.17436e-10
	1.323482e-10	-2.350398e-10	-0.02813629	-0.06434745	3.706289e-10	9.066051e-09	0.006146624	0.008254261
	0.006277557	0.0081232	3.706289e-10	9.066051e-09	-0.02776564	-0.06446783	-8.441692e-10	1.06849e-09
	-2.828831e-10	-1.17436e-10	0.006146624	0.008254261	-8.441692e-10	1.06849e-09	-0.02814564	-0.06429591
1.1e+08	-0.03548015	-0.06795566	1.472311e-10	-2.758251e-10	0.007302452	0.008327546	-3.272488e-10	-8.771875e-11
	1.472311e-10	-2.758251e-10	-0.03589044	-0.06766958	2.786001e-10	1.008593e-08	0.007154512	0.008490598
	0.007302452	0.008327546	2.786001e-10	1.008593e-08	-0.03546948	-0.06785056	-9.44498e-10	1.308192e-09
	-3.272488e-10	-8.771875e-11	0.007154512	0.008490598	-9.44498e-10	1.308192e-09	-0.0359053	-0.0676106
1.2e+08	-0.04353759	-0.0703819	1.608068e-10	-3.205684e-10	0.008330494	0.008393928	-3.685558e-10	-4.942138e-11
	1.608068e-10	-3.205684e-10	-0.04399388	-0.07001293	2.010548e-10	1.11415e-08	0.008167749	0.008593142
	0.008330494	0.008393928	2.010548e-10	1.11415e-08	-0.04352775	-0.07026411	-1.028575e-09	1.571606e-09
	-3.685558e-10	-4.942138e-11	0.008167749	0.008593142	-1.028575e-09	1.571606e-09	-0.04401425	-0.06994503
1.3e+08	-0.05182227	-0.07181108	1.721832e-10	-3.704935e-10	0.009345426	0.008326435	-4.053891e-10	-2.907019e-12
	1.721832e-10	-3.704935e-10	-0.05231834	-0.07135001	1.45419e-10	1.223048e-08	0.009170752	0.008565529
	0.009345425	0.008326435	1.45419e-10	1.223048e-08	-0.05181337	-0.07167993	-1.092424e-09	1.855084e-09
	-4.053891e-10	-2.907019e-12	0.009170752	0.008565529	-1.092424e-09	1.855084e-09	-0.05234407	-0.07127174
1.4e+08	-0.06020617	-0.07222939	1.804322e-10	-4.262619e-10	0.01033068	0.008129511	-4.363283e-10	5.094528e-11
	1.804322e-10	-4.262619e-10	-0.06073436	-0.07166779	1.184057e-10	1.334981e-08	0.01014755	0.008411723
	0.01033068	0.008129511	1.184057e-10	1.334981e-08	-0.06019795	-0.07208399	-1.13248e-09	2.154795e-09
	-4.363283e-10	5.094528e-11	0.01014755	0.008411723	-1.13248e-09	2.154795e-09	-0.06076501	-0.0715777
1.5e+08	-0.0685626	-0.07163863	1.834369e-10	-4.870452e-10	0.01127042	0.007809381	-4.6019e-10	1.117425e-10
	1.834369e-10	-4.870452e-10	-0.06911387	-0.0709691	1.261249e-10	1.44954e-08	0.01108286	0.008137417
	0.01127042	0.007809381	1.261249e-10	1.44954e-08	-0.06855443	-0.07147805	-1.146839e-09	2.467681e-09
	-4.6019e-10	1.117425e-10	0.01108286	0.008137417	-1.146839e-09	2.467681e-09	-0.06914871	-0.07086579
1.6e+08	-0.07676784	-0.07005583	1.79719e-10	-5.522182e-10	0.01214991	0.007374047	-4.757638e-10	1.784544e-10
	1.79719e-10	-5.522182e-10	-0.07733192	-0.06927219	1.739712e-10	1.566229e-08	0.01196239	0.007750021
	0.01214991	0.007374047	1.739712e-10	1.566229e-08	-0.07675879	-0.0698792	-1.133559e-09	2.789862e-09
	-4.757638e-10	1.784544e-10	0.01196239	0.007750021	-1.133559e-09	2.789862e-09	-0.07736989	-0.06915436
1.7e+08	-0.08470275	-0.06751249	1.678649e-10	-6.207419e-10	0.01295567	0.006833141	-4.819945e-10	2.498608e-10
	1.678649e-10	-6.207419e-10	-0.08526826	-0.06661004	2.665342e-10	1.684466e-08	0.01277309	0.00725851
	0.01295567	0.006833141	2.665342e-10	1.684466e-08	-0.0846916	-0.06731914	-1.091309e-09	3.11734e-09
	-4.819945e-10	2.498608e-10	0.01277309	0.00725851	-1.091309e-09	3.11734e-09	-0.08530808	-0.06647656
1.8e+08	-0.09225422	-0.06405383	1.466352e-10	-6.911805e-10	0.01367574	0.006197726	-4.780115e-10	3.245745e-10
	1.466352e-10	-6.911805e-10	-0.09280889	-0.06302944	4.074969e-10	1.803598e-08	0.01350327	0.006673234
	0.01367574	0.006197726	4.074969e-10	1.803598e-08	-0.09223954	-0.06384326	-1.019338e-09	3.446087e-09
	-4.780115e-10	3.245745e-10	0.01350327	0.006673234	-1.019338e-09	3.446087e-09	-0.09284903	-0.0628794
1.9e+08	-0.09931654	-0.0597377	1.150674e-10	-7.617401e-10	0.01429972	0.005480082	-4.631546e-10	4.010711e-10
	1.150674e-10	-7.617401e-10	-0.09984745	-0.05859006	5.995397e-10	1.922911e-08	0.01414278	0.006005708
	0.01429972	0.005480082	5.995397e-10	1.922911e-08	-0.09929679	-0.05950969	-9.17424e-10	3.772113e-09
	-4.631546e-10	4.010711e-10	0.01414278	0.006005708	-9.17424e-10	3.772113e-09	-0.0998862	-0.05842279
2e+08	-0.1057927	-0.05463357	7.256878e-11	-8.303321e-10	0.01481896	0.004693474	-4.369937e-10	4.777214e-10
	7.256878e-11	-8.303321e-10	-0.1062865	-0.05336321	8.442573e-10	2.041647e-08	0.01468304	0.005268396
	0.01481896	0.004693474	8.442573e-10	2.041647e-08	-0.1057662	-0.05438815	-7.858264e-10	4.091528e-09
	-4.369937e-10	4.777214e-10	0.01468304	0.005268396	-7.858264e-10	4.091528e-09	-0.106322	-0.05317833
2.1e+08	-0.1115953	-0.04882124	1.899349e-11	-8.946573e-10	0.01522654	0.00385193	-3.993437e-10	5.528275e-10
	1.899349e-11	-8.946573e-10	-0.1120386	-0.04743071	1.142093e-09	2.159018e-08	0.01511714	0.0044745
	0.01522654	0.00385193	1.142093e-09	2.159018e-08	-0.1115604	-0.04855873	-6.252284e-10	4.40057e-09
	-3.993437e-10	5.528275e-10	0.01511714	0.0044745	-6.252284e-10	4.40057e-09	-0.1120689	-0.04722811
2.2e+08	-0.116648	-0.04238962	-4.530136e-11	-9.523081e-10	0.01551737	0.002970011	-3.502733e-10	6.246603e-10
	-4.530136e-11	-9.523081e-10	-0.1170273	-0.04088342	1.492293e-09	2.274221e-08	0.01543983	0.003637753
	0.01551737	0.002970011	1.492293e-09	2.274221e-08	-0.116603	-0.04211058	-4.366898e-10	4.695633e-09
	-3.502733e-10	6.246603e-10	0.01543983	0.003637753	-4.366898e-10	4.695633e-09	-0.1170505	-0.04066332
2.3e+08	-0.1208856	-0.03543527	-1.194236e-10	-1.000885e-09	0.01568815	0.002062604	-2.901075e-10	6.914978e-10
	-1.194236e-10	-1.000885e-09	-0.1211882	-0.03381992	1.892887e-09	2.38646e-08	0.01564757	0.002772222
	0.01568815	0.002062604	1.892887e-09	2.38646e-08	-0.1208288	-0.03514056	-2.216061e-10	4.973266e-09
	-2.901075e-10	6.914978e-10	0.01564757	0.002772222	-2.216061e-10	4.973266e-09	-0.1212022	-0.03358285
2.4e+08	-0.1242553	-0.02806107	-2.019425e-10	-1.038115e-09	0.01573736	0.001144714	-2.194248e-10	7.516629e-10
	-2.019425e-10	-1.038115e-09	-0.124469	-0.02634505	2.340689e-09	2.494958e-08	0.01573847	0.00189212
	0.01573736	0.001144714	2.340689e-09	2.494958e-08	-0.1241853	-0.0277518	1.831879e-11	5.230175e-09
	-2.194248e-10	7.516629e-10	0.01573847	0.00189212	1.831879e-11	5.230175e-09	-0.1244719	-0.02609184
2.5e+08	-0.1267171	-0.02037471	-2.909112e-10	-1.061981e-09	0.01566527	0.000231274	-1.390477e-10	8.035601e-10
	-2.909112e-10	-1.061981e-09	-0.1268307	-0.01856836	2.831329e-09	2.598981e-08	0.0157123	0.001011637
	0.01566527	0.0002312741	2.831329e-09	2.598981e-08	-0.1266323	-0.02005224	2.810897e-10	5.463214e-09
	-1.390477e-10	8.035601e-10	0.0157123	0.001011637	2.810897e-10	5.463214e-09	-0.1268206	-0.01830014
2.6e+08	-0.1282437	-0.01248724	-3.839198e-10	-1.07083e-09	0.01547384	-0.0006630344	-5.00296e-11	8.457098e-10
	-3.839198e-10	-1.07083e-09	-0.1282474	-0.01060262	3.359307e-09	2.69785e-08	0.0155704	0.0001447718
	0.01547384	-0.0006630344	3.359307e-09	2.69785e-08	-0.1281429	-0.01215316	5.644206e-10	5.669377e-09
	-5.00296e-11	8.457098e-10	0.0155704	0.0001447718	5.644206e-10	5.669377e-09	-0.1282226	-0.01032082
2.7e+08	-0.1288213	-0.004511567	-4.781722e-10	-1.063485e-09	0.01516668	-0.001523949	4.63645e-11	8.767804e-10
	-4.781722e-10	-1.063485e-09	-0.1287068	-0.002562306	3.918079e-09	2.790962e-08	0.01531569	-0.0006948164
	0.01516668	-0.001523949	3.918079e-09	2.790962e-08	-0.1287034	-0.004167694	8.657235e-10	5.845797e-09
	4.63645e-11	8.767804e-10	0.01531569	-0.0006948164	8.657235e-10	5.845797e-09	-0.1286658	-0.002268648
2.8e+08	-0.1284492	0.003439023	-5.705886e-10	-1.039325e-09	0.01474898	-0.002337787	1.486804e-10	8.956169e-10
	-5.705886e-10	-1.039325e-09	-0.12821	0.005437924	4.500163e-09	2.877804e-08	0.01495255	-0.001493952
	0.01474898	-0.002337787	4.500163e-09	2.877804e-08	-0.1283133	0.003790683	1.182087e-09	5.989752e-09
	1.486804e-10	8.956169e-10	0.01495255	-0.001493952	1.182087e-09	5.989752e-09	-0.1281514	0.005741488
2.9e+08	-0.1271398	0.01125231	-6.579242e-10	-9.983519e-10	0.01422746	-0.003091589	2.553012e-10	9.012656e-10
	-6.579242e-10	-9.983519e-10	-0.1267714	0.01328473	5.097262e-09	2.957965e-08	0.01448681	-0.00224008
	0.01422746	-0.003091589	5.097262e-09	2.957965e-08	-0.1269854	0.01160959	1.510249e-09	6.098691e-09
	2.553012e-10	9.012656e-10	0.01448681	-0.00224008	1.510249e-09	6.098691e-09	-0.1266942	0.01359602
3e+08	-0.1249187	0.01881862	-7.36905e-10	-9.412291e-10	0.01361022	-0.003773267	3.644764e-10	8.929952e-10
	-7.36905e-10	-9.412291e-10	-0.1244187	0.02086757	5.700423e-09	3.03115e-08	0.01392564	-0.002921393
	0.01361022	-0.003773267	5.700423e-09	3.03115e-08	-0.1247453	0.01917921	1.846561e-09	6.170262e-09
	3.644764e-10	8.929952e-10	0.01392564	-0.002921393	1.846561e-09	6.170262e-09	-0.1243221	0.02118421
3.1e+08	-0.1218236	0.02603217	-8.02788e-10	-8.672787e-10	0.01290672	-0.004371737	4.743507e-10	8.70259e-10
	-8.02788e-10	-8.672787e-10	-0.1211919	0.0280801	6.300295e-09	3.097257e-08	0.01327749	-0.003526961
	0.01290672	-0.004371737	6.300295e-09	3.097257e-08	-0.1216312	0.02639369	2.188565e-09	6.204391e-09
	4.743507e-10	8.70259e-10	0.01327749	-0.003526961	2.188565e-09	6.204391e-09	-0.1210754	0.02839957
3.2e+08	-0.1179045	0.03279249	-8.499349e-10	-7.770989e-10	0.01212762	-0.00487705	5.829673e-10	8.327565e-10
	-8.499349e-10	-7.770989e-10	-0.1171434	0.0348216	6.887585e-09	3.156302e-08	0.01255201	-0.004046853
	0.01212762	-0.00487705	6.887585e-09	3.156302e-08	-0.1176934	0.03315249	2.534525e-09	6.200686e-09
	5.829673e-10	8.327565e-10	0.01255201	-0.004046853	2.534525e-09	6.200686e-09	-0.1170069	0.03514125
3.3e+08	-0.1132224	0.03900568	-8.785458e-10	-6.778765e-10	0.01128472	-0.005280518	6.883587e-10	7.806176e-10
	-8.785458e-10	-6.778765e-10	-0.1123368	0.04099821	7.452374e-09	3.208237e-08	0.01175993	-0.004472258
	0.01128472	-0.005280518	7.452374e-09	3.208237e-08	-0.1129933	0.03936169	2.876736e-09	6.153128e-09
	6.883587e-10	7.806176e-10	0.01175993	-0.004472258	2.876736e-09	6.153128e-09	-0.1121805	0.04131535
3.4e+08	-0.107849	0.04458567	-8.868021e-10	-5.729958e-10	0.01039077	-0.005574838	7.885678e-10	7.141281e-10
	-8.868021e-10	-5.729958e-10	-0.1068462	0.04652424	7.984798e-09	3.25329e-08	0.01091298	-0.004795605
	0.01039077	-0.005574838	7.984798e-09	3.25329e-08	-0.1076028	0.04493523	3.20962e-09	6.06055e-09
	7.885678e-10	7.141281e-10	0.01091298	-0.004795605	3.20962e-09	6.06055e-09	-0.1066708	0.0468362
3.5e+08	-0.1018657	0.04945534	-8.735649e-10	-4.662014e-10	0.009459394	-0.005754205	8.816769e-10	6.33833e-10
	-8.735649e-10	-4.662014e-10	-0.1007553	0.05132331	8.475239e-09	3.291829e-08	0.01002378	-0.005010678
	0.009459394	-0.005754205	8.475239e-09	3.291829e-08	-0.1016037	0.04979606	3.527144e-09	5.92245e-09
	8.816769e-10	6.33833e-10	0.01002378	-0.005010678	3.527144e-09	5.92245e-09	-0.1005618	0.05162743
3.6e+08	-0.09536226	0.05354757	-8.384369e-10	-3.61446e-10	0.008504911	-0.00581442	9.658379e-10	5.405265e-10
	-8.384369e-10	-3.61446e-10	-0.09415639	0.05532941	8.914527e-09	3.324355e-08	0.009105672	-0.005112724
	0.008504911	-0.00581442	8.914527e-09	3.324355e-08	-0.09508606	0.05387721	3.822878e-09	5.739115e-09
	9.658379e-10	5.405265e-10	0.009105672	-0.005112724	3.822878e-09	5.739115e-09	-0.09394612	0.05562313
3.7e+08	-0.0884358	0.05680627	-7.818016e-10	-2.627334e-10	0.007542161	-0.005752991	1.039305e-09	4.352405e-10
	-7.818016e-10	-2.627334e-10	-0.08714883	0.05848783	9.294124e-09	3.351499e-08	0.008172599	-0.005098562
	0.007542161	-0.005752991	9.294124e-09	3.351499e-08	-0.08814742	0.05712274	4.090098e-09	5.511743e-09
	1.039305e-09	4.352405e-10	0.008172599	-0.005098562	4.090098e-09	5.511743e-09	-0.08692357	0.05876873
3.8e+08	-0.08118964	0.0591871	-7.048232e-10	-1.739518e-10	0.006586323	-0.005569214	1.100461e-09	3.19229e-10
	-7.048232e-10	-1.739518e-10	-0.07983803	0.060756	9.606309e-09	3.374013e-08	0.007238923	-0.004966667
	0.006586323	-0.005569214	9.606309e-09	3.374013e-08	-0.08089136	0.05948857	4.321918e-09	5.242559e-09
	1.100461e-09	3.19229e-10	0.007238923	-0.004966667	4.321918e-09	5.242559e-09	-0.07959987	0.06102186
3.9e+08	-0.07373178	0.06065828	-6.094099e-10	-9.871135e-11	0.00565271	-0.005264241	1.147847e-09	1.939495e-10
	-6.094099e-10	-9.871135e-11	-0.07233386	0.06210414	9.844335e-09	3.392756e-08	0.006319242	-0.004717255
	0.00565271	-0.005264241	9.844335e-09	3.392756e-08	-0.07342619	0.06094314	4.511459e-09	4.934905e-09
	1.147847e-09	1.939495e-10	0.006319242	-0.004717255	4.511459e-09	4.934905e-09	-0.07208525	0.06235299
4e+08	-0.06617345	0.06120104	-4.981425e-10	-4.01905e-11	0.004756547	-0.004841125	1.180181e-09	6.104161e-11
	-4.981425e-10	-4.01905e-11	-0.06474921	0.06251581	1.000258e-08	3.40868e-08	0.005428184	-0.004352337
	0.004756547	-0.004841125	1.000258e-08	3.40868e-08	-0.06586339	0.06146802	4.652037e-09	4.5933e-09
	1.180181e-09	6.104161e-11	0.005428184	-0.004352337	4.652037e-09	4.5933e-09	-0.06449289	0.06274599
4.1e+08	-0.05862761	0.06081004	-3.741672e-10	-1.002633e-12	0.003912733	-0.004304842	1.196382e-09	-7.76959e-11
	-3.741672e-10	-1.002633e-12	-0.05719834	0.06198825	1.007667e-08	3.422818e-08	0.004580184	-0.003875753
	0.003912733	-0.004304842	1.007667e-08	3.422818e-08	-0.05831613	0.06105821	4.737385e-09	4.223463e-09
	1.196382e-09	-7.76959e-11	0.004580184	-0.003875753	4.737385e-09	4.223463e-09	-0.05693732	0.06219842
4.2e+08	-0.05120728	0.05949358	-2.410606e-10	1.691037e-11	0.003135593	-0.003662275	1.19558e-09	-2.203295e-10
	-2.410606e-10	1.691037e-11	-0.0497953	0.06053249	1.006359e-08	3.436265e-08	0.003789249	-0.003293181
	0.003135593	-0.003662275	1.006359e-08	3.436265e-08	-0.05089762	0.0597224	4.761881e-09	3.832302e-09
	1.19558e-09	-2.203295e-10	0.003789249	-0.003293181	4.761881e-09	3.832302e-09	-0.04953282	0.06072172
4.3e+08	-0.04402394	0.05727357	-1.026749e-10	1.235186e-11	0.00243862	-0.002922172	1.177134e-09	-3.648155e-10
	-1.026749e-10	1.235186e-11	-0.04265221	0.05817339	9.96172e-09	3.45016e-08	0.003068713	-0.002612106
	0.00243862	-0.002922172	9.96172e-09	3.45016e-08	-0.04371945	0.05748291	4.720788e-09	3.42784e-09
	1.177134e-09	-3.648155e-10	0.003068713	-0.002612106	4.720788e-09	3.42784e-09	-0.04239167	0.05834115
4.4e+08	-0.03718585	0.05418536	3.703285e-11	-1.509508e-11	0.001834217	-0.002095061	1.140638e-09	-5.090247e-10
	3.703285e-11	-1.509508e-11	-0.03587759	0.05494935	9.770952e-09	3.465664e-08	0.002430988	-0.001841762
	0.001834217	-0.002095061	9.770952e-09	3.465664e-08	-0.03688996	0.05437553	4.610484e-09	3.019099e-09
	1.140638e-09	-5.090247e-10	0.002430988	-0.001841762	4.610484e-09	3.019099e-09	-0.03562252	0.05509558
4.5e+08	-0.03079641	0.05027732	1.741732e-10	-6.507315e-11	0.001333443	-0.001193126	1.085932e-09	-6.507669e-10
	1.741732e-10	-6.507315e-11	-0.02957469	0.05091185	9.492663e-09	3.483948e-08	0.00188731	-0.000993026
	0.001333443	-0.001193126	9.492663e-09	3.483948e-08	-0.03051258	0.05044908	4.428681e-09	2.615932e-09
	1.085932e-09	-6.507669e-10	0.00188731	-0.000993026	4.428681e-09	2.615932e-09	-0.02932868	0.05103694
4.6e+08	-0.02495256	0.04561022	3.050906e-10	-1.364985e-10	0.0009457728	-0.0002300409	1.013108e-09	-7.878147e-10
	3.050906e-10	-1.364985e-10	-0.02383988	0.0461248	9.12974e-09	3.506166e-08	0.001447509	-7.827615e-05
	0.0009457728	-0.0002300409	9.12974e-09	3.506166e-08	-0.0246842	0.0457648	4.174608e-09	2.2288e-09
	1.013108e-09	-7.878147e-10	0.001447509	-7.827615e-05	4.174608e-09	2.2288e-09	-0.02360652	0.04622964
4.7e+08	-0.01974325	0.04025641	4.265119e-10	-2.276454e-10	0.0006788683	0.0007792363	9.22514e-10	-9.179283e-10
	4.265119e-10	-2.276454e-10	-0.01876111	0.04066363	8.686551e-09	3.533441e-08	0.001119774	0.0008887891
	0.0006788683	0.0007792363	8.686551e-09	3.533441e-08	-0.01949364	0.0403955	3.849157e-09	1.868514e-09
	9.22514e-10	-9.179283e-10	0.001119774	0.0008887891	3.849157e-09	1.868514e-09	-0.0185439	0.0407496
4.8e+08	-0.01524798	0.03429881	5.356694e-10	-3.362653e-10	0.0005383873	0.001818707	8.147584e-10	-1.038879e-09
