!$
! Info: Touchstone file created by Circ.  Input file=Tx_6in_Rx_85ohms_TxVia_10mils_RxVia_20mils.circ
!$
# Hz S RI R 50
0	0.004932867	4.825283e-26	0.994936	-4.839993e-26	4.419488e-05	5.003197e-24	-4.262894e-05	1.229209e-21
	0.994936	-4.884884e-26	0.004932474	6.055593e-26	-4.249763e-05	1.213231e-21	4.362913e-05	6.967253e-24
	4.646853e-05	5.014814e-24	-4.24454e-05	1.206864e-21	0.004925537	4.209772e-26	0.994906	-4.310237e-26
	-4.303943e-05	1.279508e-21	4.508672e-05	7.170977e-24	0.994906	-4.51435e-26	0.004938103	5.777938e-26
1e+07	0.006576228	-0.005421941	0.9906522	-0.06558643	0.0001599797	0.001158221	-7.106248e-05	1.933537e-05
	0.9906522	-0.06558643	0.006571774	-0.005422319	-7.108485e-05	1.935867e-05	0.0001579264	0.001158708
	0.0001600277	0.001158195	-7.104675e-05	1.933731e-05	0.006572174	-0.005417516	0.9906506	-0.06568124
	-7.102439e-05	1.9314e-05	0.0001579587	0.001158697	0.9906506	-0.06568124	0.006567774	-0.005417963
2e+07	0.007238483	-0.01248507	0.9822025	-0.1288957	0.0004062834	0.002261386	-6.139058e-05	6.316014e-05
	0.9822025	-0.1288957	0.007220902	-0.01248441	-6.138157e-05	6.318577e-05	0.0003982787	0.002263313
	0.000406275	0.002261361	-6.138228e-05	6.315722e-05	0.007237403	-0.01247028	0.9821762	-0.1290893
	-6.138203e-05	6.312464e-05	0.0003982755	0.002263292	0.9821762	-0.1290893	0.007220199	-0.01246958
3e+07	0.006425546	-0.02023001	0.9702828	-0.190631	0.0007845209	0.003313393	-2.387454e-05	0.0001043579
	0.9702828	-0.190631	0.00638621	-0.02022514	-2.387488e-05	0.0001043622	0.0007670026	0.003318345
	0.0007845214	0.00331339	-2.387754e-05	0.0001043581	0.006426393	-0.02020799	0.970222	-0.1909146
	-2.387667e-05	0.0001043517	0.0007669975	0.003318342	0.970222	-0.1909146	0.006388424	-0.02020313
4e+07	0.004379566	-0.02799256	0.9547441	-0.2511026	0.001288838	0.004300644	3.702538e-05	0.0001335265
	0.9547441	-0.2511026	0.004310557	-0.02797862	3.701878e-05	0.0001335336	0.001258575	0.00431087
	0.001288842	0.00430064	3.702173e-05	0.0001335344	0.004381728	-0.02796567	0.9546386	-0.2514717
	3.70292e-05	0.000133531	0.001258575	0.004310871	0.9546386	-0.2514717	0.004315075	-0.02795223
5e+07	0.001221769	-0.03552316	0.9355944	-0.3102005	0.001909568	0.005208302	0.0001169582	0.0001437527
	0.9355944	-0.3102005	0.001116161	-0.0354938	0.0001169584	0.000143753	0.001863806	0.005226643
	0.001909569	0.005208299	0.00011696	0.000143753	0.001223195	-0.0354922	0.9354335	-0.3106499
	0.0001169612	0.0001437547	0.001863806	0.005226643	0.9354335	-0.3106499	0.001120989	-0.03546376
6e+07	-0.002950384	-0.04264691	0.912897	-0.3677513	0.00263483	0.006022671	0.0002103668	0.000129761
	0.912897	-0.3677513	-0.003098285	-0.04259452	0.0002103662	0.0001297402	0.002571374	0.006052453
	0.00263483	0.006022672	0.000210363	0.0001297411	-0.002951251	-0.04261148	0.9126705	-0.3682744
	0.0002103614	0.00012976	0.002571371	0.006052454	0.9126705	-0.3682744	-0.003094274	-0.04256053
7e+07	-0.008041265	-0.04922312	0.8867465	-0.4235629	0.003450982	0.006731683	0.0003109664	8.787777e-05
	0.8867465	-0.4235629	-0.008235735	-0.04913908	0.0003109509	8.783534e-05	0.003368252	0.006776611
	0.003450983	0.006731687	0.0003109438	8.783909e-05	-0.008045397	-0.04918264	0.8864451	-0.4241522
	0.0003109518	8.787736e-05	0.003368247	0.006776614	0.8864451	-0.4241522	-0.008233252	-0.04910104
8e+07	-0.01395054	-0.05513402	0.8572603	-0.4774399	0.004342931	0.007325261	0.0004120068	1.579081e-05
	0.8572603	-0.4774399	-0.01419432	-0.05500896	0.00041197	1.573738e-05	0.004239994	0.007389325
	0.004342934	0.007325266	0.0004119622	1.574358e-05	-0.01395875	-0.05508801	0.8568756	-0.4780874
	0.0004119882	1.579316e-05	0.00423999	0.00738933	0.8568756	-0.4780874	-0.01419436	-0.0549669
9e+07	-0.02057149	-0.06028093	0.8245745	-0.5291911	0.005294551	0.007795714	0.0005063228	-8.767138e-05
	0.8245745	-0.5291911	-0.02086569	-0.06010498	0.0005062716	-8.772317e-05	0.005171161	0.007883095
	0.005294554	0.007795717	0.0005062664	-8.771754e-05	-0.02058466	-0.06022892	0.8240989	-0.5298882
	0.0005063087	-8.766771e-05	0.005171158	0.007883099	0.8240989	-0.5298882	-0.02086962	-0.06005857
1e+08	-0.02779219	-0.06458442	0.7888421	-0.5786315	0.006289998	0.008139293	0.0005854421	-0.0002240352
	0.7888421	-0.5786315	-0.02813629	-0.06434745	0.0005853951	-0.000224079	0.006146624	0.008254261
	0.006289998	0.008139293	0.0005853953	-0.0002240793	-0.02781142	-0.06452592	0.7882689	-0.5793685
	0.0005854422	-0.0002240355	0.006146624	0.008254261	0.7882689	-0.5793685	-0.02814564	-0.06429591
1.1e+08	-0.03549798	-0.0679789	0.7502363	-0.6256017	0.007317251	0.008344215	0.0006362686	-0.0003814739
	0.7502363	-0.6256017	-0.03589044	-0.06766958	0.0006361721	-0.0003815299	0.007154512	0.008490598
	0.007317252	0.008344215	0.0006361722	-0.0003815301	-0.03552342	-0.06791112	0.7495586	-0.6263693
	0.0006362687	-0.0003814741	0.007154512	0.008490598	0.7495586	-0.6263693	-0.0359053	-0.0676106
1.2e+08	-0.04355778	-0.07040435	0.7089165	-0.6699405	0.008347676	0.0084109	0.000664128	-0.0005582817
	0.7089165	-0.6699405	-0.04399388	-0.07001293	0.0006639898	-0.0005583321	0.008167749	0.008593142
	0.008347676	0.008410899	0.0006639899	-0.0005583322	-0.04358976	-0.07032576	0.708129	-0.6707279
	0.0006641281	-0.0005582819	0.008167749	0.008593142	0.708129	-0.6707279	-0.04401425	-0.06994503
1.3e+08	-0.05184477	-0.07183257	0.6650682	-0.7114988	0.009365007	0.008343468	0.0006623136	-0.000752294
	0.6650682	-0.7114988	-0.05231834	-0.07135001	0.0006621408	-0.0007523295	0.009170752	0.008565529
	0.009365007	0.008343468	0.0006621409	-0.0007523297	-0.05188331	-0.07174148	0.6641667	-0.7122949
	0.0006623136	-0.0007522941	0.009170752	0.008565529	0.6641667	-0.7122949	-0.05234407	-0.07127174
1.4e+08	-0.06023089	-0.07224972	0.6188829	-0.7501441	0.01035267	0.008146377	0.0006261354	-0.0009583613
	0.6188829	-0.7501441	-0.06073436	-0.07166779	0.0006259325	-0.0009583776	0.01014755	0.008411723
	0.01035267	0.008146377	0.0006259325	-0.0009583777	-0.06027558	-0.07214432	0.6178643	-0.7509373
	0.0006261354	-0.0009583614	0.01014755	0.008411723	0.6178643	-0.7509373	-0.06076501	-0.0715777
1.5e+08	-0.0685894	-0.07165758	0.570558	-0.785758	0.01129484	0.007825854	0.0005522094	-0.001170236
	0.570558	-0.785758	-0.06911387	-0.0709691	0.0005519782	-0.00117023	0.01108286	0.008137417
	0.01129484	0.007825853	0.0005519782	-0.00117023	-0.06863937	-0.0715361	0.5694198	-0.7865367
	0.0005522094	-0.001170236	0.01108286	0.008137417	0.5694198	-0.7865367	-0.06914871	-0.07086579
1.6e+08	-0.07679655	-0.07007317	0.5202946	-0.8182367	0.01217674	0.007389897	0.0004384854	-0.001380991
	0.5202946	-0.8182367	-0.07733192	-0.06927219	0.0004382259	-0.001380959	0.01196239	0.007750021
	0.01217674	0.007389897	0.0004382258	-0.001380959	-0.07685052	-0.06993398	0.5190356	-0.818989
	0.0004384854	-0.001380991	0.01196239	0.007750021	0.5190356	-0.818989	-0.07736989	-0.06915436
1.7e+08	-0.08473314	-0.06752803	0.4682971	-0.8474902	0.01298491	0.006848136	0.0002842925	-0.001583327
	0.4682971	-0.8474902	-0.08526826	-0.06661004	0.0002840038	-0.001583265	0.01277309	0.00725851
	0.01298491	0.006848136	0.0002840038	-0.001583265	-0.08478949	-0.06736973	0.4669168	-0.8482041
	0.0002842925	-0.001583327	0.01277309	0.00725851	0.4669168	-0.8482041	-0.08530808	-0.06647656
1.8e+08	-0.09228606	-0.06406738	0.4147716	-0.8734421	0.01370734	0.006211632	9.035405e-05	-0.001769854
	0.4147716	-0.8734421	-0.09280889	-0.06302944	9.003564e-05	-0.001769755	0.01350327	0.006673234
	0.01370734	0.006211631	9.003563e-05	-0.001769755	-0.09234284	-0.06388886	0.4132705	-0.8741055
	9.035404e-05	-0.001769854	0.01350327	0.006673234	0.4132705	-0.8741055	-0.09284903	-0.0628794
1.9e+08	-0.09934955	-0.05974912	0.3599248	-0.8960291	0.01433362	0.005492664	-0.0001412383	-0.001933354
	0.3599248	-0.8960291	-0.09984745	-0.05859006	-0.0001415859	-0.001933211	0.01414278	0.006005708
	0.01433362	0.005492664	-0.0001415859	-0.001933211	-0.09940465	-0.05954962	0.3583045	-0.8966298
	-0.0001412383	-0.001933354	0.01414278	0.006005708	0.3583045	-0.8966298	-0.0998862	-0.05842279
2e+08	-0.1058266	-0.05464272	0.3039637	-0.9152003	0.01485508	0.004704502	-0.0004070917	-0.002067032
	0.3039637	-0.9152003	-0.1062865	-0.05336321	-0.0004074663	-0.002066835	0.01468304	0.005268396
	0.01485508	0.004704502	-0.0004074663	-0.002066835	-0.1058777	-0.05442184	0.3022267	-0.9157263
	-0.0004070918	-0.002067032	0.01468304	0.005268396	0.3022267	-0.9157263	-0.106322	-0.05317833
2.1e+08	-0.1116298	-0.04882806	0.2470943	-0.9309168	0.01526478	0.003861179	-0.0007026194	-0.002164738
	0.2470943	-0.9309168	-0.1120386	-0.04743071	-0.0007030169	-0.00216448	0.01511714	0.0044745
	0.01526478	0.003861179	-0.0007030169	-0.00216448	-0.1116746	-0.04858574	0.2452443	-0.931356
	-0.0007026194	-0.002164738	0.01511714	0.0044745	0.2452443	-0.931356	-0.1120689	-0.04722811
2.2e+08	-0.1166828	-0.04239404	0.1895218	-0.943151	0.01555759	0.002977267	-0.001022182	-0.002221174
	0.1895218	-0.943151	-0.1170273	-0.04088342	-0.001022596	-0.002220845	0.01543983	0.003637753
	0.01555759	0.002977267	-0.001022596	-0.002220845	-0.1167188	-0.04213062	0.1875633	-0.9434915
	-0.001022182	-0.002221174	0.01543983	0.003637753	0.1875633	-0.9434915	-0.1170505	-0.04066332
2.3e+08	-0.1209203	-0.03543729	0.1314492	-0.9518858	0.0157302	0.002067663	-0.001359261	-0.002232056
	0.1314492	-0.9518858	-0.1211882	-0.03381992	-0.001359683	-0.002231648	0.01564757	0.002772222
	0.0157302	0.002067663	-0.001359683	-0.002231648	-0.1209452	-0.03515348	0.1293878	-0.9521162
	-0.001359261	-0.002232056	0.01564757	0.002772222	0.1293878	-0.9521162	-0.1212022	-0.03358285
2.4e+08	-0.1242898	-0.02806071	0.07307809	-0.9571144	0.01578108	0.001147386	-0.001706652	-0.002194253
	0.07307809	-0.9571144	-0.124469	-0.02634505	-0.001707072	-0.002193759	0.01573847	0.00189212
	0.01578108	0.001147386	-0.001707072	-0.002193759	-0.1243011	-0.02775759	0.07092037	-0.9572234
	-0.001706652	-0.002194253	0.01573847	0.00189212	0.07092037	-0.9572234	-0.1244719	-0.02609184
2.5e+08	-0.1267509	-0.02037203	0.01460762	-0.9588396	0.01571047	0.0002313857	-0.00205668	-0.002105886
	0.01460762	-0.9588396	-0.1268307	-0.01856836	-0.002057087	-0.0021053	0.0157123	0.001011637
	0.01571047	0.0002313856	-0.002057087	-0.0021053	-0.1267466	-0.02005103	0.01236109	-0.9588165
	-0.00205668	-0.002105886	0.0157123	0.001011637	0.01236109	-0.9588165	-0.1268206	-0.01830014
2.6e+08	-0.1282766	-0.01248234	-0.0437651	-0.9570734	0.0155203	-0.0006656398	-0.002401426	-0.001966381
	-0.0437651	-0.9570734	-0.1282474	-0.01060262	-0.002401807	-0.0019657	0.0155704	0.0001447718
	0.0155203	-0.0006656398	-0.002401807	-0.0019657	-0.1282546	-0.01214521	-0.04609199	-0.9569078
	-0.002401426	-0.001966381	0.0155704	0.0001447718	-0.04609199	-0.9569078	-0.1282226	-0.01032082
2.7e+08	-0.1288529	-0.004504572	-0.1018452	-0.9518365	0.01521418	-0.001529409	-0.002732952	-0.001776492
	-0.1018452	-0.9518365	-0.1287068	-0.002562306	-0.002733291	-0.001775714	0.01531569	-0.0006948164
	0.01521418	-0.001529409	-0.002733291	-0.001775714	-0.1288115	-0.004153392	-0.1042431	-0.9515186
	-0.002732952	-0.001776492	0.01531569	-0.0006948164	-0.1042431	-0.9515186	-0.1286658	-0.002268648
2.8e+08	-0.1284793	0.003447944	-0.1594402	-0.9431582	0.0147973	-0.002346219	-0.003043529	-0.001538281
	-0.1594402	-0.9431582	-0.12821	0.005437924	-0.003043813	-0.001537408	0.01495255	-0.001493952
	0.0147973	-0.002346219	-0.003043813	-0.001537408	-0.1284169	0.003810812	-0.1618989	-0.9426789
	-0.003043529	-0.001538281	0.01495255	-0.001493952	-0.1618989	-0.9426789	-0.1281514	0.005741488
2.9e+08	-0.1271683	0.01126297	-0.2163594	-0.9310765	0.01427633	-0.003103088	-0.003325859	-0.00125506
	-0.2163594	-0.9310765	-0.1267714	0.01328473	-0.003326072	-0.001254093	0.01448681	-0.00224008
	0.01427633	-0.003103088	-0.003326072	-0.001254093	-0.1270837	0.01163491	-0.2188679	-0.9304273
	-0.003325859	-0.00125506	0.01448681	-0.00224008	-0.2188679	-0.9304273	-0.1266942	0.01359602
3e+08	-0.1249452	0.01883078	-0.2724147	-0.9156373	0.01365938	-0.003787905	-0.003573278	-0.0009312955
	-0.2724147	-0.9156373	-0.1244187	0.02086757	-0.003573405	-0.0009302401	0.01392564	-0.002921393
	0.01365938	-0.003787905	-0.003573405	-0.0009302401	-0.1248375	0.01920898	-0.274961	-0.9148106
	-0.003573278	-0.0009312955	0.01392564	-0.002921393	-0.274961	-0.9148106	-0.1243221	0.02118421
3.1e+08	-0.121848	0.0260456	-0.3274198	-0.8968953	0.0129559	-0.00438956	-0.00377994	-0.000572483
	-0.3274198	-0.8968953	-0.1211919	0.0280801	-0.003779967	-0.000571347	0.01327749	-0.003526961
	0.0129559	-0.00438956	-0.003779967	-0.000571347	-0.1217167	0.02642706	-0.3299914	-0.895884
	-0.00377994	-0.000572483	0.01327749	-0.003526961	-0.3299914	-0.895884	-0.1210754	0.02839957
3.2e+08	-0.1179265	0.03280693	-0.3811905	-0.8749134	0.01217655	-0.004898079	-0.003940982	-0.0001849929
	-0.3811905	-0.8749134	-0.1171434	0.0348216	-0.003940897	-0.0001837861	0.01255201	-0.004046853
	0.01217655	-0.004898079	-0.003940897	-0.0001837861	-0.1177715	0.03318852	-0.3837743	-0.8737116
	-0.003940982	-0.0001849929	0.01255201	-0.004046853	-0.3837743	-0.8737116	-0.1170069	0.03514125
3.3e+08	-0.113242	0.03902084	-0.4335451	-0.8497633	0.01133309	-0.005304745	-0.004052656	0.0002241124
	-0.4335451	-0.8497633	-0.1123368	0.04099821	-0.004052445	0.0002253781	0.01175993	-0.004472258
	0.01133309	-0.005304745	-0.004052445	0.0002253781	-0.1130636	0.03939939	-0.4361271	-0.8483658
	-0.004052656	0.0002241124	0.01175993	-0.004472258	-0.4361271	-0.8483658	-0.1121805	0.04131535
3.4e+08	-0.1078661	0.04460123	-0.484304	-0.8215257	0.01043831	-0.005602226	-0.004112426	0.0006472777
	-0.484304	-0.8215257	-0.1068462	0.04652424	-0.00411208	0.0006485888	0.01091298	-0.004795605
	0.01043831	-0.005602226	-0.00411208	0.0006485888	-0.1076651	0.04497356	-0.4868697	-0.8199283
	-0.004112426	0.0006472777	0.01091298	-0.004795605	-0.4868697	-0.8199283	-0.1066708	0.0468362
3.5e+08	-0.1018801	0.04947096	-0.5332904	-0.7902904	0.009505817	-0.005784688	-0.004119037	0.001076672
	-0.5332904	-0.7902904	-0.1007553	0.05132331	-0.004118548	0.001078013	0.01002378	-0.005010678
	0.009505817	-0.005784688	-0.004118548	0.001078013	-0.1016577	0.04983395	-0.5358249	-0.78849
	-0.004119037	0.001076672	0.01002378	-0.005010678	-0.5358249	-0.78849	-0.1005618	0.05162743
3.6e+08	-0.095374	0.05356292	-0.5803303	-0.7561568	0.008549928	-0.005847899	-0.004072541	0.001504412
	-0.5803303	-0.7561568	-0.09415639	0.05532941	-0.004071901	0.001505768	0.009105672	-0.005112724
	0.008549928	-0.005847899	-0.004071901	0.001505768	-0.09513182	0.05391355	-0.5828181	-0.7541514
	-0.004072541	0.001504412	0.009105672	-0.005112724	-0.5828181	-0.7541514	-0.09394612	0.05562313
3.7e+08	-0.0884449	0.05682101	-0.6252533	-0.7192343	0.007585492	-0.005789337	-0.003974282	0.001922789
	-0.6252533	-0.7192343	-0.08714883	0.05848783	-0.003973489	0.001924141	0.008172599	-0.005098562
	0.007585492	-0.005789337	-0.003973489	0.001924141	-0.08818502	0.05715642	-0.6276785	-0.7170229
	-0.003974282	0.001922789	0.008172599	-0.005098562	-0.6276785	-0.7170229	-0.08692357	0.05876873
3.8e+08	-0.08119616	0.0592009	-0.6678927	-0.6796424	0.0066277	-0.005608264	-0.003826848	0.002324491
	-0.6678927	-0.6796424	-0.07983803	0.060756	-0.0038259	0.002325823	0.007238923	-0.004966667
	0.0066277	-0.005608264	-0.0038259	0.002325823	-0.08092106	0.05951847	-0.6702392	-0.6772253
	-0.003826848	0.002324491	0.007238923	-0.004966667	-0.6702392	-0.6772253	-0.07959987	0.06102186
3.9e+08	-0.07373581	0.0606708	-0.7080868	-0.6375112	0.005691879	-0.005305803	-0.003633978	0.002702815
	-0.7080868	-0.6375112	-0.07233386	0.06210414	-0.003632875	0.002704109	0.006319242	-0.004717255
	0.005691879	-0.005305803	-0.003632875	0.002704109	-0.07344839	0.0609682	-0.7103383	-0.6348898
	-0.003633978	0.002702815	0.006319242	-0.004717255	-0.7103383	-0.6348898	-0.07208525	0.06235299
4e+08	-0.06617515	0.06121197	-0.7456791	-0.5929815	0.004793272	-0.004884975	-0.003400434	0.003051856
	-0.7456791	-0.5929815	-0.06474921	0.06251581	-0.00339918	0.003053096	0.005428184	-0.004352337
	0.004793272	-0.004884975	-0.00339918	0.003053096	-0.06587863	0.0614872	-0.7478192	-0.5901584
	-0.003400434	0.003051856	0.005428184	-0.004352337	-0.7478192	-0.5901584	-0.06449289	0.06274599
4.1e+08	-0.05862715	0.06081907	-0.7805198	-0.5462049	0.0039468	-0.004350726	-0.003131841	0.003366683
	-0.7805198	-0.5462049	-0.05719834	0.06198825	-0.003130442	0.003367851	0.004580184	-0.003875753
	0.0039468	-0.004350726	-0.003130442	0.003367851	-0.0583251	0.06107058	-0.7825319	-0.5431842
	-0.003131841	0.003366683	0.004580184	-0.003875753	-0.7825319	-0.5431842	-0.05693732	0.06219842
4.2e+08	-0.05120489	0.05950044	-0.8124661	-0.497344	0.003166815	-0.003709914	-0.002834495	0.003643467
	-0.8124661	-0.497344	-0.0497953	0.06053249	-0.002832958	0.00364455	0.003789249	-0.003293181
	0.003166815	-0.003709914	-0.002832958	0.00364455	-0.05090112	0.05972708	-0.8143337	-0.4941308
	-0.002834495	0.003643467	0.003789249	-0.003293181	-0.8143337	-0.4941308	-0.04953282	0.06072172
4.3e+08	-0.04401987	0.057278	-0.841384	-0.446572	0.002466838	-0.002971263	-0.002515149	0.003879589
	-0.841384	-0.446572	-0.04265221	0.05817339	-0.002513483	0.003880573	0.003068713	-0.002612106
	0.002466838	-0.002971263	-0.002513483	0.003880573	-0.04371841	0.05747914	-0.8430907	-0.443173
	-0.002515149	0.003879589	0.003068713	-0.002612106	-0.8430907	-0.443173	-0.04239167	0.05834115
4.4e+08	-0.03718039	0.05418713	-0.8671487	-0.3940729	0.001859308	-0.002145278	-0.002180782	0.004073695
	-0.8671487	-0.3940729	-0.03587759	0.05494935	-0.002178999	0.004074569	0.002430988	-0.001841762
	0.001859308	-0.002145278	-0.002178999	0.004074569	-0.03688542	0.05436267	-0.8686784	-0.3904959
	-0.002180782	0.004073695	0.002430988	-0.001841762	-0.8686784	-0.3904959	-0.03562252	0.05509558
4.5e+08	-0.03078989	0.05027625	-0.8896464	-0.3400407	0.00135532	-0.001244126	-0.001838361	0.004225714
	-0.8896464	-0.3400407	-0.02957469	0.05091185	-0.001836471	0.004226468	0.00188731	-0.000993026
	0.00135532	-0.001244126	-0.001836471	0.004226468	-0.03050565	0.05042661	-0.8909834	-0.3362948
	-0.001838361	0.004225714	0.00188731	-0.000993026	-0.8909834	-0.3362948	-0.02932868	0.05103694
4.6e+08	-0.02494533	0.04560616	-0.908775	-0.2846788	0.0009643861	-0.0002814683	-0.001494595	0.004336825
	-0.908775	-0.2846788	-0.02383988	0.0461248	-0.001492612	0.004337452	0.001447509	-7.827615e-05
	0.0009643861	-0.0002814683	-0.001492612	0.004337452	-0.02467606	0.04573237	-0.909904	-0.2807746
	-0.001494595	0.004336825	0.001447509	-7.827615e-05	-0.909904	-0.2807746	-0.02360652	0.04622964
4.7e+08	-0.01973567	0.04024927	-0.9244456	-0.2281997	0.0006942115	0.0007277445	-0.001155712	0.004409384
	-0.9244456	-0.2281997	-0.01876111	0.04066363	-0.001153647	0.004409878	0.001119774	0.0008887891
	0.0006942115	0.0007277445	-0.001153647	0.004409878	-0.01948555	0.04035292	-0.9253518	-0.2241489
	-0.001155712	0.004409384	0.001119774	0.0008887891	-0.9253518	-0.2241489	-0.0185439	0.0407496
4.8e+08	-0.01524043	0.03428853	-0.936583	-0.1708235	0.0005504959	0.001767517	-0.0008272379	0.004446802
	-0.936583	-0.1708235	-0.01441647	0.03461423	-0.0008251034	0.00444716	0.000910463	0.001893373
	0.0005504959	0.001767517	-0.0008251034	0.00444716	-0.01501346	0.03437177	-0.9372525	-0.1666392
	-0.0008272379	0.004446802	0.000910463	0.001893373	-0.9372525	-0.1666392	-0.01421879	0.03468318
4.9e+08	-0.01152839	0.02781622	-0.9451274	-0.1127772	0.0005367738	0.002821087	-0.0005138116	0.004453383
	-0.9451274	-0.1127772	-0.01087288	0.02807163	-0.0005116191	0.004453603	0.000823932	0.002919835
	0.0005367738	0.002821087	-0.0005116191	0.004453603	-0.01132835	0.02788176	-0.9455469	-0.1084737
	-0.0005138116	0.004453383	0.000823932	0.002919835	-0.9455469	-0.1084737	-0.01069789	0.02812589
5e+08	-0.00865642	0.02093254	-0.9500348	-0.05429346	0.0006542942	0.003871234	-0.0002190332	0.004434133
	-0.9500348	-0.05429346	-0.008185001	0.02113858	-0.0002167929	0.004434215	0.000862406	0.00395198
	0.0006542943	0.003871234	-0.0002167929	0.004434215	-0.008486777	0.02098363	-0.950192	-0.04988617
	-0.0002190332	0.004434133	0.000862406	0.00395198	-0.950192	-0.04988617	-0.008035618	0.02118093
5.1e+08	-0.00666858	0.01374407	-0.9512778	0.00439113	0.0009019498	0.004900612	5.464976e-05	0.004394534
