!$
! Info: Touchstone file created by Circ.  Input file=Tx_6in_Rx_93ohms_TxVia_10mils_RxVia_20mils.circ
!$
# Hz S RI R 50
0	0.005601975	4.410712e-26	1.109655e-10	1.170653e-28	4.539611e-05	5.918447e-24	-5.07292e-09	6.21452e-25
	1.109774e-10	1.172561e-28	0.005602646	6.034483e-26	5.478789e-10	2.799999e-27	4.348249e-05	7.925597e-24
	4.409481e-05	5.766758e-24	5.478171e-10	2.807203e-27	0.005617326	4.620792e-26	-9.204532e-09	1.141147e-24
	-5.072032e-09	6.213433e-25	4.493983e-05	8.157341e-24	-9.204728e-09	1.141171e-24	0.005608268	5.757861e-26
1e+07	0.008024613	-0.0002323867	4.988211e-11	-2.184321e-11	0.0001578704	0.00117101	-8.054826e-09	1.666982e-08
	4.988214e-11	-2.184351e-11	0.008188994	-0.0002400475	6.804764e-10	1.090251e-09	0.0001556176	0.001166927
	0.0001578265	0.001171013	6.804763e-10	1.090251e-09	0.00820637	-0.0002456548	-9.440455e-09	1.636496e-08
	-8.054826e-09	1.666982e-08	0.00015565	0.001166915	-9.440455e-09	1.636496e-08	0.008037146	-0.0002502933
2e+07	0.009611908	-0.002374667	4.937882e-11	-2.537307e-11	0.0003367755	0.002347092	-7.482039e-09	1.310605e-08
	4.937863e-11	-2.537319e-11	0.009727852	-0.002448374	8.608282e-10	1.924088e-09	0.0003308657	0.002340433
	0.0003367657	0.002347119	8.608284e-10	1.924088e-09	0.009752426	-0.002461109	-9.153567e-09	1.345671e-08
	-7.482039e-09	1.310605e-08	0.0003308628	0.002340412	-9.153567e-09	1.345671e-08	0.009610557	-0.002409636
3e+07	0.01037492	-0.00527976	6.986531e-11	-5.349725e-11	0.0007072853	0.00343491	-4.581485e-09	1.265861e-08
	6.986527e-11	-5.349721e-11	0.01044413	-0.005375117	9.456391e-10	2.711761e-09	0.0006848445	0.003430103
	0.0007072859	0.003434914	9.456392e-10	2.711761e-09	0.01048046	-0.005396828	-5.86305e-09	1.366387e-08
	-4.581485e-09	1.265861e-08	0.0006848395	0.003430101	-5.86305e-09	1.366387e-08	0.0103535	-0.005326872
4e+07	0.01051611	-0.008433973	7.865243e-11	-8.620943e-11	0.001230602	0.004446623	-2.154644e-09	1.188133e-08
	7.865241e-11	-8.620947e-11	0.01053701	-0.008536463	9.954542e-10	3.509872e-09	0.001193947	0.004445713
	0.001230598	0.004446621	9.954542e-10	3.509872e-09	0.01058921	-0.008570102	-3.151552e-09	1.315225e-08
	-2.154644e-09	1.188133e-08	0.001193947	0.004445715	-3.151552e-09	1.315225e-08	0.01046807	-0.008490896
5e+07	0.01011479	-0.0116698	8.703051e-11	-1.12582e-10	0.001866495	0.005376835	-5.828169e-10	1.116573e-08
	8.703047e-11	-1.12582e-10	0.01008546	-0.01176859	1.033587e-09	4.305554e-09	0.001813225	0.005382899
	0.001866493	0.005376834	1.033587e-09	4.305554e-09	0.01015692	-0.01181799	-1.475393e-09	1.253487e-08
	-5.828169e-10	1.116573e-08	0.001813225	0.005382899	-1.475393e-09	1.253487e-08	0.01003265	-0.01173173
6e+07	0.009219834	-0.01488206	1.091979e-10	-1.268314e-10	0.002604867	0.006214171	6.396017e-11	1.093995e-08
	1.09198e-10	-1.268314e-10	0.009138845	-0.01496729	1.071147e-09	5.084539e-09	0.002533088	0.006230655
	0.002604873	0.006214169	1.071147e-09	5.084539e-09	0.009232121	-0.01503695	-9.127948e-10	1.221832e-08
	6.396016e-11	1.093995e-08	0.002533085	0.006230656	-9.127948e-10	1.221832e-08	0.009097745	-0.0149425
7e+07	0.007871541	-0.01799086	2.038424e-10	-6.279933e-11	0.003433744	0.00694765	-1.124565e-09	1.156616e-08
	2.038427e-10	-6.27994e-11	0.007738332	-0.01805291	1.164777e-09	5.836541e-09	0.003342119	0.006978303
	0.003433754	0.006947643	1.164778e-09	5.836541e-09	0.007855058	-0.01814775	-2.121498e-09	1.214054e-08
	-1.124565e-09	1.156616e-08	0.003342114	0.006978305	-2.121498e-09	1.214054e-08	0.007704988	-0.01804286
8e+07	0.006108976	-0.02093015	4.043844e-10	-1.516842e-09	0.004339576	0.007567421	-7.325926e-09	8.808827e-09
	4.043848e-10	-1.516843e-09	0.005924121	-0.02095938	1.319442e-09	6.851238e-09	0.004227374	0.007616238
	0.004339587	0.007567411	1.319442e-09	6.851238e-09	0.006065011	-0.02108463	-6.175334e-09	9.551507e-09
	-7.325926e-09	8.808828e-09	0.00422737	0.007616242	-6.175334e-09	9.551507e-09	0.00589422	-0.02096636
9e+07	0.003973451	-0.0236425	1.768998e-10	-3.137437e-10	0.005307492	0.008065148	-3.989411e-09	2.1886e-10
	1.769001e-10	-3.137442e-10	0.003738943	-0.02362907	1.098815e-09	7.712976e-09	0.005174645	0.008136326
	0.005307499	0.008065139	1.098815e-09	7.712976e-09	0.003903785	-0.02379006	-4.71796e-09	2.175245e-09
	-3.989411e-09	2.1886e-10	0.005174642	0.00813633	-4.71796e-09	2.175245e-09	0.003707509	-0.02365482
1e+08	0.001516386	-0.0260685	1.152991e-10	-2.777121e-10	0.006321443	0.008433862	-2.571778e-10	-1.513378e-10
	1.152991e-10	-2.777121e-10	0.001237111	-0.02600059	9.926963e-10	8.413685e-09	0.006168734	0.008531926
	0.006321443	0.008433862	9.926963e-10	8.413685e-09	0.001424765	-0.02620262	-7.621478e-10	8.977591e-10
	-2.571778e-10	-1.513378e-10	0.006168734	0.008531926	-7.621478e-10	8.977591e-10	0.001197509	-0.02604782
1.1e+08	-0.001184555	-0.0282383	1.168489e-10	-3.154494e-10	0.007363102	0.008671168	-3.051038e-10	-1.1999e-10
	1.168489e-10	-3.154494e-10	-0.001497835	-0.02811389	9.638468e-10	9.281453e-09	0.007192217	0.008799018
	0.007363102	0.008671168	9.638468e-10	9.281453e-09	-0.00128751	-0.02836354	-8.688433e-10	1.111621e-09
	-3.051038e-10	-1.1999e-10	0.007192217	0.008799018	-8.688433e-10	1.111621e-09	-0.001555468	-0.0281744
1.2e+08	-0.004158513	-0.03009112	1.172074e-10	-3.558614e-10	0.008418048	0.008775069	-3.492804e-10	-8.236135e-11
	1.172074e-10	-3.558614e-10	-0.004504803	-0.02990743	9.403806e-10	1.016712e-08	0.008230582	0.008936458
	0.008418048	0.008775069	9.403806e-10	1.016712e-08	-0.004276028	-0.03020999	-9.620279e-10	1.347935e-09
	-3.492804e-10	-8.236135e-11	0.008230582	0.008936457	-9.620279e-10	1.347935e-09	-0.004579827	-0.02997542
1.3e+08	-0.007346778	-0.03158391	1.152366e-10	-3.987272e-10	0.009469155	0.008744836	-3.890592e-10	-3.690256e-11
	1.152366e-10	-3.987272e-10	-0.007722721	-0.03133587	9.256324e-10	1.107068e-08	0.009267521	0.008943432
	0.009469155	0.008744836	9.256324e-10	1.107068e-08	-0.007480271	-0.03169572	-1.038501e-09	1.60514e-09
	-3.890592e-10	-3.690256e-11	0.009267521	0.008943432	-1.038501e-09	1.60514e-09	-0.007815462	-0.03140778
1.4e+08	-0.01069625	-0.0326925	1.105247e-10	-4.442778e-10	0.01049956	0.008582352	-4.231565e-10	1.59214e-11
	1.105247e-10	-4.442778e-10	-0.01109729	-0.03237491	9.233269e-10	1.199102e-08	0.0102868	0.008821478
	0.01049956	0.008582352	9.233269e-10	1.199102e-08	-0.01084642	-0.03279569	-1.094568e-09	1.880426e-09
	-4.231565e-10	1.59214e-11	0.0102868	0.008821478	-1.094568e-09	1.880426e-09	-0.01120793	-0.03244756
1.5e+08	-0.01415417	-0.0334012	1.030435e-10	-4.933958e-10	0.01149283	0.008291651	-4.503558e-10	7.483947e-11
	1.030435e-10	-4.933958e-10	-0.0145747	-0.0330092	9.368878e-10	1.292641e-08	0.01127254	0.008574197
	0.01149283	0.008291651	9.368878e-10	1.292641e-08	-0.01432111	-0.03349382	-1.12654e-09	2.169686e-09
	-4.503558e-10	7.483947e-11	0.01127254	0.008574197	-1.12654e-09	2.169686e-09	-0.01470313	-0.03307961
1.6e+08	-0.01766798	-0.03370157	9.078142e-11	-5.440381e-10	0.01243324	0.0078788	-4.696104e-10	1.399871e-10
	9.078142e-11	-5.440381e-10	-0.01810149	-0.03323089	9.694354e-10	1.387458e-08	0.01220953	0.008207149
	0.01243324	0.0078788	9.694354e-10	1.387458e-08	-0.01785129	-0.03378153	-1.133166e-09	2.471129e-09
	-4.696104e-10	1.399871e-10	0.01220953	0.008207149	-1.133166e-09	2.471129e-09	-0.01824726	-0.03329623
1.7e+08	-0.02118574	-0.03359188	7.309013e-11	-5.955515e-10	0.013306	0.007351773	-4.797999e-10	2.102533e-10
	7.309013e-11	-5.955515e-10	-0.02162487	-0.03303902	1.023652e-09	1.483287e-08	0.0130834	0.007727731
	0.013306	0.007351773	1.023652e-09	1.483287e-08	-0.02138459	-0.03365707	-1.11241e-09	2.781077e-09
	-4.797999e-10	2.102533e-10	0.0130834	0.007727731	-1.11241e-09	2.781077e-09	-0.02178721	-0.03309663
1.8e+08	-0.02465664	-0.03307673	4.940412e-11	-6.470901e-10	0.01409748	0.006720311	-4.799658e-10	2.843281e-10
	4.940412e-11	-6.470901e-10	-0.02509334	-0.03243916	1.101775e-09	1.579819e-08	0.01388087	0.007145038
	0.01409748	0.006720311	1.101775e-09	1.579819e-08	-0.0248698	-0.03312517	-1.062793e-09	3.09562e-09
	-4.799658e-10	2.843281e-10	0.01388087	0.007145038	-1.062793e-09	3.09562e-09	-0.02527113	-0.03248658
1.9e+08	-0.02803152	-0.03216677	1.929185e-11	-6.976284e-10	0.01479543	0.005995746	-4.69346e-10	3.607325e-10
	1.929185e-11	-6.976284e-10	-0.02845716	-0.03144305	1.205562e-09	1.676715e-08	0.01458996	0.006469704
	0.01479543	0.005995746	1.205562e-09	1.676715e-08	-0.02825745	-0.03219664	-9.833957e-10	3.410698e-09
	-4.69346e-10	3.607325e-10	0.01458996	0.006469704	-9.833957e-10	3.410698e-09	-0.02864901	-0.03147802
2e+08	-0.03126347	-0.03087838	-1.749599e-11	-7.459857e-10	0.01538916	0.005190815	-4.474036e-10	4.378517e-10
	-1.749599e-11	-7.459857e-10	-0.03166902	-0.03006829	1.336259e-09	1.773612e-08	0.01520013	0.005713718
	0.01538916	0.005190815	1.336259e-09	1.773612e-08	-0.03150035	-0.03088806	-8.738589e-10	3.722179e-09
	-4.474036e-10	4.378517e-10	0.01520013	0.005713718	-8.738589e-10	3.722179e-09	-0.03187327	-0.0300888
2.1e+08	-0.03430836	-0.02923332	-6.098377e-11	-7.908617e-10	0.01586965	0.004319443	-4.138505e-10	5.139733e-10
	-6.098377e-11	-7.908617e-10	-0.03468458	-0.02833791	1.494576e-09	1.870127e-08	0.01570244	0.00489023
	0.01586965	0.004319443	1.494576e-09	1.870127e-08	-0.03455414	-0.02922143	-7.343706e-10	4.025924e-09
	-4.138505e-10	5.139733e-10	0.01570244	0.00489023	-7.343706e-10	4.025924e-09	-0.03489934	-0.0283422
2.2e+08	-0.03712541	-0.02725827	-1.109353e-10	-8.30882e-10	0.01622975	0.003396522	-3.686633e-10	5.873283e-10
	-1.109353e-10	-8.30882e-10	-0.03746303	-0.02627994	1.680668e-09	1.965868e-08	0.01608967	0.004013339
	0.01622975	0.003396522	1.680668e-09	1.965868e-08	-0.03737787	-0.02722372	-5.656467e-10	4.317859e-09
	-3.686633e-10	5.873283e-10	0.01608967	0.004013339	-5.656467e-10	4.317859e-09	-0.0376862	-0.02626656
2.3e+08	-0.03967764	-0.02498441	-1.668281e-10	-8.646548e-10	0.01646423	0.002437668	-3.120927e-10	6.56135e-10
	-1.668281e-10	-8.646548e-10	-0.03996756	-0.02392692	1.894124e-09	2.060434e-08	0.01635642	0.003097867
	0.01646423	0.002437668	1.894124e-09	2.060434e-08	-0.03993439	-0.02492637	-3.689067e-10	4.594021e-09
	-3.120927e-10	6.56135e-10	0.01635642	0.003097867	-3.689067e-10	4.594021e-09	-0.04019688	-0.02389471
2.4e+08	-0.04193232	-0.0224469	-2.278423e-10	-8.908301e-10	0.01656985	0.001458976	-2.446639e-10	7.186437e-10
	-2.278423e-10	-8.908301e-10	-0.04216584	-0.02131536	2.133961e-09	2.153433e-08	0.01649917	0.002159134
	0.01656985	0.001458976	2.133961e-09	2.153433e-08	-0.04219091	-0.02236486	-1.458486e-10	4.850614e-09
	-2.446639e-10	7.186437e-10	0.01649917	0.002159134	-1.458486e-10	4.850614e-09	-0.04239892	-0.02126348
2.5e+08	-0.04386141	-0.01968433	-2.928593e-10	-9.081754e-10	0.01654538	0.0004767726	-1.671707e-10	7.731809e-10
	-2.928593e-10	-9.081754e-10	-0.04403038	-0.01848518	2.39863e-09	2.244478e-08	0.0165163	0.001212723
	0.01654538	0.0004767726	2.39863e-09	2.244478e-08	-0.04411927	-0.01957808	1.013794e-10	5.084038e-09
	-1.671707e-10	7.731809e-10	0.0165163	0.001212723	1.013794e-10	5.084038e-09	-0.04426475	-0.01841311
2.6e+08	-0.04544178	-0.01673815	-3.601743e-10	-9.100406e-10	0.01639166	-0.000492636	-8.059486e-11	8.180913e-10
	-3.601743e-10	-9.100406e-10	-0.04553889	-0.01547904	2.685212e-09	2.333372e-08	0.01640812	0.0002742478
	0.01639166	-0.000492636	2.685212e-09	2.333372e-08	-0.04569639	-0.01660778	3.7053e-10	5.296588e-09
	-8.059486e-11	8.180913e-10	0.01640812	0.0002742478	3.7053e-10	5.296588e-09	-0.04577201	-0.01538661
2.7e+08	-0.04665559	-0.01365202	-4.268993e-10	-9.000686e-10	0.0161115	-0.001433211	1.370031e-11	8.520327e-10
	-4.268993e-10	-9.000686e-10	-0.04667443	-0.01234176	2.992221e-09	2.419647e-08	0.01617684	-0.0006408813
	0.0161115	-0.001433211	2.992221e-09	2.419647e-08	-0.0469044	-0.01349796	6.598683e-10	5.480673e-09
	1.370031e-11	8.520327e-10	0.01617684	-0.0006408813	6.598683e-10	5.480673e-09	-0.04690378	-0.01222913
2.8e+08	-0.04749038	-0.01047121	-4.910366e-10	-8.789426e-10	0.01570968	-0.002329421	1.142086e-10	8.738214e-10
	-4.910366e-10	-8.789426e-10	-0.04742569	-0.009119624	3.316732e-09	2.50296e-08	0.01582653	-0.00151768
	0.01570968	-0.002329421	3.316732e-09	2.50296e-08	-0.04773088	-0.01029419	9.661859e-10	5.63231e-09
	1.142086e-10	8.738214e-10	0.01582653	-0.00151768	9.661859e-10	5.63231e-09	-0.0476488	-0.008987288
2.9e+08	-0.04793924	-0.007241918	-5.50553e-10	-8.467961e-10	0.01519284	-0.003166473	2.192661e-10	8.824824e-10
	-5.50553e-10	-8.467961e-10	-0.04778703	-0.005859706	3.655171e-09	2.583029e-08	0.01536304	-0.002341809
	0.01519284	-0.003166473	3.655171e-09	2.583029e-08	-0.04816902	-0.007042993	1.285811e-09	5.748758e-09
	2.192661e-10	8.824824e-10	0.01536304	-0.002341809	1.285811e-09	5.748758e-09	-0.04800149	-0.005708485
3e+08	-0.04800081	-0.004010663	-6.033938e-10	-8.041496e-10	0.01456938	-0.003930528	3.270756e-10	8.772864e-10
	-6.033938e-10	-8.041496e-10	-0.04775852	-0.002609207	4.00353e-09	2.659619e-08	0.01479392	-0.003099778
	0.01456938	-0.003930528	4.00353e-09	2.659619e-08	-0.04821759	-0.00379118	1.614682e-09	5.827651e-09
	3.270756e-10	8.772864e-10	0.01479392	-0.003099778	1.614682e-09	5.827651e-09	-0.04796207	-0.002440229
3.1e+08	-0.04767929	-0.0008235696	-6.475591e-10	-7.519171e-10	0.01384934	-0.004608908	4.357464e-10	8.57765e-10
	-6.475591e-10	-7.519171e-10	-0.04734589	0.0005852393	4.357423e-09	2.732547e-08	0.01412829	-0.003779143
	0.01384934	-0.004608908	4.357423e-09	2.732547e-08	-0.04788096	-0.000585165	1.948377e-09	5.867045e-09
	4.357464e-10	8.57765e-10	0.01412829	-0.003779143	1.948377e-09	5.867045e-09	-0.0475364	0.0007705469
3.2e+08	-0.04698429	0.002274223	-6.811849e-10	-6.914021e-10	0.01304422	-0.005190281	5.433347e-10	8.237189e-10
	-6.811849e-10	-6.914021e-10	-0.04656035	0.003678201	4.712151e-09	2.801685e-08	0.01337669	-0.004368679
	0.01304422	-0.005190281	4.712151e-09	2.801685e-08	-0.04716895	0.002529654	2.282135e-09	5.865469e-09
	5.433347e-10	8.237189e-10	0.01337669	-0.004368679	2.282135e-09	5.865469e-09	-0.04673592	0.003878139
3.3e+08	-0.0459307	0.005239209	-7.026216e-10	-6.242727e-10	0.01216682	-0.005664825	6.478844e-10	7.752199e-10
	-7.026216e-10	-6.242727e-10	-0.04541845	0.006626091	5.062777e-09	2.866969e-08	0.01255095	-0.004858543
	0.01216682	-0.005664825	5.062777e-09	2.866969e-08	-0.04609666	0.005509528	2.610896e-09	5.821981e-09
	6.478844e-10	7.752199e-10	0.01255095	-0.004858543	2.610896e-09	5.821981e-09	-0.04557738	0.006838714
3.4e+08	-0.04453839	0.00803011	-7.105064e-10	-5.525201e-10	0.01123106	-0.006024375	7.474661e-10	7.126049e-10
	-7.105064e-10	-5.525201e-10	-0.04394176	0.009387783	5.404201e-09	2.9284e-08	0.01166398	-0.005240415
	0.01123106	-0.006024375	5.404201e-09	2.9284e-08	-0.04468426	0.008312969	2.929348e-09	5.736228e-09
	7.474661e-10	7.126049e-10	0.01166398	-0.005240415	2.929348e-09	5.736228e-09	-0.04408262	0.009610928
3.5e+08	-0.04283193	0.01060843	-7.038288e-10	-4.784041e-10	0.01025174	-0.006262541	8.402134e-10	6.364653e-10
	-7.038288e-10	-4.784041e-10	-0.04215652	0.01192516	5.731256e-09	2.986047e-08	0.01072964	-0.005507618
	0.01025174	-0.006262541	5.731256e-09	2.986047e-08	-0.0429566	0.01090131	3.231984e-09	5.608495e-09
	8.402134e-10	6.364653e-10	0.01072964	-0.005507618	3.231984e-09	5.608495e-09	-0.04227819	0.01215648
3.6e+08	-0.04084023	0.01293898	-6.819821e-10	-4.043826e-10	0.009244354	-0.006374811	9.243552e-10	5.476312e-10
	-6.819821e-10	-4.043826e-10	-0.04009328	0.01420364	6.038791e-09	3.04005e-08	0.009762455	-0.005655211
	0.009244354	-0.006374811	6.038791e-09	3.04005e-08	-0.04094291	0.01323922	3.513169e-09	5.439767e-09
	9.243552e-10	5.476312e-10	0.009762455	-0.005655211	3.513169e-09	5.439767e-09	-0.04019492	0.01444066
3.7e+08	-0.03859606	0.01499036	-6.448015e-10	-3.330335e-10	0.008224823	-0.006358611	9.982444e-10	4.471512e-10
	-6.448015e-10	-3.330335e-10	-0.03778639	0.01619267	6.321775e-09	3.090621e-08	0.008777467	-0.005680071
	0.008224823	-0.006358611	6.321775e-09	3.090621e-08	-0.0386763	0.0152952	3.767229e-09	5.231771e-09
	9.982444e-10	4.471512e-10	0.008777467	-0.005680071	3.767229e-09	5.231771e-09	-0.0378675	0.0164328
3.8e+08	-0.03613562	0.01673538	-5.925842e-10	-2.669674e-10	0.007209289	-0.006213357	1.060382e-09	3.362701e-10
	-5.925842e-10	-2.669674e-10	-0.03527351	0.01786611	6.575393e-09	3.138042e-08	0.007789988	-0.005580935
	0.007209289	-0.006213357	6.575393e-09	3.138042e-08	-0.03619332	0.01704201	3.988541e-09	4.987014e-09
	1.060382e-09	3.362701e-10	0.007789988	-0.005580935	3.988541e-09	4.987014e-09	-0.03533394	0.01810669
3.9e+08	-0.03349797	0.0181514	-5.260917e-10	-2.087386e-10	0.006213856	-0.005940463	1.109434e-09	2.164038e-10
	-5.260917e-10	-2.087386e-10	-0.03259507	0.01920257	6.795144e-09	3.182664e-08	0.006815376	-0.005358422
	0.006213856	-0.005940463	6.795144e-09	3.182664e-08	-0.03353339	0.01845699	4.171647e-09	4.708814e-09
	1.109434e-09	2.164038e-10	0.006815376	-0.005358422	4.171647e-09	4.708814e-09	-0.03263499	0.01944094
4e+08	-0.03072452	0.01922066	-4.465337e-10	-1.60757e-10	0.005254346	-0.00554333	1.14425e-09	8.911532e-11
	-4.465337e-10	-1.60757e-10	-0.02979364	0.02018576	6.976943e-09	3.224901e-08	0.005868811	-0.005015034
	0.005254346	-0.00554333	6.976943e-09	3.224901e-08	-0.03073827	0.01952242	4.311374e-09	4.401304e-09
	1.14425e-09	8.911532e-11	0.005868811	-0.005015034	4.311374e-09	4.401304e-09	-0.02981359	0.02041928
4.1e+08	-0.02785837	0.01993049	-3.555332e-10	-1.252042e-10	0.004346064	-0.0050273	1.163868e-09	-4.391074e-11
	-3.555332e-10	-1.252042e-10	-0.02691333	0.02080461	7.117208e-09	3.26523e-08	0.004965064	-0.004555123
	0.004346064	-0.0050273	7.117208e-09	3.26523e-08	-0.02785141	0.02022572	4.402958e-09	4.069428e-09
	1.163868e-09	-4.391074e-11	0.004965064	-0.004555123	4.402958e-09	4.069428e-09	-0.02691419	0.02103072
4.2e+08	-0.02494374	0.02027349	-2.550765e-10	-1.039603e-10	0.003503552	-0.004399585	1.167526e-09	-1.808912e-10
	-2.550765e-10	-1.039603e-10	-0.02399916	0.02105349	7.212955e-09	3.304179e-08	0.004118276	-0.003984831
	0.003503552	-0.004399585	7.212955e-09	3.304179e-08	-0.02491739	0.0205596	4.442179e-09	3.718904e-09
	1.167526e-09	-1.808912e-10	0.004118276	-0.003984831	4.442179e-09	3.718904e-09	-0.02398215	0.02126975
4.3e+08	-0.02202533	0.02024759	-1.474483e-10	-9.854126e-11	0.002740374	-0.003669165	1.154662e-09	-3.199662e-10
	-1.474483e-10	-9.854126e-11	-0.0210964	0.02093222	7.261873e-09	3.342322e-08	0.003341741	-0.003312006
	0.002740374	-0.003669165	7.261873e-09	3.342322e-08	-0.02198122	0.02052216	4.425494e-09	3.356176e-09
	1.154662e-09	-3.199662e-10	0.003341741	-0.003312006	4.425494e-09	3.356176e-09	-0.02106303	0.02113633
4.4e+08	-0.01914765	0.01985608	-3.515629e-11	-1.100523e-10	0.002068889	-0.002846658	1.124918e-09	-4.59219e-10
	-3.515629e-11	-1.100523e-10	-0.01824988	0.02044604	7.262393e-09	3.38027e-08	0.002647697	-0.002546091
	0.002068889	-0.002846658	7.262393e-09	3.38027e-08	-0.01908774	0.02011691	4.350167e-09	2.988328e-09
	1.124918e-09	-4.59219e-10	0.002647697	-0.002546091	4.350167e-09	2.988328e-09	-0.01820198	0.02063593
4.5e+08	-0.01635443	0.01910753	7.915124e-11	-1.391583e-10	0.001500062	-0.001944166	1.07814e-09	-5.966942e-10
	7.915124e-11	-1.391583e-10	-0.01550341	0.01960557	7.213748e-09	3.418663e-08	0.00204714	-0.001697988
	0.001500062	-0.001944166	7.213748e-09	3.418663e-08	-0.01628094	0.01935266	4.214384e-09	2.622985e-09
	1.07814e-09	-5.966942e-10	0.00204714	-0.001697988	4.214384e-09	2.622985e-09	-0.01544307	0.01977939
4.6e+08	-0.01368796	0.01801569	1.927715e-10	-1.86072e-10	0.001043278	-0.0009750928	1.014378e-09	-7.304113e-10
	1.927715e-10	-1.86072e-10	-0.01289908	0.0184266	7.116011e-09	3.458154e-08	0.001549643	-0.0007798975
	0.001043278	-0.0009750928	7.116011e-09	3.458154e-08	-0.01360338	0.01824344	4.017358e-09	2.268195e-09
	1.014378e-09	-7.304113e-10	0.001549643	-0.0007798975	4.017358e-09	2.268195e-09	-0.0128286	0.0185828
4.7e+08	-0.01118851	0.01659923	3.030315e-10	-2.505602e-10	0.0007061909	4.605566e-05	9.338889e-10	-8.583853e-10
	3.030315e-10	-2.505602e-10	-0.0104767	0.01692982	6.970129e-09	3.499404e-08	0.001163203	0.0001948659
	0.0007061909	4.605566e-05	6.970129e-09	3.499404e-08	-0.01109554	0.01680824	3.759429e-09	1.932246e-09
	9.338889e-10	-8.583853e-10	0.001163203	0.0001948659	3.759429e-09	1.932246e-09	-0.01039862	0.01706714
