!$
! Info: Touchstone file created by Circ.  Input file=Tx_6in_Rx_100ohms_TxVia_10mils_RxVia_20mils.circ
!$
# Hz S RI R 50
0	0.006325042	4.411268e-26	1.108024e-10	1.272309e-28	4.539806e-05	6.689387e-24	-5.065544e-09	6.205487e-25
	1.108143e-10	1.274213e-28	0.00632571	6.035488e-26	5.470814e-10	2.898313e-27	4.348519e-05	8.959574e-24
	4.409689e-05	6.517933e-24	5.470197e-10	2.905506e-27	0.00634037	4.621344e-26	-9.191148e-09	1.139509e-24
	-5.064657e-09	6.204402e-25	4.494226e-05	9.22155e-24	-9.191343e-09	1.139532e-24	0.006331324	5.758854e-26
1e+07	0.009062959	0.004331437	5.22524e-11	-2.12669e-11	0.0003510807	0.001181197	-8.065657e-09	1.663251e-08
	5.225243e-11	-2.12672e-11	0.009156166	0.004326354	6.94488e-10	1.08295e-09	0.0003491323	0.001179715
	0.0003510367	0.0011812	6.944879e-10	1.08295e-09	0.00917309	0.004328967	-9.451128e-09	1.632852e-08
	-8.065656e-09	1.663251e-08	0.0003491648	0.001179704	-9.451128e-09	1.632852e-08	0.009078707	0.004334161
2e+07	0.01161835	0.006598328	4.662139e-11	-2.025151e-11	0.0004803553	0.002441589	-7.505245e-09	1.306274e-08
	4.66212e-11	-2.025163e-11	0.01168417	0.006555182	8.98876e-10	1.906133e-09	0.0004730371	0.002439506
	0.0004803452	0.002441617	8.988762e-10	1.906133e-09	0.01170729	0.006559053	-9.181107e-09	1.340669e-08
	-7.505245e-09	1.306274e-08	0.0004730345	0.002439484	-9.181106e-09	1.340669e-08	0.011631	0.006602624
3e+07	0.01383853	0.007885783	6.089322e-11	-4.833175e-11	0.0007690177	0.003568352	-4.629291e-09	1.261694e-08
	6.089318e-11	-4.833171e-11	0.01387795	0.007829576	1.017794e-09	2.671804e-09	0.0007530839	0.003567125
	0.0007690183	0.003568356	1.017794e-09	2.671804e-09	0.01391103	0.007833207	-5.918964e-09	1.360775e-08
	-4.629291e-09	1.261694e-08	0.0007530788	0.003567122	-5.918964e-09	1.360775e-08	0.01384693	0.007893493
4e+07	0.0159142	0.008693964	6.359846e-11	-8.085451e-11	0.001214944	0.004614428	-2.222772e-09	1.185008e-08
	6.359844e-11	-8.085455e-11	0.01592628	0.008632822	1.111601e-09	3.436511e-09	0.001187409	0.004616009
	0.00121494	0.004614426	1.111601e-09	3.436511e-09	0.01597279	0.008633868	-3.230488e-09	1.309803e-08
	-2.222772e-09	1.185008e-08	0.001187409	0.00461601	-3.230488e-09	1.309803e-08	0.01591659	0.008704186
5e+07	0.01789837	0.009144057	6.493125e-11	-1.089569e-10	0.001888537	0.005544505	-6.670916e-10	1.114513e-08
	6.493121e-11	-1.089569e-10	0.01788197	0.009084039	1.201578e-09	4.185204e-09	0.00184677	0.005551263
	0.001888535	0.005544504	1.201578e-09	4.185204e-09	0.01794481	0.00907946	-1.572948e-09	1.248071e-08
	-6.670916e-10	1.114513e-08	0.00184677	0.005551263	-1.572948e-09	1.248071e-08	0.01789162	0.009157716
6e+07	0.0198061	0.009294729	7.882066e-11	-1.244864e-10	0.002657341	0.006375358	-3.673514e-11	1.09254e-08
	7.882075e-11	-1.244864e-10	0.01976035	0.009241351	1.296542e-09	4.904786e-09	0.002599205	0.006390208
	0.002657346	0.006375356	1.296542e-09	4.904786e-09	0.01984177	0.00922761	-1.028115e-09	1.215708e-08
	-3.673515e-11	1.09254e-08	0.002599202	0.006390209	-1.028115e-09	1.215708e-08	0.01978805	0.009313848
7e+07	0.0216373	0.009181486	1.622441e-10	-6.093803e-11	0.003509983	0.007098175	-1.252552e-09	1.153298e-08
	1.622444e-10	-6.09381e-11	0.02156183	0.009140109	1.447606e-09	5.580147e-09	0.003433856	0.007124372
	0.003509993	0.007098168	1.447606e-09	5.580147e-09	0.02166336	0.009113333	-2.255329e-09	1.204906e-08
	-1.252552e-09	1.153298e-08	0.003433851	0.007124374	-2.255329e-09	1.204906e-08	0.02160645	0.009207987
8e+07	0.0233852	0.008830227	3.696101e-10	-1.507606e-09	0.004433287	0.007704419	-7.43192e-09	8.686349e-09
	3.696105e-10	-1.507606e-09	0.02328025	0.008806202	1.651053e-09	6.503261e-09	0.004338086	0.007745491
	0.004433297	0.007704409	1.651053e-09	6.503261e-09	0.02340274	0.00876231	-6.285695e-09	9.386731e-09
	-7.43192e-09	8.686349e-09	0.004338081	0.007745495	-6.285694e-09	9.386731e-09	0.02334003	0.008865995
9e+07	0.02504053	0.008263316	1.017169e-10	-3.114092e-10	0.005412325	0.008186184	-3.992339e-09	1.548471e-10
	1.017173e-10	-3.114097e-10	0.02490712	0.0082621	1.475916e-09	7.253002e-09	0.005297541	0.008245865
	0.005412332	0.008186175	1.475916e-09	7.253002e-09	0.02505074	0.008196913	-4.736494e-09	2.022765e-09
	-3.992339e-09	1.548471e-10	0.005297538	0.008245868	-4.736494e-09	2.022765e-09	0.0249794	0.008310634
1e+08	0.0265995	0.007509523	2.032107e-11	-2.816015e-10	0.006427886	0.008533	-2.665463e-10	-1.527036e-10
	2.032107e-11	-2.816015e-10	0.02644028	0.007537593	1.42026e-09	7.832521e-09	0.006293602	0.008615161
	0.006427886	0.008533	1.42026e-09	7.832521e-09	0.02660451	0.007446926	-7.735789e-10	7.903014e-10
	-2.665463e-10	-1.527036e-10	0.006293602	0.008615161	-7.735789e-10	7.903014e-10	0.02652098	0.007571319
1.1e+08	0.02807651	0.006523823	1.161801e-11	-3.199813e-10	0.007451531	0.008766322	-3.147263e-10	-1.209427e-10
	1.161801e-11	-3.199813e-10	0.02789693	0.006582648	1.441321e-09	8.571766e-09	0.007298115	0.008874487
	0.00745153	0.008766322	1.441321e-09	8.571766e-09	0.02808232	0.006461105	-8.830989e-10	9.790907e-10
	-3.147263e-10	-1.209427e-10	0.007298115	0.008874487	-8.830989e-10	9.790907e-10	0.02798063	0.006604747
1.2e+08	0.02939277	0.005351582	-4.552532e-13	-3.54982e-10	0.008496001	0.008878059	-3.59215e-10	-8.284857e-11
	-4.55254e-13	-3.54982e-10	0.02919331	0.005442738	1.458593e-09	9.318202e-09	0.00832506	0.00901632
	0.008496001	0.008878059	1.458593e-09	9.318202e-09	0.0293968	0.005286106	-9.835463e-10	1.194169e-09
	-3.59215e-10	-8.284857e-11	0.00832506	0.00901632	-9.835463e-10	1.194169e-09	0.02928006	0.005454628
1.3e+08	0.03054549	0.004025232	-1.546229e-11	-3.882683e-10	0.009541623	0.008861302	-3.993106e-10	-3.693942e-11
	-1.546229e-11	-3.882683e-10	0.03032794	0.004151552	1.47391e-09	1.00721e-08	0.009355368	0.009033408
	0.009541623	0.008861303	1.47391e-09	1.00721e-08	0.03054611	0.003956331	-1.070586e-09	1.432413e-09
	-3.993106e-10	-3.693942e-11	0.009355368	0.009033408	-1.070586e-09	1.432413e-09	0.03041693	0.004153457
1.4e+08	0.03152649	0.002567284	-3.315135e-11	-4.197583e-10	0.01057151	0.008715972	-4.337486e-10	1.663822e-11
	-3.315135e-11	-4.197583e-10	0.03129321	0.002731709	1.489283e-09	1.083362e-08	0.01037271	0.008925298
	0.01057151	0.008715972	1.489283e-09	1.083362e-08	0.03152238	0.002494966	-1.140243e-09	1.691745e-09
	-4.337486e-10	1.663822e-11	0.01037271	0.008925298	-1.140243e-09	1.691745e-09	0.03138351	0.002723742
1.5e+08	0.0323277	0.0009992067	-5.32906e-11	-4.492467e-10	0.01156941	0.008444694	-4.612502e-10	7.727458e-11
	-5.32906e-11	-4.492467e-10	0.03208163	0.001204547	1.506575e-09	1.160263e-08	0.01136136	0.008694201
	0.01156941	0.008444694	1.506575e-09	1.160263e-08	0.03231781	0.0009238492	-1.188883e-09	1.969628e-09
	-4.612502e-10	7.727458e-11	0.01136136	0.008694201	-1.188883e-09	1.969628e-09	0.03217224	0.00118685
1.6e+08	0.03294215	-0.0006575902	-7.563174e-11	-4.764937e-10	0.01251976	0.008052302	-4.806005e-10	1.440862e-10
	-7.563174e-11	-4.764937e-10	0.03268672	-0.000408784	1.527497e-09	1.237877e-08	0.01230622	0.008344479
	0.01251976	0.008052302	1.527497e-09	1.237877e-08	0.03292565	-0.0007353879	-1.213249e-09	2.263031e-09
	-4.806005e-10	1.440862e-10	0.01230622	0.008344479	-1.213249e-09	2.263031e-09	0.03277667	-0.000436017
1.7e+08	0.03336433	-0.002381487	-9.990687e-11	-5.012673e-10	0.0134078	0.007545614	-4.907003e-10	2.159602e-10
	-9.990687e-11	-5.012673e-10	0.03310346	-0.002087041	1.553601e-09	1.316142e-08	0.01319295	0.007882419
	0.0134078	0.007545614	1.553601e-09	1.316142e-08	0.03334061	-0.002460989	-1.210543e-09	2.568446e-09
	-4.907003e-10	2.159602e-10	0.01319295	0.007882419	-1.210543e-09	2.568446e-09	0.03319179	-0.002123545
1.8e+08	0.03359053	-0.004150634	-1.258319e-10	-5.233574e-10	0.01421977	0.006933265	-4.906076e-10	2.91584e-10
	-1.258319e-10	-5.233574e-10	0.03332853	-0.003808855	1.586271e-09	1.394978e-08	0.01400813	0.00731607
	0.01421977	0.006933265	1.586271e-09	1.394978e-08	0.0335591	-0.004231023	-1.178493e-09	2.88195e-09
	-4.906076e-10	2.91584e-10	0.01400813	0.00731607	-1.178493e-09	2.88195e-09	0.03341433	-0.003854281
1.9e+08	0.03361895	-0.005943054	-1.531123e-10	-5.425804e-10	0.01494316	0.006225548	-4.795726e-10	3.694759e-10
	-1.531123e-10	-5.425804e-10	0.03336054	-0.005552811	1.626713e-09	1.474288e-08	0.01473953	0.006655083
	0.01494316	0.006225548	1.626713e-09	1.474288e-08	0.0335795	-0.006023457	-1.115411e-09	3.199276e-09
	-4.795726e-10	3.694759e-10	0.01473953	0.006655083	-1.115411e-09	3.199276e-09	0.03344289	-0.005606731
2e+08	0.0334499	-0.007736822	-1.814482e-10	-5.587781e-10	0.01556682	0.005434236	-4.570673e-10	4.480174e-10
	-1.814482e-10	-5.587781e-10	0.03320003	-0.007297623	1.675941e-09	1.553958e-08	0.01537618	0.005910548
	0.01556682	0.005434236	1.675941e-09	1.553958e-08	0.03340222	-0.007816328	-1.020244e-09	3.515904e-09
	-4.570673e-10	4.480174e-10	0.01537618	0.005910548	-1.020244e-09	3.515904e-09	0.0332781	-0.007359512
2.1e+08	0.03308577	-0.009510248	-2.105376e-10	-5.718128e-10	0.01608117	0.004572392	-4.228102e-10	5.254911e-10
	-2.105376e-10	-5.718128e-10	0.03284961	-0.009022298	1.734769e-09	1.633862e-08	0.01590859	0.005094813
	0.01608117	0.004572392	1.734769e-09	1.633862e-08	0.0330298	-0.009587922	-8.926093e-10	3.827147e-09
	-4.228102e-10	5.254911e-10	0.01590859	0.005094813	-8.926093e-10	3.827147e-09	0.0329226	-0.009091548
2.2e+08	0.03253116	-0.0112421	-2.400764e-10	-5.815614e-10	0.01647834	0.003654166	-3.767831e-10	6.00121e-10
	-2.400764e-10	-5.815614e-10	0.03231393	-0.01070634	1.803796e-09	1.713865e-08	0.01632888	0.004221294
	0.01647834	0.003654166	1.803796e-09	1.713865e-08	0.03246692	-0.01131699	-7.328108e-10	4.128262e-09
	-3.767831e-10	6.00121e-10	0.01632888	0.004221294	-7.328108e-10	4.128262e-09	0.03238111	-0.01078225
2.3e+08	0.03179275	-0.01291182	-2.697549e-10	-5.879097e-10	0.01675226	0.002694573	-3.192422e-10	6.701164e-10
	-2.697549e-10	-5.879097e-10	0.03159967	-0.01232995	1.883408e-09	1.793826e-08	0.01663086	0.003304265
	0.01675226	0.002694573	1.883408e-09	1.793826e-08	0.0317204	-0.01298296	-5.418459e-10	4.414544e-09
	-3.192422e-10	6.701164e-10	0.01663086	0.003304266	-5.418459e-10	4.414544e-09	0.0316604	-0.01241174
2.4e+08	0.03087933	-0.01449974	-2.992538e-10	-5.907468e-10	0.01689878	0.001709259	-2.507193e-10	7.337163e-10
	-2.992538e-10	-5.907468e-10	0.03071544	-0.01387426	1.973769e-09	1.8736e-08	0.01681017	0.002358645
	0.01689878	0.001709259	1.973769e-09	1.8736e-08	0.03079913	-0.01456618	-3.213933e-10	4.68143e-09
	-2.507193e-10	7.337163e-10	0.01681017	0.002358645	-3.213933e-10	4.68143e-09	0.03076917	-0.01396105
2.5e+08	0.02980165	-0.01598735	-3.282339e-10	-5.899634e-10	0.01691572	0.0007142653	-1.720176e-10	7.89235e-10
	-3.282339e-10	-5.899634e-10	0.02967175	-0.01532146	2.074826e-09	1.953041e-08	0.0168643	0.001399769
	0.01691572	0.0007142653	2.074826e-09	1.953041e-08	0.029714	-0.01604813	-7.378418e-11	4.924596e-09
	-1.720176e-10	7.89235e-10	0.0168643	0.001399769	-7.378418e-11	4.924596e-09	0.02971804	-0.01541233
2.6e+08	0.02857234	-0.01735741	-3.563267e-10	-5.854518e-10	0.01680291	-0.0002742208	-8.419695e-11	8.351058e-10
	-3.563267e-10	-5.854518e-10	0.02848087	-0.01665509	2.186319e-09	2.032007e-08	0.01679264	0.0004431549
	0.01680291	-0.0002742207	2.186319e-09	2.032007e-08	0.02847774	-0.01741162	1.980383e-10	5.140052e-09
	-8.419695e-11	8.351058e-10	0.01679264	0.0004431549	1.980383e-10	5.140052e-09	0.02851938	-0.01674904
2.7e+08	0.02720577	-0.01859426	-3.831233e-10	-5.771117e-10	0.01656216	-0.001240115	1.144612e-11	8.699206e-10
	-3.831233e-10	-5.771117e-10	0.02715665	-0.01786014	2.307784e-09	2.110362e-08	0.01659651	-0.0004957249
	0.01656216	-0.001240115	2.307784e-09	2.110362e-08	0.02710484	-0.01864102	4.905747e-10	5.324223e-09
	1.144612e-11	8.699206e-10	0.01659651	-0.0004957249	4.905747e-10	5.324223e-09	0.02718719	-0.01795615
2.8e+08	0.02571784	-0.0196839	-4.081638e-10	-5.648573e-10	0.01619729	-0.002167681	1.134072e-10	8.924674e-10
	-4.081638e-10	-5.648573e-10	0.02571444	-0.01892324	2.438574e-09	2.187975e-08	0.0162791	-0.001401682
	0.01619729	-0.002167681	2.438574e-09	2.187975e-08	0.02561135	-0.01972238	7.998341e-10	5.474022e-09
	1.134072e-10	8.924674e-10	0.0162791	-0.001401682	7.998341e-10	5.474022e-09	0.02573694	-0.01902025
2.9e+08	0.02412584	-0.0206142	-4.309286e-10	-5.486319e-10	0.01571402	-0.003041775	2.200073e-10	9.017597e-10
	-4.309286e-10	-5.486319e-10	0.02417084	-0.01983281	2.577869e-09	2.264728e-08	0.01584543	-0.00226004
	0.01571402	-0.003041775	2.577869e-09	2.264728e-08	0.02401463	-0.02064366	1.121411e-09	5.586916e-09
	2.200073e-10	9.017597e-10	0.01584543	-0.00226004	1.121411e-09	5.586916e-09	0.02418537	-0.01992974
3e+08	0.02244821	-0.02137503	-4.508321e-10	-5.284256e-10	0.01511992	-0.003848074	3.294305e-10	8.970611e-10
	-4.508321e-10	-5.284256e-10	0.02254353	-0.02057916	2.724701e-09	2.340514e-08	0.01530232	-0.003056854
	0.01511992	-0.003848074	2.724701e-09	2.340514e-08	0.02233327	-0.02139481	1.450567e-09	5.66097e-09
	3.294305e-10	8.970611e-10	0.01530232	-0.003056854	1.450567e-09	5.66097e-09	0.0225503	-0.02067498
3.1e+08	0.02070436	-0.02195837	-4.672215e-10	-5.042935e-10	0.01442426	-0.004573304	4.397664e-10	8.779019e-10
	-4.672215e-10	-5.042935e-10	0.02085108	-0.02115463	2.877966e-09	2.41524e-08	0.0146582	-0.003779124
	0.01442426	-0.004573304	2.877966e-09	2.41524e-08	0.02058673	-0.02196793	1.782318e-09	5.694889e-09
	4.397664e-10	8.779019e-10	0.0146582	-0.003779124	1.782318e-09	5.694889e-09	0.02085044	-0.02124829
3.2e+08	0.01891436	-0.0223584	-4.793803e-10	-4.763815e-10	0.0136379	-0.005205436	5.490517e-10	8.440875e-10
	-4.793803e-10	-4.763815e-10	0.01911269	-0.02155364	3.036451e-09	2.488826e-08	0.01392308	-0.004414988
	0.0136379	-0.005205436	3.036451e-09	2.488826e-08	0.0187952	-0.02235731	2.111523e-09	5.688037e-09
	5.490517e-10	8.440875e-10	0.01392308	-0.004414988	2.111523e-09	5.688037e-09	0.01910512	-0.02164417
3.3e+08	0.01709877	-0.02257157	-4.865392e-10	-4.449489e-10	0.0127731	-0.005733878	6.553133e-10	7.957006e-10
	-4.865392e-10	-4.449489e-10	0.017348	-0.02177275	3.198853e-09	2.561209e-08	0.01310832	-0.004953906
	0.0127731	-0.005733878	3.198853e-09	2.561209e-08	0.01697931	-0.02255954	2.432975e-09	5.640443e-09
	6.553133e-10	7.957006e-10	0.01310832	-0.004953906	2.432975e-09	5.640443e-09	0.01733411	-0.02185923
3.4e+08	0.01527838	-0.02259662	-4.878915e-10	-4.1039e-10	0.01184336	-0.006149639	7.566101e-10	7.330947e-10
	-4.878915e-10	-4.1039e-10	0.01557683	-0.02181071	3.363795e-09	2.632341e-08	0.0122265	-0.005386817
	0.01184336	-0.006149639	3.363795e-09	2.632341e-08	0.01515988	-0.02257351	2.741487e-09	5.552806e-09
	7.566101e-10	7.330947e-10	0.0122265	-0.005386817	2.741487e-09	5.552806e-09	0.01555736	-0.0218923
3.5e+08	0.0134739	-0.02243462	-4.826175e-10	-3.73257e-10	0.01086317	-0.006445467	8.510705e-10	6.568819e-10
	-4.826175e-10	-3.73257e-10	0.01381895	-0.02166842	3.529849e-09	2.702193e-08	0.0112912	-0.005706275
	0.01086317	-0.006445467	3.529849e-09	2.702193e-08	0.01335767	-0.02240042	3.031976e-09	5.426472e-09
	8.510705e-10	6.568819e-10	0.0112912	-0.005706275	3.031976e-09	5.426472e-09	0.01379473	-0.02174439
3.6e+08	0.01170578	-0.02208889	-4.699132e-10	-3.342749e-10	0.00984785	-0.006615965	9.369269e-10	5.679148e-10
	-4.699132e-10	-3.342749e-10	0.01209385	-0.02134898	3.695554e-09	2.770748e-08	0.01031684	-0.005906566
	0.00984785	-0.006615965	3.695554e-09	2.770748e-08	0.01159312	-0.02204379	3.29954e-09	5.263417e-09
	9.369269e-10	5.679148e-10	0.01031684	-0.005906566	3.29954e-09	5.263417e-09	0.01206583	-0.0214187
3.7e+08	0.009993892	-0.02156503	-4.490265e-10	-2.943531e-10	0.00881324	-0.006657672	1.012546e-09	4.67264e-10
	-4.490265e-10	-2.943531e-10	0.01042049	-0.02085756	3.859428e-09	2.838011e-08	0.009318401	-0.00598379
	0.00881324	-0.006657672	3.859428e-09	2.838011e-08	0.009886134	-0.02150935	3.539532e-09	5.066208e-09
	1.012546e-09	4.67264e-10	0.009318401	-0.00598379	3.539532e-09	5.066208e-09	0.01038969	-0.02092053
3.8e+08	0.00835734	-0.02087079	-4.192967e-10	-2.545882e-10	0.007775513	-0.006569123	1.07645e-09	3.561922e-10
	-4.192967e-10	-2.545882e-10	0.008817111	-0.02020139	4.019991e-09	2.903998e-08	0.008311255	-0.005935926
	0.007775513	-0.006569123	4.019991e-09	2.903998e-08	0.008255762	-0.02080502	3.747622e-09	4.837967e-09
	1.07645e-09	3.561922e-10	0.008311255	-0.005935926	3.747622e-09	4.837967e-09	0.008784614	-0.02025725
3.9e+08	0.006814195	-0.02001598	-3.801962e-10	-2.162592e-10	0.006750901	-0.00635087	1.12734e-09	2.361269e-10
	-3.801962e-10	-2.162592e-10	0.007300961	-0.01938965	4.175773e-09	2.968747e-08	0.007310889	-0.005762857
	0.006750901	-0.00635087	4.175773e-09	2.968747e-08	0.006720029	-0.01994077	3.919859e-09	4.582325e-09
	1.12734e-09	2.361269e-10	0.007310889	-0.005762857	3.919859e-09	4.582325e-09	0.007267905	-0.01943816
4e+08	0.005381269	-0.01901233	-3.313748e-10	-1.808121e-10	0.005755449	-0.006005476	1.164102e-09	1.086324e-10
	-3.313748e-10	-1.808121e-10	0.005888137	-0.01843331	4.325332e-09	3.032307e-08	0.006332685	-0.005466376
	0.005755449	-0.006005476	4.325332e-09	3.032307e-08	0.005295685	-0.0189285	4.052714e-09	4.303373e-09
	1.164102e-09	1.086324e-10	0.006332685	-0.005466376	4.052714e-09	4.303373e-09	0.005855686	-0.01847441
4.1e+08	0.004073935	-0.01787336	-2.726999e-10	-1.498353e-10	0.004804766	-0.005537478	1.185823e-09	-2.461766e-11
	-2.726999e-10	-1.498353e-10	0.004593369	-0.01734504	4.467265e-09	3.094747e-08	0.005391687	-0.005050153
	0.004804766	-0.005537478	4.467265e-09	3.094747e-08	0.003998009	-0.01778188	4.143133e-09	4.005611e-09
	1.185823e-09	-2.461766e-11	0.005391687	-0.005050153	4.143133e-09	4.005611e-09	0.004562699	-0.0173788
4.2e+08	0.002905911	-0.01661422	-2.042948e-10	-1.250258e-10	0.003913782	-0.004953319	1.191785e-09	-1.618659e-10
	-2.042948e-10	-1.250258e-10	0.003429851	-0.01613901	4.600228e-09	3.156151e-08	0.004502371	-0.004519685
	0.003913782	-0.004953319	4.600228e-09	3.156151e-08	0.002840605	-0.01651617	4.188566e-09	3.693895e-09
	1.191785e-09	-1.618659e-10	0.004502371	-0.004519685	4.188566e-09	3.693895e-09	0.003402126	-0.01616566
4.3e+08	0.001889101	-0.0152514	-1.26571e-10	-1.081451e-10	0.003096521	-0.004261246	1.181473e-09	-3.012942e-10
	-1.26571e-10	-1.081451e-10	0.002409086	-0.01483073	4.722944e-09	3.216618e-08	0.003678422	-0.003882208
	0.003096521	-0.004261246	4.722944e-09	3.216618e-08	0.001835262	-0.01514802	4.187007e-09	3.373384e-09
	1.181473e-09	-3.012942e-10	0.003678422	-0.003882208	4.187007e-09	3.373384e-09	0.002385445	-0.01485064
4.4e+08	0.001033459	-0.01380264	-4.025284e-11	-1.009678e-10	0.002365876	-0.003471188	1.15457e-09	-4.410443e-10
	-4.025284e-11	-1.009678e-10	0.001540753	-0.01343682	4.834225e-09	3.276264e-08	0.002932528	-0.003146585
	0.002365876	-0.003471188	4.834225e-09	3.276264e-08	0.0009917819	-0.01369525	4.137016e-09	3.049484e-09
	1.15457e-09	-4.410443e-10	0.002932528	-0.003146585	4.137016e-09	3.049484e-09	0.001522284	-0.01345054
4.5e+08	0.0003468587	-0.0122866	5.360938e-11	-1.052233e-10	0.001733415	-0.002594602	1.110952e-09	-5.79235e-10
	5.360938e-11	-1.052233e-10	0.0008325934	-0.01197484	4.932987e-09	3.335218e-08	0.002276186	-0.002323173
	0.001733415	-0.002594602	4.932987e-09	3.335218e-08	0.0003178853	-0.01217663	4.037745e-09	2.727793e-09
	1.110952e-09	-5.79235e-10	0.002276186	-0.002323173	4.037745e-09	2.727793e-09	0.0008203188	-0.01198303
4.6e+08	-0.000164987	-0.01072269	1.536378e-10	-1.225353e-10	0.001209202	-0.001644294	1.050685e-09	-7.139769e-10
	1.536378e-10	-1.225353e-10	0.0002903297	-0.01046302	5.018268e-09	3.393628e-08	0.001719528	-0.001423663
	0.001209202	-0.001644294	5.018268e-09	3.393628e-08	-0.0001808906	-0.01061164	3.888962e-09	2.414045e-09
	1.050685e-09	-7.139769e-10	0.001719528	-0.001423663	3.888962e-09	2.414045e-09	0.0002851847	-0.01046649
4.7e+08	-0.0004985853	-0.009130753	2.581338e-10	-1.54355e-10	0.0008016337	-0.0006342274	9.74024e-10	-8.433829e-10
	2.581338e-10	-1.54355e-10	-8.239914e-05	-0.008920077	5.089253e-09	3.451652e-08	0.00127117	-0.0004609013
	0.0008016337	-0.0006342274	5.089253e-09	3.451652e-08	-0.0005012481	-0.009020189	3.691059e-09	2.114067e-09
	9.74024e-10	-8.433829e-10	0.00127117	-0.0004609013	3.691059e-09	2.114067e-09	-7.955574e-05	-0.008919726
