!$
! Info: Touchstone file created by Circ.  Input file=Tx_6in_Rx_100ohms_TxVia_10mils_RxVia_20mils.circ
!$
# Hz S RI R 50
0	0.006322853	5.258122e-26	-3.258156e-05	-4.492139e-26	4.605577e-05	7.911095e-24	-3.259479e-05	1.572689e-24
	-3.258156e-05	-4.431256e-26	0.00632571	6.035488e-26	-3.258125e-05	-3.484413e-26	4.348519e-05	8.959574e-24
	4.610382e-05	7.915719e-24	-3.258124e-05	-3.547671e-26	0.006337754	5.273192e-26	-3.258287e-05	1.738608e-25
	-3.259479e-05	1.572034e-24	4.494226e-05	9.22155e-24	-3.258286e-05	1.731005e-25	0.006331324	5.758854e-26
1e+07	0.008878213	0.004294453	-1.404713e-06	-6.406259e-06	0.0001369869	0.001146295	-1.035483e-06	-8.82756e-06
	-1.404713e-06	-6.406258e-06	0.009156166	0.004326354	-8.424546e-07	-1.876416e-06	0.0003491323	0.001179715
	0.0001369913	0.001146292	-8.424547e-07	-1.876416e-06	0.008551379	0.004462406	-2.021602e-06	-2.51648e-06
	-1.035483e-06	-8.82756e-06	0.0003491648	0.001179704	-2.021602e-06	-2.51648e-06	0.009078707	0.004334161
2e+07	0.01144338	0.006602065	-3.010121e-06	-7.950547e-08	0.0003473905	0.002297231	-9.060341e-07	-3.255556e-06
	-3.010121e-06	-7.950548e-08	0.01168417	0.006555182	-1.089673e-05	-1.410669e-05	0.0004730371	0.002439506
	0.0003473897	0.002297228	-1.089673e-05	-1.410669e-05	0.01135785	0.006996553	-1.356179e-05	-1.404637e-05
	-9.060341e-07	-3.255556e-06	0.0004730345	0.002439484	-1.356179e-05	-1.404637e-05	0.011631	0.006602624
3e+07	0.01367066	0.007901161	-4.853422e-06	-1.270114e-06	0.0006952087	0.003389235	-8.898493e-07	-1.890064e-06
	-4.853422e-06	-1.270114e-06	0.01387795	0.007829576	-1.974256e-05	-1.565253e-05	0.0007530839	0.003567125
	0.0006952087	0.003389235	-1.974256e-05	-1.565253e-05	0.01377542	0.008346044	-2.240699e-05	-1.52824e-05
	-8.898493e-07	-1.890064e-06	0.0007530788	0.003567122	-2.240699e-05	-1.52824e-05	0.01384693	0.007893493
4e+07	0.01575217	0.008715508	-6.35198e-06	-1.328495e-06	0.001172359	0.004420943	-8.611217e-07	-1.169218e-06
	-6.35198e-06	-1.328495e-06	0.01592628	0.008632822	-2.700943e-05	-1.415396e-05	0.001187409	0.004616009
	0.00117236	0.004420943	-2.700943e-05	-1.415396e-05	0.01601712	0.009153171	-2.964808e-05	-1.351422e-05
	-8.611217e-07	-1.169218e-06	0.001187409	0.00461601	-2.964808e-05	-1.351422e-05	0.01591659	0.008704186
5e+07	0.01774154	0.009169926	-7.57088e-06	-8.249246e-07	0.001769281	0.005379597	-8.12071e-07	-6.922549e-07
	-7.57088e-06	-8.249246e-07	0.01788197	0.009084039	-3.299363e-05	-1.085323e-05	0.00184677	0.005551263
	0.001769282	0.005379596	-3.299363e-05	-1.085323e-05	0.01814217	0.009564203	-3.558552e-05	-9.957285e-06
	-8.120711e-07	-6.922549e-07	0.00184677	0.005551263	-3.558552e-05	-9.957285e-06	0.01789162	0.009157716
6e+07	0.01965385	0.009323571	-8.532123e-06	3.604492e-08	0.002475281	0.006252444	-7.416237e-07	-3.389563e-07
	-8.532123e-06	3.604492e-08	0.01976035	0.009241351	-3.780211e-05	-6.264866e-06	0.002599205	0.006390208
	0.002475283	0.006252444	-3.780211e-05	-6.264865e-06	0.02016737	0.009647818	-4.03278e-05	-5.117924e-06
	-7.416237e-07	-3.389562e-07	0.002599202	0.006390209	-4.03278e-05	-5.117924e-06	0.01978805	0.009313848
7e+07	0.02148904	0.009212334	-9.237778e-06	1.156302e-06	0.003289077	0.007022694	-6.49253e-07	-6.225097e-08
	-9.237778e-06	1.156302e-06	0.02156183	0.009140109	-4.14415e-05	-6.545353e-07	0.003433856	0.007124372
	0.003289078	0.007022694	-4.14415e-05	-6.545352e-07	0.02209278	0.009445376	-4.389306e-05	7.348954e-07
	-6.49253e-07	-6.225095e-08	0.003433851	0.007124374	-4.389305e-05	7.348954e-07	0.02160645	0.009207987
8e+07	0.02324044	0.008862451	-9.676524e-06	2.484951e-06	0.004186241	0.007683836	-5.35703e-07	1.563054e-07
	-9.676524e-06	2.484951e-06	0.02328025	0.008806202	-4.386179e-05	5.835385e-06	0.004338086	0.007745491
	0.004186242	0.007683835	-4.386179e-05	5.835385e-06	0.02391072	0.008986344	-4.621543e-05	7.454979e-06
	-5.35703e-07	1.563054e-07	0.004338081	0.007745495	-4.621543e-05	7.454979e-06	0.02334003	0.008865995
9e+07	0.02489882	0.00829645	-9.817723e-06	4.008235e-06	0.005152128	0.008227967	-3.957365e-07	3.256629e-07
	-9.817723e-06	4.008235e-06	0.02490712	0.0082621	-4.491164e-05	1.320326e-05	0.005297541	0.008245865
	0.005152129	0.008227967	-4.491164e-05	1.320326e-05	0.0256092	0.008293923	-4.713604e-05	1.507443e-05
	-3.957365e-07	3.25663e-07	0.005297538	0.008245868	-4.713604e-05	1.507443e-05	0.0249794	0.008310634
1e+08	0.02646051	0.007543098	-9.487654e-06	5.878179e-06	0.006174178	0.008651135	-2.301893e-07	4.52803e-07
	-9.487654e-06	5.878179e-06	0.02644028	0.007537593	-4.377501e-05	2.222806e-05	0.006293602	0.008615161
	0.006174178	0.008651135	-4.377501e-05	2.222806e-05	0.02717028	0.007383595	-4.583714e-05	2.438733e-05
	-2.301893e-07	4.52803e-07	0.006293602	0.008615161	-4.583714e-05	2.438733e-05	0.02652098	0.007571319
1.1e+08	0.02793928	0.006557336	-8.228177e-06	7.05506e-06	0.007244121	0.008932474	-1.087434e-07	5.332978e-07
	-8.228177e-06	7.05506e-06	0.02789693	0.006582648	-3.81835e-05	2.80287e-05	0.007298115	0.008874487
	0.007244121	0.008932474	-3.81835e-05	2.80287e-05	0.02856814	0.006298643	-3.996156e-05	3.039539e-05
	-1.087434e-07	5.332978e-07	0.007298115	0.008874487	-3.996156e-05	3.039539e-05	0.02798063	0.006604747
1.2e+08	0.02925667	0.005385184	-7.96351e-06	6.932963e-06	0.008327094	0.009073127	-9.813378e-08	5.178799e-07
	-7.96351e-06	6.932963e-06	0.02919331	0.005442738	-3.373517e-05	3.154259e-05	0.00832506	0.00901632
	0.008327094	0.009073127	-3.373517e-05	3.154259e-05	0.02982045	0.005064222	-3.65855e-05	3.254788e-05
	-9.813378e-08	5.178799e-07	0.00832506	0.00901632	-3.65855e-05	3.254788e-05	0.02928006	0.005454628
1.3e+08	0.03041007	0.004059075	-7.692896e-06	6.913887e-06	0.00940875	0.009076492	-1.246229e-07	4.966924e-07
	-7.692896e-06	6.913887e-06	0.03032794	0.004151552	-3.272925e-05	3.113164e-05	0.009355368	0.009033408
	0.00940875	0.009076492	-3.272925e-05	3.113164e-05	0.0309132	0.003692014	-3.553775e-05	3.217708e-05
	-1.246229e-07	4.966924e-07	0.009355368	0.009033408	-3.553775e-05	3.217708e-05	0.03041693	0.004153457
1.4e+08	0.03139135	0.00260159	-7.393351e-06	6.950134e-06	0.01047298	0.008944908	-1.468892e-07	4.825881e-07
	-7.393351e-06	6.950134e-06	0.03129321	0.002731709	-3.158662e-05	3.103506e-05	0.01037271	0.008925298
	0.01047298	0.008944908	-3.158662e-05	3.103506e-05	0.03183653	0.002199906	-3.435357e-05	3.212828e-05
	-1.468892e-07	4.825881e-07	0.01037271	0.008925298	-3.435357e-05	3.212828e-05	0.03138351	0.002723742
1.5e+08	0.03219255	0.001034253	-7.075485e-06	7.017307e-06	0.01150373	0.008682233	-1.659333e-07	4.741402e-07
	-7.075485e-06	7.017307e-06	0.03208163	0.001204547	-3.035736e-05	3.112753e-05	0.01136136	0.008694201
	0.01150373	0.008682233	-3.035736e-05	3.112753e-05	0.03258203	0.0006070761	-3.3081e-05	3.227594e-05
	-1.659333e-07	4.741402e-07	0.01136136	0.008694201	-3.3081e-05	3.227594e-05	0.03217224	0.00118685
1.6e+08	0.03280674	-0.0006214808	-6.744949e-06	7.101552e-06	0.01248541	0.008294079	-1.824166e-07	4.703161e-07
	-6.744949e-06	7.101552e-06	0.03268672	-0.000408784	-2.906577e-05	3.133841e-05	0.01230622	0.008344479
	0.01248541	0.008294079	-2.906577e-05	3.133841e-05	0.03314275	-0.001066502	-3.174451e-05	3.254753e-05
	-1.824166e-07	4.703161e-07	0.01230622	0.008344479	-3.174451e-05	3.254753e-05	0.03277667	-0.000436017
1.7e+08	0.03322852	-0.002343953	-6.405259e-06	7.194184e-06	0.01340318	0.007787833	-1.968209e-07	4.70386e-07
	-6.405259e-06	7.194184e-06	0.03310346	-0.002087041	-2.77265e-05	3.162235e-05	0.01319295	0.007882419
	0.01340318	0.007787833	-2.77265e-05	3.162235e-05	0.03351333	-0.002800256	-3.035867e-05	3.289646e-05
	-1.968209e-07	4.70386e-07	0.01319295	0.007882419	-3.035867e-05	3.289646e-05	0.03319179	-0.002123545
1.8e+08	0.03345424	-0.004111292	-6.058812e-06	7.289448e-06	0.01424318	0.007172589	-2.094958e-07	4.738522e-07
	-6.058812e-06	7.289448e-06	0.03332853	-0.003808855	-2.634918e-05	3.194843e-05	0.01400813	0.00731607
	0.01424318	0.007172589	-2.634918e-05	3.194843e-05	0.03369028	-0.00457316	-2.893297e-05	3.329091e-05
	-2.094958e-07	4.738522e-07	0.01400813	0.00731607	-2.893297e-05	3.329091e-05	0.03341433	-0.003854281
1.9e+08	0.03348221	-0.005901514	-5.707116e-06	7.384007e-06	0.01499275	0.006459034	-2.206628e-07	4.804027e-07
	-5.707116e-06	7.384007e-06	0.03336054	-0.005552811	-2.494078e-05	3.229458e-05	0.01473953	0.006655083
	0.01499275	0.006459034	-2.494078e-05	3.229458e-05	0.03367201	-0.006363935	-2.747417e-05	3.370812e-05
	-2.206628e-07	4.804027e-07	0.01473953	0.006655083	-2.747417e-05	3.370812e-05	0.03344289	-0.005606731
2e+08	0.03331279	-0.007692693	-5.351442e-06	7.474877e-06	0.01564063	0.005659297	-2.304846e-07	4.898226e-07
	-5.351442e-06	7.474877e-06	0.03320003	-0.007297623	-2.350659e-05	3.264452e-05	0.01537618	0.005910548
	0.01564063	0.005659297	-2.350659e-05	3.264452e-05	0.03345903	-0.008151257	-2.598735e-05	3.413128e-05
	-2.304846e-07	4.898226e-07	0.01537618	0.005910548	-2.598735e-05	3.413128e-05	0.0332781	-0.007359512
2.1e+08	0.03294848	-0.009463157	-4.993079e-06	7.559494e-06	0.01617714	0.004786775	-2.390508e-07	5.019924e-07
	-4.993079e-06	7.559494e-06	0.03284961	-0.009022298	-2.205101e-05	3.298598e-05	0.01590859	0.005094813
	0.01617714	0.004786775	-2.205101e-05	3.298598e-05	0.03305394	-0.00991399	-2.447666e-05	3.454764e-05
	-2.390508e-07	5.019924e-07	0.01590859	0.005094813	-2.447666e-05	3.454764e-05	0.0329226	-0.009091548
2.2e+08	0.03239392	-0.0111917	-4.632934e-06	7.636401e-06	0.01659431	0.003855935	-2.46352e-07	5.168655e-07
	-4.632934e-06	7.636401e-06	0.03231393	-0.01070634	-2.057769e-05	3.330951e-05	0.01632888	0.004221294
	0.01659431	0.003855935	-2.057769e-05	3.330951e-05	0.03246148	-0.0116314	-2.294551e-05	3.494737e-05
	-2.46352e-07	5.168655e-07	0.01632888	0.004221294	-2.294551e-05	3.494737e-05	0.03238111	-0.01078225
2.3e+08	0.03165588	-0.0128578	-4.27175e-06	7.704538e-06	0.01688598	0.002882099	-2.523018e-07	5.344304e-07
	-4.27175e-06	7.704538e-06	0.03159967	-0.01232995	-1.908976e-05	3.360772e-05	0.01663086	0.003304265
	0.01688598	0.002882099	-1.908976e-05	3.360772e-05	0.03168849	-0.01328341	-2.139683e-05	3.532269e-05
	-2.523018e-07	5.344304e-07	0.01663086	0.003304266	-2.139683e-05	3.532269e-05	0.0316604	-0.01241174
2.4e+08	0.0307432	-0.01444185	-3.910173e-06	7.763138e-06	0.01704797	0.001881214	-2.567488e-07	5.54689e-07
	-3.910173e-06	7.763138e-06	0.03071544	-0.01387426	-1.759015e-05	3.387479e-05	0.01681017	0.002358645
	0.01704797	0.001881214	-1.759015e-05	3.387479e-05	0.03074386	-0.0148508	-1.983332e-05	3.566744e-05
	-2.567488e-07	5.54689e-07	0.01681017	0.002358645	-1.983332e-05	3.566744e-05	0.03076917	-0.01396105
2.5e+08	0.02966669	-0.01592536	-3.548736e-06	7.811632e-06	0.01707806	0.0008696084	-2.594769e-07	5.776385e-07
	-3.548736e-06	7.811632e-06	0.02967175	-0.01532146	-1.608148e-05	3.410602e-05	0.0168643	0.001399769
	0.01707806	0.0008696084	-1.608148e-05	3.410602e-05	0.02963845	-0.01631548	-1.825739e-05	3.597657e-05
	-2.594769e-07	5.776385e-07	0.0168643	0.001399769	-1.825739e-05	3.597657e-05	0.02971804	-0.01541233
2.6e+08	0.02843902	-0.01729119	-3.187898e-06	7.849603e-06	0.01697607	-0.0001362482	-2.602181e-07	6.032559e-07
	-3.187898e-06	7.849603e-06	0.02848087	-0.01665509	-1.456621e-05	3.429766e-05	0.01679264	0.0004431549
	0.01697607	-0.0001362482	-1.456621e-05	3.429766e-05	0.02838495	-0.01766065	-1.667133e-05	3.624597e-05
	-2.602181e-07	6.032559e-07	0.01679264	0.0004431549	-1.667133e-05	3.624597e-05	0.02851938	-0.01674904
2.7e+08	0.0270746	-0.01852373	-2.828049e-06	7.876724e-06	0.01674383	-0.00112	-2.586583e-07	6.314849e-07
	-2.828049e-06	7.876724e-06	0.02715665	-0.01786014	-1.304665e-05	3.444657e-05	0.01659651	-0.0004957249
	0.01674383	-0.00112	-1.304665e-05	3.444657e-05	0.02699778	-0.01887103	-1.507724e-05	3.647218e-05
	-2.586583e-07	6.314849e-07	0.01659651	-0.0004957249	-1.507724e-05	3.647218e-05	0.02718719	-0.01795615
2.8e+08	0.02558935	-0.01960906	-2.469541e-06	7.892753e-06	0.0163852	-0.00206565	-2.54451e-07	6.622243e-07
	-2.469541e-06	7.892753e-06	0.02571444	-0.01892324	-1.152506e-05	3.455025e-05	0.0162791	-0.001401682
	0.0163852	-0.00206565	-1.152506e-05	3.455025e-05	0.02549287	-0.01993304	-1.347727e-05	3.665233e-05
	-2.54451e-07	6.622243e-07	0.0162791	-0.001401682	-1.347727e-05	3.665233e-05	0.02573694	-0.01902025
2.9e+08	0.02400058	-0.02053512	-2.112687e-06	7.897482e-06	0.01590596	-0.002957806	-2.472269e-07	6.953212e-07
	-2.112687e-06	7.897482e-06	0.02417084	-0.01983281	-1.000364e-05	3.46066e-05	0.01584543	-0.00226004
	0.01590596	-0.002957806	-1.000364e-05	3.46066e-05	0.02388749	-0.02083493	-1.187348e-05	3.678394e-05
	-2.472269e-07	6.953212e-07	0.01584543	-0.00226004	-1.187348e-05	3.678394e-05	0.02418537	-0.01992974
3e+08	0.02232673	-0.02129187	-1.757775e-06	7.890727e-06	0.01531376	-0.003781912	-2.366045e-07	7.305649e-07
	-1.757775e-06	7.890727e-06	0.02254353	-0.02057916	-8.484538e-06	3.461385e-05	0.01530232	-0.003056854
	0.01531376	-0.003781912	-8.484538e-06	3.461385e-05	0.02220003	-0.02156696	-1.026791e-05	3.686488e-05
	-2.366045e-07	7.305649e-07	0.01530232	-0.003056854	-1.026791e-05	3.686488e-05	0.0225503	-0.02067498
3.1e+08	0.02058718	-0.02187137	-1.405093e-06	7.872329e-06	0.01461798	-0.004524471	-2.222047e-07	7.676818e-07
	-1.405093e-06	7.872329e-06	0.02085108	-0.02115463	-6.969922e-06	3.457061e-05	0.0146582	-0.003779124
	0.01461798	-0.004524471	-6.969922e-06	3.457061e-05	0.02044984	-0.02212147	-8.662672e-06	3.689334e-05
	-2.222047e-07	7.676818e-07	0.0146582	-0.003779124	-8.662672e-06	3.689334e-05	0.02085044	-0.02124829
3.2e+08	0.01880203	-0.02226787	-1.054924e-06	7.842127e-06	0.0138296	-0.005173255	-2.036613e-07	8.063364e-07
	-1.054924e-06	7.842127e-06	0.01911269	-0.02155364	-5.461951e-06	3.447566e-05	0.01392308	-0.004414988
	0.0138296	-0.005173255	-5.461951e-06	3.447566e-05	0.01865689	-0.02249299	-7.059903e-06	3.686773e-05
	-2.036613e-07	8.063364e-07	0.01392308	-0.004414988	-7.059903e-06	3.686773e-05	0.01910512	-0.02164417
3.3e+08	0.01699178	-0.02247789	-7.075635e-07	7.799953e-06	0.01296102	-0.005717488	-1.806322e-07	8.46131e-07
	-7.075635e-07	7.799953e-06	0.017348	-0.02177275	-3.962794e-06	3.4328e-05	0.01310832	-0.004953906
	0.01296102	-0.005717488	-3.962794e-06	3.4328e-05	0.01684163	-0.02267832	-5.461781e-06	3.678661e-05
	-1.806322e-07	8.46131e-07	0.01310832	-0.004953906	-5.461781e-06	3.678661e-05	0.01733411	-0.02185923
3.4e+08	0.01517718	-0.02250026	-3.633327e-07	7.745656e-06	0.01202588	-0.006148012	-1.528132e-07	8.866079e-07
	-3.633327e-07	7.745656e-06	0.01557683	-0.02181071	-2.47468e-06	3.412687e-05	0.0122265	-0.005386817
	0.01202588	-0.006148012	-2.47468e-06	3.412687e-05	0.01502466	-0.02267651	-3.870594e-06	3.664883e-05
	-1.528132e-07	8.866079e-07	0.0122265	-0.005386817	-3.870594e-06	3.664883e-05	0.01555736	-0.0218923
3.5e+08	0.01337889	-0.0223361	-2.258052e-08	7.679073e-06	0.01103886	-0.006457432	-1.199463e-07	9.272556e-07
	-2.258052e-08	7.679073e-06	0.01381895	-0.02166842	-9.998729e-07	3.387165e-05	0.0112912	-0.005706275
	0.01103886	-0.006457432	-9.998729e-07	3.387165e-05	0.01322653	-0.02248893	-2.288705e-06	3.645335e-05
	-1.199463e-07	9.272556e-07	0.0112912	-0.005706275	-2.288705e-06	3.645335e-05	0.01379473	-0.02174439
3.6e+08	0.0116173	-0.02198882	3.142886e-07	7.600052e-06	0.01001542	-0.006640226	-8.183291e-08	9.675131e-07
	3.142886e-07	7.600052e-06	0.01209385	-0.02134898	4.593102e-07	3.356192e-05	0.01031684	-0.005906566
	0.01001542	-0.006640226	4.593102e-07	3.356192e-05	0.01146747	-0.02211919	-7.185816e-07	3.619935e-05
	-8.183291e-08	9.675131e-07	0.01031684	-0.005906566	-7.185816e-07	3.619935e-05	0.01206583	-0.0214187
3.7e+08	0.009912234	-0.02146404	6.468642e-07	7.508459e-06	0.00897161	-0.006692833	-3.833521e-08	1.006782e-06
	6.468642e-07	7.508459e-06	0.01042049	-0.02085756	1.9005e-06	3.319743e-05	0.009318401	-0.00598379
	0.00897161	-0.006692833	1.9005e-06	3.319743e-05	0.00976713	-0.02157313	8.372139e-07	3.588617e-05
	-3.833521e-08	1.006782e-06	0.009318401	-0.00598379	8.372139e-07	3.588617e-05	0.01038969	-0.02092053
3.8e+08	0.008282696	-0.02076957	9.746761e-07	7.404168e-06	0.007923784	-0.006613709	1.06109e-08	1.044433e-06
	9.746761e-07	7.404168e-06	0.008817111	-0.02020139	3.321271e-06	3.277805e-05	0.008311255	-0.005935926
	0.007923784	-0.006613709	3.321271e-06	3.277805e-05	0.00814435	-0.02085872	2.376015e-06	3.551334e-05
	1.06109e-08	1.044433e-06	0.008311255	-0.005935926	2.376015e-06	3.551334e-05	0.008784614	-0.02025725
3.9e+08	0.006746684	-0.01991526	1.297206e-06	7.287078e-06	0.006888369	-0.006403348	6.499221e-08	1.079814e-06
	1.297206e-06	7.287078e-06	0.007300961	-0.01938965	4.719139e-06	3.230386e-05	0.007310889	-0.005762857
	0.006888369	-0.006403347	4.719139e-06	3.230386e-05	0.00661693	-0.01998598	3.895055e-06	3.508058e-05
	6.49922e-08	1.079814e-06	0.007310889	-0.005762857	3.895055e-06	3.508058e-05	0.007267905	-0.01943816
4e+08	0.005320927	-0.01891286	1.613886e-06	7.157116e-06	0.005881604	-0.006064279	1.247149e-07	1.112267e-06
	1.613886e-06	7.157116e-06	0.005888137	-0.01843331	6.091564e-06	3.177508e-05	0.006332685	-0.005466376
	0.005881604	-0.006064279	6.091564e-06	3.177508e-05	0.005201399	-0.01896679	5.391469e-06	3.45878e-05
	1.247149e-07	1.112267e-06	0.006332685	-0.005466376	5.391469e-06	3.45878e-05	0.005855686	-0.01847441
4.1e+08	0.004020706	-0.01777592	1.924106e-06	7.014255e-06	0.00491929	-0.005601027	1.896024e-07	1.141132e-06
	1.924106e-06	7.014255e-06	0.004593369	-0.01734504	7.435964e-06	3.119212e-05	0.005391687	-0.005050153
	0.00491929	-0.005601027	7.435964e-06	3.119212e-05	0.003912825	-0.01781483	6.862316e-06	3.403515e-05
	1.896024e-07	1.141132e-06	0.005391687	-0.005050153	6.862316e-06	3.403515e-05	0.004562699	-0.0173788
4.2e+08	0.00285964	-0.01651955	2.227213e-06	6.858514e-06	0.004016547	-0.005020042	2.593957e-07	1.165766e-06
	2.227213e-06	6.858514e-06	0.003429851	-0.01613901	8.749715e-06	3.055558e-05	0.004502371	-0.004519685
	0.004016547	-0.005020042	8.749715e-06	3.055558e-05	0.002764615	-0.01654529	8.304588e-06	3.342299e-05
	2.593957e-07	1.165766e-06	0.004502371	-0.004519685	8.304588e-06	3.342299e-05	0.003402126	-0.01616566
4.3e+08	0.00184955	-0.01516028	2.522517e-06	6.68997e-06	0.003187581	-0.004329603	3.337549e-07	1.18555e-06
	2.522517e-06	6.68997e-06	0.002409086	-0.01483073	1.003017e-05	2.986626e-05	0.003678422	-0.003882208
	0.003187581	-0.004329603	1.003017e-05	2.986626e-05	0.001768363	-0.01517478	9.715225e-06	3.275194e-05
	3.337549e-07	1.18555e-06	0.003678422	-0.003882208	9.715225e-06	3.275194e-05	0.002385445	-0.01485064
4.4e+08	0.001000289	-0.0137158	2.809294e-06	6.508756e-06	0.002445464	-0.003539685	4.122639e-07	1.1999e-06
	2.809294e-06	6.508756e-06	0.001540753	-0.01343682	1.127464e-05	2.912512e-05	0.002932528	-0.003146585
	0.002445464	-0.003539685	1.127464e-05	2.912512e-05	0.0009337046	-0.01372103	1.109113e-05	3.202284e-05
	4.122639e-07	1.1999e-06	0.002932528	-0.003146585	1.109113e-05	3.202284e-05	0.001522284	-0.01345054
4.5e+08	0.0003196464	-0.01220476	3.086798e-06	6.315078e-06	0.001801931	-0.002661813	4.944341e-07	1.208281e-06
	3.086798e-06	6.315078e-06	0.0008325934	-0.01197484	1.248045e-05	2.833335e-05	0.002276186	-0.002323173
	0.001801931	-0.002661813	1.248045e-05	2.833335e-05	0.0002682007	-0.01220273	1.242919e-05	3.123679e-05
	4.944341e-07	1.208281e-06	0.002276186	-0.002323173	1.242919e-05	3.123679e-05	0.0008203188	-0.01198303
4.6e+08	-0.0001867609	-0.01064651	3.354268e-06	6.109217e-06	0.001267198	-0.001708879	5.797119e-07	1.210211e-06
	3.354268e-06	6.109217e-06	0.0002903297	-0.01046302	1.364489e-05	2.749237e-05	0.001719528	-0.001423663
	0.001267198	-0.001708879	1.364489e-05	2.749237e-05	-0.0002227472	-0.01063921	1.372632e-05	3.039516e-05
	5.797119e-07	1.210211e-06	0.001719528	-0.001423663	1.372632e-05	3.039516e-05	0.0002851847	-0.01046649
4.7e+08	-0.0005155404	-0.009060859	3.610935e-06	5.891523e-06	0.0008498066	-0.0006949436	6.674755e-07	1.205262e-06
	3.610935e-06	5.891523e-06	-8.239914e-05	-0.008920077	1.476515e-05	2.660388e-05	0.00127117	-0.0004609013
	0.0008498066	-0.0006949436	1.476515e-05	2.660388e-05	-0.0005359442	-0.009050265	1.497934e-05	2.94995e-05
	6.674755e-07	1.205262e-06	0.00127117	-0.0004609013	1.497934e-05	2.94995e-05	-7.955574e-05	-0.008919726
