!$
! Info: Touchstone file created by Circ.  Input file=Tx_6in_Rx_100ohms_TxVia_10mils_RxVia_20mils.circ
!$
# Hz S RI R 50
0	0.006326353	4.231892e-26	-1.743434e-11	4.103717e-27	4.387742e-05	6.54508e-24	-2.160613e-08	2.645969e-24
	-1.742009e-11	4.102701e-27	0.00632571	6.035488e-26	1.685453e-11	1.423662e-28	4.348519e-05	8.959574e-24
	4.198793e-05	6.452878e-24	1.681929e-11	1.427084e-28	0.006340424	4.40413e-26	1.74534e-08	7.453898e-27
	-2.160686e-08	2.646059e-24	4.494226e-05	9.22155e-24	1.745392e-08	7.452737e-27	0.006331324	5.758854e-26
1e+07	0.008534778	0.004455751	3.989913e-11	-4.499941e-11	0.000136657	0.001141114	-7.307763e-09	1.901602e-08
	3.989915e-11	-4.499972e-11	0.009156166	0.004326354	1.976161e-12	-7.35548e-11	0.0003491323	0.001179715
	0.0001366181	0.001141139	1.976102e-12	-7.355449e-11	0.008894554	0.00430045	-9.259978e-09	1.85499e-08
	-7.307763e-09	1.901602e-08	0.0003491648	0.001179704	-9.259978e-09	1.85499e-08	0.009078707	0.004334161
2e+07	0.01133295	0.006987125	5.229272e-11	-5.319713e-11	0.0003462839	0.002287091	-7.559841e-09	2.288689e-08
	5.229243e-11	-5.319736e-11	0.01168417	0.006555182	2.516144e-11	-1.702074e-10	0.0004730371	0.002439506
	0.0003462909	0.002287109	2.516163e-11	-1.702072e-10	0.01146284	0.006612594	-1.230264e-08	1.842309e-08
	-7.559841e-09	2.288689e-08	0.0004730345	0.002439484	-1.230264e-08	1.842309e-08	0.011631	0.006602624
3e+07	0.01374283	0.00833799	6.115161e-11	-1.176955e-10	0.0006927187	0.003374382	-2.832539e-09	1.789106e-08
	6.115155e-11	-1.176955e-10	0.01387795	0.007829576	-2.460355e-11	-1.95777e-10	0.0007530839	0.003567125
	0.0006927162	0.003374383	-2.460344e-11	-1.957771e-10	0.01369444	0.007915328	-9.198605e-09	2.11581e-08
	-2.832539e-09	1.789106e-08	0.0007530788	0.003567122	-9.198605e-09	2.11581e-08	0.01384693	0.007893493
4e+07	0.01597717	0.00914867	6.703393e-11	-1.725583e-10	0.001167879	0.00440166	-9.003972e-10	1.526541e-08
	6.703397e-11	-1.725583e-10	0.01592628	0.008632822	1.586384e-12	-2.492379e-10	0.001187409	0.004616009
	0.001167875	0.004401663	1.586399e-12	-2.492381e-10	0.01578133	0.008732221	-4.050151e-09	1.884881e-08
	-9.003972e-10	1.526541e-08	0.001187409	0.00461601	-4.050151e-09	1.884881e-08	0.01591659	0.008704186
5e+07	0.01809525	0.009565086	8.404089e-11	-2.273095e-10	0.001762313	0.005356215	8.037071e-10	1.511391e-08
	8.404091e-11	-2.273095e-10	0.01788197	0.009084039	-3.672292e-11	-3.064944e-10	0.00184677	0.005551263
	0.001762312	0.005356217	-3.672292e-11	-3.064944e-10	0.01777688	0.009187923	-5.733764e-10	1.436647e-08
	8.037071e-10	1.511391e-08	0.00184677	0.005551263	-5.733764e-10	1.436647e-08	0.01789162	0.009157716
6e+07	0.02011406	0.009655729	1.137053e-10	-2.893098e-10	0.002465377	0.006225312	5.980942e-09	1.604953e-08
	1.137053e-10	-2.893097e-10	0.01976035	0.009241351	-7.875419e-11	-3.366127e-10	0.002599205	0.006390208
	0.002465378	0.00622531	-7.87542e-11	-3.366127e-10	0.01969586	0.009341547	1.284149e-09	9.767473e-09
	5.980942e-09	1.604953e-08	0.002599202	0.006390209	1.284149e-09	9.767473e-09	0.01978805	0.009313848
7e+07	0.02203392	0.009461787	1.491958e-10	-3.538894e-10	0.003274117	0.006993007	1.265018e-08	1.004883e-08
	1.491959e-10	-3.538893e-10	0.02156183	0.009140109	-1.18393e-10	-3.638972e-10	0.003433856	0.007124372
	0.003274117	0.006993002	-1.18393e-10	-3.638973e-10	0.02153797	0.009229013	2.073624e-09	5.703511e-09
	1.265018e-08	1.004883e-08	0.003433851	0.007124374	2.073624e-09	5.703511e-09	0.02160645	0.009207987
8e+07	0.02384733	0.009012539	1.823604e-10	-3.961437e-10	0.004167416	0.00765145	1.185579e-08	3.517779e-09
	1.823605e-10	-3.961436e-10	0.02328025	0.008806202	-1.592154e-10	-4.003492e-10	0.004338086	0.007745491
	0.004167415	0.007651444	-1.592155e-10	-4.003493e-10	0.02329631	0.008876566	2.17236e-09	2.339649e-09
	1.185579e-08	3.517779e-09	0.004338081	0.007745495	2.17236e-09	2.339648e-09	0.02334003	0.008865995
9e+07	0.02554254	0.008331084	1.655723e-10	-4.37789e-10	0.005129139	0.008193436	9.77646e-09	9.877171e-10
	1.655724e-10	-4.37789e-10	0.02490712	0.0082621	-1.88931e-10	-4.516442e-10	0.005297541	0.008245865
	0.005129138	0.008193432	-1.889311e-10	-4.516442e-10	0.02496148	0.008306789	1.752597e-09	-3.296975e-10
	9.77646e-09	9.877171e-10	0.005297538	0.008245868	1.752597e-09	-3.296976e-10	0.0249794	0.008310634
1e+08	0.02710214	0.007433168	1.414142e-10	-5.801105e-10	0.006146826	0.008615101	8.111727e-09	-1.786477e-10
	1.414142e-10	-5.801105e-10	0.02644028	0.007537593	-1.917008e-10	-5.022271e-10	0.006293602	0.008615161
	0.006146826	0.008615101	-1.917008e-10	-5.022271e-10	0.02652962	0.007548518	9.269502e-10	-2.455661e-09
	8.111727e-09	-1.786477e-10	0.006293602	0.008615161	9.269502e-10	-2.455661e-09	0.02652098	0.007571319
1.1e+08	0.02850045	0.006359714	1.498245e-10	-6.598519e-10	0.007212323	0.008895322	8.911159e-09	-1.222873e-09
	1.498245e-10	-6.598519e-10	0.02789693	0.006582648	-2.179817e-10	-5.26765e-10	0.007298115	0.008874487
	0.007212322	0.008895322	-2.179817e-10	-5.26765e-10	0.02801525	0.006556839	1.033121e-09	-2.85538e-09
	8.911159e-09	-1.222873e-09	0.007298115	0.008874487	1.033121e-09	-2.85538e-09	0.02798063	0.006604747
1.2e+08	0.02975415	0.005136415	1.535692e-10	-7.44145e-10	0.00829074	0.009035385	9.595171e-09	-2.446026e-09
	1.535692e-10	-7.44145e-10	0.02919331	0.005442738	-2.377122e-10	-5.525676e-10	0.00832506	0.00901632
	0.00829074	0.009035385	-2.377122e-10	-5.525676e-10	0.02933834	0.005377465	1.118895e-09	-3.281794e-09
	9.595171e-09	-2.446026e-09	0.00832506	0.00901632	1.118895e-09	-3.281794e-09	0.02928006	0.005454628
1.3e+08	0.0308495	0.003775066	1.519186e-10	-8.30353e-10	0.009367814	0.009038709	1.013465e-08	-3.825964e-09
	1.519186e-10	-8.30353e-10	0.03032794	0.004151552	-2.553362e-10	-5.749891e-10	0.009355368	0.009033408
	0.009367814	0.009038709	-2.553362e-10	-5.749891e-10	0.03049625	0.004043305	1.180564e-09	-3.733676e-09
	1.013465e-08	-3.825964e-09	0.009355368	0.009033408	1.180564e-09	-3.733676e-09	0.03041693	0.004153457
1.4e+08	0.03177657	0.002293371	1.446515e-10	-9.180396e-10	0.01042749	0.008907632	1.050354e-08	-5.343411e-09
	1.446515e-10	-9.180396e-10	0.03129321	0.002731709	-2.702269e-10	-5.945621e-10	0.01037271	0.008925298
	0.01042749	0.008907633	-2.702269e-10	-5.945621e-10	0.0314809	0.002577272	1.21379e-09	-4.208321e-09
	1.050354e-08	-5.343411e-09	0.01037271	0.008925298	1.21379e-09	-4.208321e-09	0.03138351	0.002723742
1.5e+08	0.03252677	0.000710364	1.31515e-10	-1.00663e-09	0.01145379	0.008646005	1.067814e-08	-6.97497e-09
	1.31515e-10	-1.00663e-09	0.03208163	0.001204547	-2.818913e-10	-6.118326e-10	0.01136136	0.008694201
	0.01145379	0.008646005	-2.818913e-10	-6.118326e-10	0.03228442	0.001001117	1.21451e-09	-4.702237e-09
	1.067814e-08	-6.97497e-09	0.01136136	0.008694201	1.21451e-09	-4.702237e-09	0.03217224	0.00118685
1.6e+08	0.033093	-0.0009540714	1.122908e-10	-1.095463e-09	0.01243119	0.008259426	1.063789e-08	-8.693539e-09
	1.122908e-10	-1.095463e-09	0.03268672	-0.000408784	-2.899313e-10	-6.273913e-10	0.01230622	0.008344479
	0.01243119	0.008259426	-2.899313e-10	-6.273913e-10	0.03289996	-0.0006635497	1.17911e-09	-5.211264e-09
	1.063789e-08	-8.693539e-09	0.01230622	0.008344479	1.17911e-09	-5.211264e-09	0.03277667	-0.000436017
1.7e+08	0.0334698	-0.002679416	8.682629e-11	-1.183821e-09	0.01334489	0.007755263	1.036592e-08	-1.046876e-08
	8.682629e-11	-1.183821e-09	0.03310346	-0.002087041	-2.940404e-10	-6.418758e-10	0.01319295	0.007882419
	0.01334489	0.007755263	-2.940404e-10	-6.418758e-10	0.0333222	-0.002394959	1.104546e-09	-5.730658e-09
	1.036592e-08	-1.046876e-08	0.01319295	0.007882419	1.104546e-09	-5.730658e-09	0.03319179	-0.002123545
1.8e+08	0.03365355	-0.004444681	5.504774e-11	-1.270949e-09	0.01418111	0.00714258	9.849593e-09	-1.226755e-08
	5.504774e-11	-1.270949e-09	0.03332853	-0.003808855	-2.940069e-10	-6.559644e-10	0.01400813	0.00731607
	0.01418111	0.00714258	-2.940069e-10	-6.559644e-10	0.03354753	-0.004171151	9.884243e-10	-6.255181e-09
	9.849593e-09	-1.226755e-08	0.01400813	0.00731607	9.884243e-10	-6.255181e-09	0.03341433	-0.003854281
1.9e+08	0.03364258	-0.00622862	1.680389e-11	-1.35622e-09	0.01492725	0.006432025	9.080927e-09	-1.405473e-08
	1.680389e-11	-1.35622e-09	0.03336054	-0.005552811	-2.897538e-10	-6.704458e-10	0.01473953	0.006655083
	0.01492725	0.006432025	-2.897538e-10	-6.704458e-10	0.0335743	-0.005970057	8.28918e-10	-6.779351e-09
	9.080927e-09	-1.405473e-08	0.01473953	0.006655083	8.28918e-10	-6.779351e-09	0.03344289	-0.005606731
2e+08	0.03343732	-0.008009943	-2.780667e-11	-1.438748e-09	0.01557209	0.005635686	8.0569e-09	-1.579365e-08
	-2.780667e-11	-1.438748e-09	0.03320003	-0.007297623	-2.812829e-10	-6.860098e-10	0.01537618	0.005910548
	0.01557209	0.005635686	-2.812829e-10	-6.860098e-10	0.03340291	-0.007769677	6.251417e-10	-7.297143e-09
	8.0569e-09	-1.579365e-08	0.01537618	0.005910548	6.251417e-10	-7.297143e-09	0.0332781	-0.007359512
2.1e+08	0.03304027	-0.009767543	-7.846619e-11	-1.517594e-09	0.01610599	0.004766908	6.779676e-09	-1.744693e-08
	-7.846619e-11	-1.517594e-09	0.03284961	-0.009022298	-2.686691e-10	-7.033197e-10	0.01590859	0.005094813
	0.01610599	0.004766908	-2.686691e-10	-7.033197e-10	0.03303589	-0.009548256	3.77163e-10	-7.8023e-09
	6.779676e-09	-1.744693e-08	0.01590859	0.005094813	3.77163e-10	-7.8023e-09	0.0329226	-0.009091548
2.2e+08	0.03245609	-0.01148072	-1.348684e-10	-1.591956e-09	0.01652103	0.003840103	5.256722e-09	-1.897716e-08
	-1.348684e-10	-1.591956e-09	0.03231393	-0.01070634	-2.521154e-10	-7.230925e-10	0.01632888	0.004221294
	0.01652103	0.003840103	-2.521154e-10	-7.230925e-10	0.03247794	-0.0112845	8.579629e-11	-8.28862e-09
	5.256722e-09	-1.897716e-08	0.01632888	0.004221294	8.579629e-11	-8.28862e-09	0.03238111	-0.01078225
2.3e+08	0.03169154	-0.01312943	-1.966062e-10	-1.661044e-09	0.01681109	0.00287053	3.500827e-09	-2.034762e-08
	-1.966062e-10	-1.661044e-09	0.03159967	-0.01232995	-2.319314e-10	-7.460196e-10	0.01663086	0.003304265
	0.01681109	0.00287053	-2.319314e-10	-7.460196e-10	0.03173587	-0.0129578	-2.472732e-10	-8.749937e-09
	3.500827e-09	-2.034762e-08	0.01663086	0.003304266	-2.472732e-10	-8.749937e-09	0.0316604	-0.01241174
2.4e+08	0.03075542	-0.01469449	-2.631695e-10	-1.724092e-09	0.01697201	0.001874072	1.530023e-09	-2.152303e-08
	-2.631695e-10	-1.724092e-09	0.03071544	-0.01387426	-2.085298e-10	-7.727517e-10	0.01681017	0.002358645
	0.01697201	0.001874072	-2.085298e-10	-7.727517e-10	0.03081858	-0.01454848	-6.194898e-10	-9.180245e-09
	1.530023e-09	-2.152303e-08	0.01681017	0.002358645	-6.194898e-10	-9.180245e-09	0.03076917	-0.01396105
2.5e+08	0.02965846	-0.01615781	-3.339417e-10	-1.78037e-09	0.01700157	0.0008669919	-6.32588e-10	-2.247029e-08
	-3.339417e-10	-1.78037e-09	0.02967175	-0.01532146	-1.824211e-10	-8.038838e-10	0.0168643	0.001399769
	0.01700157	0.0008669919	-1.824211e-10	-8.038838e-10	0.02973698	-0.01603796	-1.027441e-09	-9.57381e-09
	-6.32588e-10	-2.247029e-08	0.0168643	0.001399769	-1.027441e-09	-9.57381e-09	0.02971804	-0.01541233
2.6e+08	0.02841327	-0.01750262	-4.081983e-10	-1.829195e-09	0.01689961	-0.000134312	-2.959106e-09	-2.315911e-08
	-4.081983e-10	-1.829195e-09	0.02848087	-0.01665509	-1.542058e-10	-8.399412e-10	0.01679264	0.0004431549
	0.01689961	-0.000134312	-1.542058e-10	-8.399412e-10	0.02850381	-0.01740904	-1.466885e-09	-9.925287e-09
	-2.959106e-09	-2.315911e-08	0.01679264	0.0004431549	-1.466885e-09	-9.925287e-09	0.02851938	-0.01674904
2.7e+08	0.02703413	-0.01871364	-4.851047e-10	-1.869946e-09	0.01666797	-0.001113552	-5.417193e-09	-2.356274e-08
	-4.851047e-10	-1.869946e-09	0.02715665	-0.01786014	-1.245646e-10	-8.813662e-10	0.01659651	-0.0004957249
	0.01666797	-0.001113552	-1.245646e-10	-8.813662e-10	0.02713357	-0.01864604	-1.932798e-09	-1.022984e-08
	-5.417193e-09	-2.356274e-08	0.01659651	-0.0004957249	-1.932798e-09	-1.022984e-08	0.02718719	-0.01795615
2.8e+08	0.02553685	-0.01977726	-5.637181e-10	-1.902085e-09	0.01631049	-0.0020548	-7.970514e-09	-2.365856e-08
	-5.637181e-10	-1.902085e-09	0.02571444	-0.01892324	-9.424707e-11	-9.285067e-10	0.0162791	-0.001401682
	0.01631049	-0.0020548	-9.424707e-11	-9.285067e-10	0.02564232	-0.01973501	-2.419425e-09	-1.048323e-08
	-7.970514e-09	-2.365856e-08	0.0162791	-0.001401682	-2.419425e-09	-1.048323e-08	0.02573694	-0.01902025
2.9e+08	0.02393856	-0.0206817	-6.429897e-10	-1.925166e-09	0.01583293	-0.00294273	-1.057927e-08	-2.342864e-08
	-6.429897e-10	-1.925166e-09	0.02417084	-0.01983281	-6.405813e-11	-9.816061e-10	0.01584543	-0.00226004
	0.01583293	-0.00294273	-6.405813e-11	-9.816061e-10	0.02404747	-0.02066387	-2.92036e-09	-1.068195e-08
	-1.057927e-08	-2.342864e-08	0.01584543	-0.00226004	-2.92036e-09	-1.068195e-08	0.02418537	-0.01992974
3e+08	0.02225756	-0.02141717	-7.217706e-10	-1.938865e-09	0.01524292	-0.00376285	-1.320079e-08	-2.286022e-08
	-7.217706e-10	-1.938865e-09	0.02254353	-0.02057916	-3.48434e-11	-1.040795e-09	0.01530232	-0.003056854
	0.01524292	-0.00376285	-3.48434e-11	-1.040795e-09	0.02236759	-0.02142256	-3.428628e-09	-1.082331e-08
	-1.320079e-08	-2.286022e-08	0.01530232	-0.003056854	-3.428628e-09	-1.082331e-08	0.0225503	-0.02067498
3.1e+08	0.02051305	-0.02197593	-7.988231e-10	-1.942995e-09	0.0145498	-0.004501725	-1.579023e-08	-2.194616e-08
	-7.988231e-10	-1.942995e-09	0.02085108	-0.02115463	-7.473434e-12	-1.106086e-09	0.0146582	-0.003779124
	0.0145498	-0.004501725	-7.473434e-12	-1.106086e-09	0.02062217	-0.02200315	-3.936791e-09	-1.090551e-08
	-1.579023e-08	-2.194616e-08	0.0146582	-0.003779124	-3.936791e-09	-1.090551e-08	0.02085044	-0.02124829
3.2e+08	0.01872491	-0.02235244	-8.728337e-10	-1.937527e-09	0.0137645	-0.005147179	-1.830125e-08	-2.068528e-08
	-8.728337e-10	-1.937527e-09	0.01911269	-0.02155364	1.717302e-11	-1.177368e-09	0.01392308	-0.004414988
	0.0137645	-0.005147179	1.717302e-11	-1.177368e-09	0.01883143	-0.02239991	-4.437058e-09	-1.092773e-08
	-1.830125e-08	-2.068528e-08	0.01392308	-0.004414988	-4.437058e-09	-1.092773e-08	0.01910512	-0.02164417
3.3e+08	0.01691348	-0.02254339	-9.424327e-10	-1.922613e-09	0.0128994	-0.005688488	-2.068685e-08	-1.908255e-08
	-9.424327e-10	-1.922613e-09	0.017348	-0.02177275	3.822632e-11	-1.254406e-09	0.01310832	-0.004953906
	0.0128994	-0.005688488	3.822632e-11	-1.254406e-09	0.017016	-0.02260943	-4.921412e-09	-1.089019e-08
	-2.068685e-08	-1.908255e-08	0.01310832	-0.004953906	-4.921412e-09	-1.089019e-08	0.01733411	-0.02185923
3.4e+08	0.01509927	-0.02254772	-1.006219e-09	-1.898602e-09	0.01196807	-0.006116539	-2.290015e-08	-1.714931e-08
	-1.006219e-09	-1.898602e-09	0.01557683	-0.02181071	5.4843e-11	-1.336846e-09	0.0122265	-0.005386817
	0.01196807	-0.006116539	5.4843e-11	-1.336846e-09	0.01519672	-0.02263058	-5.381751e-09	-1.079418e-08
	-2.290015e-08	-1.714931e-08	0.0122265	-0.005386817	-5.381751e-09	-1.079418e-08	0.01555736	-0.0218923
3.5e+08	0.01330276	-0.02236665	-1.062789e-09	-1.866052e-09	0.01098513	-0.006423972	-2.489526e-08	-1.490327e-08
	-1.062789e-09	-1.866052e-09	0.01381895	-0.02166842	6.622342e-11	-1.424209e-09	0.0112912	-0.005706275
	0.01098513	-0.006423972	6.622342e-11	-1.424209e-09	0.01339438	-0.02246456	-5.810032e-09	-1.064211e-08
	-2.489526e-08	-1.490327e-08	0.0112912	-0.005706275	-5.810032e-09	-1.064211e-08	0.01379473	-0.02174439
3.6e+08	0.01154412	-0.02200368	-1.110767e-09	-1.825749e-09	0.009965989	-0.006605296	-2.66278e-08	-1.236831e-08
	-1.110767e-09	-1.825749e-09	0.01209385	-0.02134898	7.152383e-11	-1.515826e-09	0.01031684	-0.005906566
	0.009965989	-0.006605296	7.152383e-11	-1.515826e-09	0.01162943	-0.02211486	-6.198358e-09	-1.043746e-08
	-2.66278e-08	-1.236831e-08	0.01031684	-0.005906566	-6.198358e-09	-1.043746e-08	0.01206583	-0.0214187
3.7e+08	0.009842958	-0.02146448	-1.148847e-09	-1.7787e-09	0.008926624	-0.006656972	-2.805662e-08	-9.574716e-09
	-1.148847e-09	-1.7787e-09	0.01042049	-0.02085756	7.018373e-11	-1.611064e-09	0.009318401	-0.00598379
	0.008926624	-0.006656972	7.018373e-11	-1.611064e-09	0.009921776	-0.02158722	-6.539299e-09	-1.018491e-08
	-2.805662e-08	-9.574716e-09	0.009318401	-0.00598379	-6.539299e-09	-1.018491e-08	0.01038969	-0.02092053
3.8e+08	0.008218092	-0.02075687	-1.175828e-09	-1.726139e-09	0.007883325	-0.006577468	-2.914395e-08	-6.558451e-09
	-1.175828e-09	-1.726139e-09	0.008817111	-0.02020139	6.165157e-11	-1.709152e-09	0.008311255	-0.005935926
	0.007883325	-0.006577468	6.165157e-11	-1.709152e-09	0.00829049	-0.02088954	-6.82593e-09	-9.890184e-09
	-2.914395e-08	-6.558451e-09	0.008311255	-0.005935926	-6.82593e-09	-9.890184e-09	0.008784614	-0.02025725
3.9e+08	0.006687323	-0.01989071	-1.190654e-09	-1.669515e-09	0.00685245	-0.006367287	-2.985632e-08	-3.360836e-09
	-1.190654e-09	-1.669515e-09	0.007300961	-0.01938965	4.545625e-11	-1.809221e-09	0.007310889	-0.005762857
	0.00685245	-0.006367287	4.545625e-11	-1.809221e-09	0.006753604	-0.02003179	-7.051993e-09	-9.559972e-09
	-2.985632e-08	-3.360836e-09	0.007310889	-0.005762857	-7.051993e-09	-9.559972e-09	0.007267905	-0.01943816
4e+08	0.005267201	-0.01887773	-1.192458e-09	-1.610478e-09	0.005850169	-0.006028953	-3.016536e-08	-2.804447e-11
	-1.192458e-09	-1.610478e-09	0.005888137	-0.01843331	2.124093e-11	-1.910332e-09	0.006332685	-0.005466376
	0.005850169	-0.006028953	2.124093e-11	-1.910332e-09	0.005327887	-0.01902587	-7.212055e-09	-9.201908e-09
	-3.016536e-08	-2.804447e-11	0.006332685	-0.005466376	-7.212055e-09	-9.201908e-09	0.005855686	-0.01847441
4.1e+08	0.003972831	-0.01773143	-1.180595e-09	-1.550852e-09	0.004892217	-0.00556698	-3.004848e-08	3.389536e-09
	-1.180595e-09	-1.550852e-09	0.004593369	-0.01734504	-1.122756e-11	-2.011492e-09	0.005391687	-0.005050153
	0.004892217	-0.00556698	-1.122756e-11	-2.011492e-09	0.004028623	-0.01788542	-7.301644e-09	-8.824438e-09
	-3.004848e-08	3.389536e-09	0.005391687	-0.005050153	-7.301644e-09	-8.824438e-09	0.004562699	-0.0173788
4.2e+08	0.002817681	-0.01646687	-1.154684e-09	-1.492604e-09	0.003993648	-0.004987799	-2.948949e-08	6.83804e-09
	-1.154684e-09	-1.492604e-09	0.003429851	-0.01613901	-5.205114e-11	-2.111673e-09	0.004502371	-0.004519685
	0.003993648	-0.004987799	-5.205114e-11	-2.111673e-09	0.002869428	-0.01662571	-7.317379e-09	-8.436708e-09
	-2.948949e-08	6.83804e-09	0.004502371	-0.004519685	-7.317379e-09	-8.436708e-09	0.003402126	-0.01616566
4.3e+08	0.001813426	-0.01510051	-1.114631e-09	-1.437802e-09	0.003168605	-0.004299662	-2.847915e-08	1.026096e-08
	-1.114631e-09	-1.437802e-09	0.002409086	-0.01483073	-1.011954e-10	-2.209825e-09	0.003678422	-0.003882208
	0.003168605	-0.004299662	-1.011954e-10	-2.209825e-09	0.0018621	-0.01526338	-7.257069e-09	-8.048411e-09
	-2.847915e-08	1.026096e-08	0.003678422	-0.003882208	-7.257069e-09	-8.048411e-09	0.002385445	-0.01485064
4.4e+08	0.0009697961	-0.01364994	-1.060656e-09	-1.38857e-09	0.002430102	-0.003512511	-2.70155e-08	1.360004e-08
	-1.060656e-09	-1.38857e-09	0.001540753	-0.01343682	-1.584868e-10	-2.304896e-09	0.002932528	-0.003146585
	0.002430102	-0.003512511	-1.584868e-10	-2.304896e-09	0.001016453	-0.01381624	-7.119803e-09	-7.669629e-09
	-2.70155e-08	1.360004e-08	0.002932528	-0.003146585	-7.119803e-09	-7.669629e-09	0.001522284	-0.01345054
4.5e+08	0.0002944697	-0.01213371	-9.933084e-10	-1.347038e-09	0.001789818	-0.002637827	-2.510422e-08	1.679625e-08
	-9.933084e-10	-1.347038e-09	0.0008325934	-0.01197484	-2.236118e-10	-2.395852e-09	0.002276186	-0.002323173
	0.001789818	-0.002637827	-2.236118e-10	-2.395852e-09	0.0003402154	-0.01230306	-6.906013e-09	-7.31066e-09
	-2.510422e-08	1.679625e-08	0.002276186	-0.002323173	-6.906013e-09	-7.31066e-09	0.0008203188	-0.01198303
4.6e+08	-0.0002070253	-0.01057107	-9.134642e-10	-1.315297e-09	0.001257923	-0.001688456	-2.275875e-08	1.979082e-08
	-9.134642e-10	-1.315297e-09	0.0002903297	-0.01046302	-2.961198e-10	-2.481692e-09	0.001719528	-0.001423663
	0.001257923	-0.001688456	-2.961198e-10	-2.481692e-09	-0.0001610641	-0.01074329	-6.617509e-09	-6.981839e-09
	-2.275875e-08	1.979082e-08	0.001719528	-0.001423663	-6.617509e-09	-6.981839e-09	0.0002851847	-0.01046649
4.7e+08	-0.0005313422	-0.008981699	-8.229067e-10	-1.29412e-09	0.0008429129	-0.0006784058	-1.99988e-08	2.2524e-08
	-8.229067e-10	-1.29412e-09	-8.239914e-05	-0.008920077	-3.753382e-10	-2.561705e-09	0.00127117	-0.0004609013
