!$
! Info: Touchstone file created by Circ.  Input file=Tx_6in_Rx_100ohms_TxVia_10mils_RxVia_20mils.circ
!$
# Hz S RI R 50
0	0.006326106	4.80967e-26	0.9935428	-4.822168e-26	4.404744e-05	6.431095e-24	-4.248316e-05	1.227488e-21
	0.9935428	-4.86692e-26	0.00632571	6.035488e-26	-4.235203e-05	1.211532e-21	4.348519e-05	8.959574e-24
	4.632098e-05	6.445977e-24	-4.229982e-05	1.205174e-21	0.006318694	4.196289e-26	0.9935128	-4.29427e-26
	-4.289301e-05	1.277716e-21	4.494226e-05	9.22155e-24	0.9935128	-4.497683e-26	0.006331324	5.758854e-26
1e+07	0.009157641	0.004327607	0.988898	-0.06327313	0.000350883	0.001179327	-0.0002846935	-0.0001322793
	0.988898	-0.06327313	0.009156166	0.004326354	-0.000284716	-0.0001322556	0.0003491323	0.001179715
	0.0003509313	0.0011793	-0.000284678	-0.0001322769	0.009080152	0.004335465	0.988971	-0.06336981
	-0.0002846554	-0.0001323006	0.0003491648	0.001179704	0.988971	-0.06336981	0.009078707	0.004334161
2e+07	0.01169027	0.006557557	0.9809543	-0.1240539	0.0004797988	0.002437874	-0.0002232588	-0.0003636296
	0.9809543	-0.1240539	0.01168417	0.006555182	-0.0002232496	-0.0003636029	0.0004730371	0.002439506
	0.0004797912	0.002437849	-0.0002232502	-0.0003636314	0.01163677	0.006604897	0.9809854	-0.1242776
	-0.0002232501	-0.0003636649	0.0004730345	0.002439484	0.9809854	-0.1242776	0.011631	0.006602624
3e+07	0.0138921	0.00783217	0.969903	-0.1833972	0.0007679019	0.003562906	-0.0002003466	-0.000494997
	0.969903	-0.1833972	0.01387795	0.007829576	-0.0002003453	-0.0004949916	0.0007530839	0.003567125
	0.0007679025	0.003562902	-0.0002003479	-0.0004949957	0.01385978	0.007896003	0.9698861	-0.18372
	-0.0002003487	-0.0004950033	0.0007530788	0.003567122	0.9698861	-0.18372	0.01384693	0.007893493
4e+07	0.01595169	0.008634014	0.9555837	-0.2416114	0.001213065	0.004607333	-0.0002186876	-0.0005935009
	0.9555837	-0.2416114	0.01592628	0.008632822	-0.0002186917	-0.0005934932	0.001187409	0.004616009
	0.001213069	0.004607329	-0.0002186888	-0.0005934923	0.01593978	0.008705766	0.9555109	-0.2420239
	-0.0002186838	-0.0005934964	0.001187409	0.00461601	0.9555109	-0.2420239	0.01591659	0.008704186
5e+07	0.01792155	0.009081587	0.9379857	-0.2986281	0.001885704	0.005535894	-0.0003567796	-0.0006376477
	0.9379857	-0.2986281	0.01788197	0.009084039	-0.0003567767	-0.0006376471	0.00184677	0.005551263
	0.001885705	0.005535891	-0.0003567751	-0.0006376471	0.01792803	0.009156016	0.937848	-0.2991223
	-0.0003567766	-0.0006376457	0.00184677	0.005551263	0.937848	-0.2991223	0.01789162	0.009157716
6e+07	0.01981655	0.009232487	0.9171458	-0.3543165	0.002653395	0.006365399	-0.0004904091	-0.0006573825
	0.9171458	-0.3543165	0.01976035	0.009241351	-0.0004904065	-0.0006574031	0.002599205	0.006390208
	0.002653395	0.0063654	-0.0004904096	-0.0006574022	0.01983975	0.00930616	0.9169347	-0.3548841
	-0.0004904145	-0.0006573836	0.002599202	0.006390209	0.9169347	-0.3548841	0.01978805	0.009313848
7e+07	0.02163658	0.009121653	0.8931262	-0.4085236	0.003504794	0.007087041	-0.0006184334	-0.0006555372
	0.8931262	-0.4085236	0.02156183	0.009140109	-0.0006184452	-0.0006555799	0.003433856	0.007124372
	0.003504795	0.007087045	-0.0006184523	-0.0006555762	0.02167513	0.009191576	0.892834	-0.4091559
	-0.0006184479	-0.0006555378	0.003433851	0.007124374	0.892834	-0.4091559	0.02160645	0.009207987
8e+07	0.02337493	0.008774673	0.8660062	-0.4610885	0.004426744	0.007692296	-0.0007390977	-0.0006339204
	0.8660062	-0.4610885	0.02328025	0.008806202	-0.0007391306	-0.0006339746	0.004338086	0.007745491
	0.004426746	0.0076923	-0.0007391385	-0.0006339686	0.02342725	0.008837865	0.865626	-0.4617763
	-0.0007391163	-0.0006339183	0.004338081	0.007745495	0.865626	-0.4617763	0.02334003	0.008865995
9e+07	0.02502255	0.008213806	0.8358783	-0.5118499	0.005404338	0.008173272	-0.0008500205	-0.0005935533
	0.8358783	-0.5118499	0.02490712	0.0082621	-0.0008500685	-0.0005936062	0.005297541	0.008245865
	0.00540434	0.008173274	-0.0008500738	-0.0005936006	0.02508646	0.008267266	0.8354042	-0.5125838
	-0.0008500347	-0.0005935499	0.005297538	0.008245868	0.8354042	-0.5125838	0.0249794	0.008310634
1e+08	0.02657668	0.007468724	0.8028389	-0.5606586	0.00641839	0.008519511	-0.0009453428	-0.0005310546
	0.8028389	-0.5606586	0.02644028	0.007537593	-0.0009453876	-0.0005310986	0.006293602	0.008615161
	0.00641839	0.008519511	-0.0009453874	-0.0005310988	0.02664859	0.007508632	0.8022666	-0.5614273
	-0.0009453426	-0.0005310549	0.006293602	0.008615161	0.8022666	-0.5614273	0.02652098	0.007571319
1.1e+08	0.0280547	0.006488269	0.7669767	-0.6072943	0.007440625	0.008752472	-0.001010508	-0.0004748664
	0.7669767	-0.6072943	0.02789693	0.006582648	-0.001010602	-0.000474925	0.007298115	0.008874487
	0.007440625	0.008752472	-0.001010602	-0.0004749252	0.02812895	0.006518442	0.7663045	-0.6080923
	-0.001010508	-0.0004748666	0.007298115	0.008874487	0.7663045	-0.6080923	0.02798063	0.006604747
1.2e+08	0.02937084	0.005319027	0.7284903	-0.651621	0.008483631	0.008864037	-0.001075244	-0.0004212129
	0.7284903	-0.651621	0.02919331	0.005442738	-0.00107538	-0.0004212674	0.00832506	0.00901632
	0.008483631	0.008864037	-0.00107538	-0.0004212676	0.02944731	0.005340821	0.7277117	-0.6524402
	-0.001075244	-0.0004212131	0.00832506	0.00901632	0.7277117	-0.6524402	0.02928006	0.005454628
1.3e+08	0.03052319	0.00399493	0.6875095	-0.6935099	0.009527782	0.008847334	-0.001135602	-0.0003647218
	0.6875095	-0.6935099	0.03032794	0.004151552	-0.001135772	-0.0003647624	0.009355368	0.009033408
	0.009527782	0.008847334	-0.001135772	-0.0003647626	0.03060093	0.004008709	0.6866198	-0.6943406
	-0.001135602	-0.000364722	0.009355368	0.009033408	0.6866198	-0.6943406	0.03041693	0.004153457
1.4e+08	0.03150367	0.002538846	0.6441796	-0.7328279	0.01055624	0.008702292	-0.001190686	-0.0003050981
	0.6441796	-0.7328279	0.03129321	0.002731709	-0.001190886	-0.0003051202	0.01037271	0.008925298
	0.01055624	0.008702292	-0.001190886	-0.0003051203	0.03158171	0.00254497	0.6431749	-0.7336598
	-0.001190686	-0.0003050983	0.01037271	0.008925298	0.6431749	-0.7336598	0.03138351	0.002723742
1.5e+08	0.03230432	0.0009724018	0.5986551	-0.7694485	0.01155282	0.008431531	-0.001240165	-0.0002427831
	0.5986551	-0.7694485	0.03208163	0.001204547	-0.001240393	-0.0002427839	0.01136136	0.008694201
	0.01155282	0.008431531	-0.001240393	-0.000242784	0.03238177	0.0009713033	0.5975324	-0.7702707
	-0.001240165	-0.0002427832	0.01136136	0.008694201	0.5975324	-0.7702707	0.03217224	0.00118685
1.6e+08	0.0329182	-0.000682896	0.5510982	-0.803253	0.01250197	0.008039864	-0.001284024	-0.0001784458
	0.5510982	-0.803253	0.03268672	-0.000408784	-0.00128428	-0.0001784225	0.01230622	0.008344479
	0.01250197	0.008039864	-0.00128428	-0.0001784226	0.03299426	-0.0006907418	0.5498555	-0.8040545
	-0.001284025	-0.0001784458	0.01230622	0.008344479	0.5498555	-0.8040545	0.03277667	-0.000436017
1.7e+08	0.03333985	-0.002405372	0.5016782	-0.8341319	0.01338899	0.007534085	-0.001322477	-0.0001128005
	0.5016782	-0.8341319	0.03310346	-0.002087041	-0.00132276	-0.0001127494	0.01319295	0.007882419
	0.01338899	0.007534085	-0.00132276	-0.0001127494	0.03341383	-0.002419458	0.5003142	-0.8349013
	-0.001322477	-0.0001128006	0.01319295	0.007882419	0.5003142	-0.8349013	0.03319179	-0.002123545
1.8e+08	0.03356556	-0.004173147	0.4505706	-0.8619854	0.01420013	0.006922799	-0.00135592	-4.651444e-05
	0.4505706	-0.8619854	0.03332853	-0.003808855	-0.001356233	-4.643011e-05	0.01400813	0.00731607
	0.01420013	0.006922799	-0.001356233	-4.643015e-05	0.03363686	-0.00419294	0.449085	-0.862711
	-0.00135592	-4.651448e-05	0.01400813	0.00731607	0.449085	-0.862711	0.03341433	-0.003854281
1.9e+08	0.03359357	-0.005964223	0.3979568	-0.8867236	0.01492291	0.006216267	-0.001384899	1.985015e-05
	0.3979568	-0.8867236	0.03336054	-0.005552811	-0.001385242	1.997454e-05	0.01473953	0.006655083
	0.01492291	0.006216267	-0.001385242	1.997451e-05	0.03366165	-0.005989176	0.3963503	-0.8873936
	-0.001384899	1.985012e-05	0.01473953	0.006655083	0.3963503	-0.8873936	0.03344289	-0.005606731
2e+08	0.03342419	-0.007756666	0.3440229	-0.9082672	0.0155462	0.005426229	-0.001410063	8.587352e-05
	0.3440229	-0.9082672	0.03320003	-0.007297623	-0.001410434	8.604595e-05	0.01537618	0.005910548
	0.0155462	0.005426228	-0.001410434	8.604592e-05	0.0334886	-0.007786205	0.3422972	-0.9088696
	-0.001410063	8.587349e-05	0.01537618	0.005910548	0.3422972	-0.9088696	0.0332781	-0.007359512
2.1e+08	0.03305985	-0.009528785	0.2889597	-0.9265476	0.01606042	0.004565713	-0.001432129	0.0001513026
	0.2889597	-0.9265476	0.03284961	-0.009022298	-0.001432526	0.0001515318	0.01590859	0.005094813
	0.01606042	0.004565713	-0.001432526	0.0001515318	0.03312017	-0.009562315	0.2871174	-0.9270707
	-0.001432129	0.0001513026	0.01590859	0.005094813	0.2871174	-0.9270707	0.0329226	-0.009091548
2.2e+08	0.03250513	-0.01125935	0.2329616	-0.9415075	0.0164577	0.003648836	-0.001451842	0.0002160646
	0.2329616	-0.9415075	0.03231393	-0.01070634	-0.00145226	0.0002163594	0.01632888	0.004221294
	0.0164577	0.003648836	-0.00145226	0.0002163594	0.03256101	-0.01129625	0.2310063	-0.9419394
	-0.001451842	0.0002160645	0.01632888	0.004221294	0.2310063	-0.9419394	0.03238111	-0.01078225
2.3e+08	0.03176675	-0.01292779	0.1762259	-0.9531008	0.01673199	0.002690577	-0.001469934	0.0002802712
	0.1762259	-0.9531008	0.03159967	-0.01232995	-0.001470366	0.0002806404	0.01663086	0.003304265
	0.01673199	0.002690577	-0.001470366	0.0002806404	0.03181792	-0.01296741	0.1741623	-0.9534298
	-0.001469934	0.0002802712	0.01663086	0.003304266	0.1741623	-0.9534298	0.0316604	-0.01241174
2.4e+08	0.03085346	-0.01451449	0.1189525	-0.9612928	0.01687912	0.00170655	-0.001487085	0.0003442144
	0.1189525	-0.9612928	0.03071544	-0.01387426	-0.001487524	0.0003446658	0.01681017	0.002358645
	0.01687912	0.00170655	-0.001487524	0.0003446658	0.03089972	-0.01455615	0.1167863	-0.9615076
	-0.001487085	0.0003442144	0.01681017	0.002358645	0.1167863	-0.9615076	0.03076917	-0.01396105
2.5e+08	0.02977605	-0.01600089	0.06134296	-0.9660608	0.01689691	0.0007127638	-0.001503887	0.0004083545
	0.06134296	-0.9660608	0.02967175	-0.01532146	-0.001504321	0.0004088947	0.0168643	0.001399769
	0.01689691	0.0007127638	-0.001504321	0.0004088947	0.02981727	-0.01604389	0.05908066	-0.9661502
	-0.001503887	0.0004083544	0.0168643	0.001399769	0.05908066	-0.9661502	0.02971804	-0.01541233
2.6e+08	0.02854715	-0.01736981	0.003599701	-0.9673935	0.01678517	-0.000274628	-0.001520808	0.0004733004
	0.003599701	-0.9673935	0.02848087	-0.01665509	-0.001521225	0.0004739346	0.01679264	0.0004431549
	0.01678517	-0.0002746281	-0.001521225	0.0004739346	0.02858329	-0.01741344	0.001248976	-0.9673469
	-0.001520808	0.0004733003	0.01679264	0.0004431549	0.001248976	-0.9673469	0.02851938	-0.01674904
2.7e+08	0.02718111	-0.01860556	-0.05407438	-0.9652917	0.01654572	-0.001239571	-0.001538166	0.000539785
	-0.05407438	-0.9652917	0.02715665	-0.01786014	-0.001538553	0.0005405166	0.01659651	-0.0004957249
	0.01654572	-0.001239571	-0.001538553	0.0005405166	0.02721221	-0.01864912	-0.056505	-0.9650989
	-0.001538166	0.000539785	0.01659651	-0.0004957249	-0.056505	-0.9650989	0.02718719	-0.01795615
2.8e+08	0.02569385	-0.01969418	-0.1114768	-0.9597679	0.01618234	-0.002166359	-0.001556101	0.0006086346
	-0.1114768	-0.9597679	0.02571444	-0.01892324	-0.001556443	0.0006094648	0.0162791	-0.001401682
	0.01618234	-0.002166359	-0.001556444	0.0006094648	0.02572006	-0.01973695	-0.1139779	-0.9594192
	-0.001556101	0.0006086346	0.0162791	-0.001401682	-0.1139779	-0.9594192	0.02573694	-0.01902025
2.9e+08	0.02410264	-0.02062355	-0.1684062	-0.9508466	0.01570073	-0.003039873	-0.001574559	0.0006807337
	-0.1684062	-0.9508466	0.02417084	-0.01983281	-0.001574843	0.0006816615	0.01584543	-0.00226004
	0.01570073	-0.003039873	-0.001574843	0.0006816615	0.02412419	-0.02066484	-0.1709674	-0.950333
	-0.001574559	0.0006807337	0.01584543	-0.00226004	-0.1709674	-0.950333	0.02418537	-0.01992974
3e+08	0.02242592	-0.02138354	-0.2246628	-0.9385639	0.01510843	-0.003845815	-0.001593282	0.0007569876
	-0.2246628	-0.9385639	0.02254353	-0.02057916	-0.001593491	0.0007580097	0.01530232	-0.003056854
	0.01510843	-0.003845815	-0.001593491	0.0007580097	0.02244315	-0.0214227	-0.227273	-0.9378771
	-0.001593282	0.0007569876	0.01530232	-0.003056854	-0.227273	-0.9378771	0.0225503	-0.02067498
3.1e+08	0.02068308	-0.02196615	-0.2800496	-0.9229677	0.01441469	-0.00457093	-0.001611798	0.0008382829
	-0.2800496	-0.9229677	0.02085108	-0.02115463	-0.001611918	0.0008393937	0.0146582	-0.003779124
	0.01441469	-0.00457093	-0.001611918	0.0008393937	0.0206964	-0.02200258	-0.2826969	-0.9221002
	-0.001611798	0.0008382829	0.0146582	-0.003779124	-0.2826969	-0.9221002	0.02085044	-0.02124829
3.2e+08	0.01889421	-0.02236557	-0.3343724	-0.9041173	0.01363034	-0.005203207	-0.001629429	0.000925447
	-0.3343724	-0.9041173	0.01911269	-0.02155364	-0.001629447	0.0009266388	0.01392308	-0.004414988
	0.01363034	-0.005203207	-0.001629447	0.0009266388	0.01890412	-0.02239872	-0.3370442	-0.9030623
	-0.001629429	0.000925447	0.01392308	-0.004414988	-0.3370442	-0.9030623	0.01910512	-0.02164417
3.3e+08	0.01707984	-0.02257827	-0.3874411	-0.8820835	0.01276761	-0.005732067	-0.001645301	0.00101921
	-0.3874411	-0.8820835	0.017348	-0.02177275	-0.001645202	0.001020472	0.01310832	-0.004953906
	0.01276761	-0.005732067	-0.001645202	0.001020472	0.01708692	-0.02260766	-0.3901241	-0.8808352
	-0.001645301	0.00101921	0.01310832	-0.004953906	-0.3901241	-0.8808352	0.01733411	-0.02185923
3.4e+08	0.01526075	-0.02260298	-0.43907	-0.8569482	0.01183994	-0.006148526	-0.001658356	0.001120165
	-0.43907	-0.8569482	0.01557683	-0.02181071	-0.00165813	0.001121487	0.0122265	-0.005386817
	0.01183994	-0.006148526	-0.00165813	0.001121487	0.01526563	-0.02262824	-0.4417503	-0.8555017
	-0.001658356	0.001120165	0.0122265	-0.005386817	-0.4417503	-0.8555017	0.01555736	-0.0218923
3.5e+08	0.01345763	-0.02244079	-0.4890786	-0.828804	0.01086181	-0.006445337	-0.00166738	0.001228738
	-0.4890786	-0.828804	0.01381895	-0.02166842	-0.001667016	0.001230105	0.0112912	-0.005706275
	0.01086181	-0.006445337	-0.001667016	0.001230105	0.01346101	-0.0224616	-0.4917418	-0.8271553
	-0.00166738	0.001228738	0.0112912	-0.005706275	-0.4917418	-0.8271553	0.01379473	-0.02174439
3.6e+08	0.01169093	-0.02209503	-0.5372922	-0.7977542	0.009848486	-0.006617099	-0.00167103	0.001345155
	-0.5372922	-0.7977542	0.01209385	-0.02134898	-0.00167052	0.001346552	0.01031684	-0.005906566
	0.009848486	-0.006617099	-0.00167052	0.001346552	0.01169353	-0.02211121	-0.5399233	-0.7959005
	-0.00167103	0.001345155	0.01031684	-0.005906566	-0.5399233	-0.7959005	0.01206583	-0.0214187
3.7e+08	0.009980495	-0.0215713	-0.5835425	-0.7639122	0.008815776	-0.006660348	-0.001667869	0.001469417
	-0.5835425	-0.7639122	0.01042049	-0.02085756	-0.001667207	0.001470829	0.009318401	-0.00598379
	0.008815776	-0.006660348	-0.001667207	0.001470829	0.009983076	-0.02158274	-0.5861263	-0.7618516
	-0.001667869	0.001469417	0.009318401	-0.00598379	-0.5861263	-0.7618516	0.01038969	-0.02092053
3.8e+08	0.008345415	-0.02087736	-0.6276683	-0.7274011	0.007779816	-0.006573606	-0.001656406	0.001601287
	-0.6276683	-0.7274011	0.008817111	-0.02020139	-0.001655589	0.001602696	0.008311255	-0.005935926
	0.007779816	-0.006573606	-0.001655589	0.001602696	0.008348744	-0.02088407	-0.6301893	-0.725133
	-0.001656406	0.001601287	0.008311255	-0.005935926	-0.6301893	-0.725133	0.008784614	-0.02025725
3.9e+08	0.00680374	-0.02002301	-0.6695162	-0.6883535	0.006756801	-0.006357408	-0.001635135	0.001740272
	-0.6695162	-0.6883535	0.007300961	-0.01938965	-0.00163416	0.001741662	0.007310889	-0.005762857
	0.006756801	-0.006357408	-0.00163416	0.001741662	0.006808581	-0.0200251	-0.6719584	-0.6858784
	-0.001635135	0.001740272	0.007310889	-0.005762857	-0.6719584	-0.6858784	0.007267905	-0.01943816
4e+08	0.005372275	-0.01902	-0.7089407	-0.646911	0.005762745	-0.006014299	-0.001602576	0.001885625
	-0.7089407	-0.646911	0.005888137	-0.01843331	-0.001601445	0.001886978	0.006332685	-0.005466376
	0.005762745	-0.006014299	-0.001601445	0.001886978	0.005379372	-0.0190177	-0.7112882	-0.6442304
	-0.001602576	0.001885625	0.006332685	-0.005466376	-0.7112882	-0.6442304	0.005855686	-0.01847441
4.1e+08	0.004066365	-0.01788184	-0.7458053	-0.6032232	0.004813223	-0.005548789	-0.001557327	0.002036344
	-0.7458053	-0.6032232	0.004593369	-0.01734504	-0.001556043	0.002037643	0.005391687	-0.005050153
	0.004813223	-0.005548789	-0.001556043	0.002037643	0.004076429	-0.01787549	-0.748042	-0.60034
	-0.001557327	0.002036344	0.005391687	-0.005050153	-0.748042	-0.60034	0.004562699	-0.0173788
4.2e+08	0.002899712	-0.01662366	-0.7799826	-0.5574478	0.003923141	-0.004967291	-0.001498095	0.002191185
	-0.7799826	-0.5574478	0.003429851	-0.01613901	-0.001496663	0.002192414	0.004502371	-0.004519685
	0.003923141	-0.004967291	-0.001496663	0.002192414	0.002913407	-0.01661367	-0.7820925	-0.554366
	-0.001498095	0.002191185	0.004502371	-0.004519685	-0.7820925	-0.554366	0.003402126	-0.01616566
4.3e+08	0.001884204	-0.01526196	-0.8113549	-0.5097498	0.003106495	-0.00427802	-0.001423747	0.002348677
	-0.8113549	-0.5097498	0.002409086	-0.01483073	-0.001422174	0.002349823	0.003678422	-0.003882208
	0.003106495	-0.00427802	-0.001422174	0.002349823	0.001902137	-0.01524886	-0.8133221	-0.5064746
	-0.001423747	0.002348677	0.003678422	-0.003882208	-0.8133221	-0.5064746	0.002385445	-0.01485064
4.4e+08	0.001029778	-0.01381448	-0.8398147	-0.4603008	0.002376162	-0.003490868	-0.001333339	0.002507152
	-0.8398147	-0.4603008	0.001540753	-0.01343682	-0.001331635	0.002508201	0.002932528	-0.003146585
	0.002376162	-0.003490868	-0.001331635	0.002508201	0.001052479	-0.01379885	-0.8416235	-0.4568386
	-0.001333339	0.002507152	0.002932528	-0.003146585	-0.8416235	-0.4568386	0.001522284	-0.01345054
4.5e+08	0.0003442902	-0.01229986	-0.865265	-0.4092783	0.001743694	-0.002617253	-0.001226154	0.002664772
	-0.865265	-0.4092783	0.0008325934	-0.01197484	-0.001224328	0.002665712	0.002276186	-0.002323173
	0.001743694	-0.002617253	-0.001224329	0.002665712	0.0003722101	-0.01228239	-0.8668999	-0.4056367
	-0.001226154	0.002664772	0.002276186	-0.002323173	-0.8668999	-0.4056367	0.0008203188	-0.01198303
4.6e+08	-0.0001665657	-0.0107375	-0.8876197	-0.3568653	0.001219144	-0.001669942	-0.001101727	0.002819564
	-0.8876197	-0.3568653	0.0002903297	-0.01046302	-0.001099791	0.002820386	0.001719528	-0.001423663
	0.001219144	-0.001669942	-0.001099791	0.002820386	-0.000133071	-0.01071891	-0.8890656	-0.3530532
	-0.001101727	0.002819564	0.001719528	-0.001423663	-0.8890656	-0.3530532	0.0002851847	-0.01046649
4.7e+08	-0.0004993287	-0.009147237	-0.9068036	-0.3032495	0.000810906	-0.0006628537	-0.0009598644	0.002969464
	-0.9068036	-0.3032495	-8.239914e-05	-0.008920077	-0.0009578305	0.00297016	0.00127117	-0.0004609013
	0.000810906	-0.0006628537	-0.0009578305	0.00297016	-0.000459978	-0.009128301	-0.908046	-0.2992768
	-0.0009598644	0.002969464	0.00127117	-0.0004609013	-0.908046	-0.2992768	-7.955574e-05	-0.008919726
4.8e+08	-0.0006528036	-0.007549141	-0.9227533	-0.2486227	0.0005255866	0.0003891526	-0.0008006616	0.003112356
	-0.9227533	-0.2486227	-0.0002840699	-0.007364932	-0.0007985412	0.00311292	0.0009380763	0.0005513063
	0.0005255866	0.0003891526	-0.0007985412	0.00311292	-0.000607439	-0.007530672	-0.923778	-0.2445005
	-0.0008006616	0.003112356	0.0009380763	0.0005513063	-0.923778	-0.2445005	-0.0002725144	-0.007361801
4.9e+08	-0.0006280629	-0.005963217	-0.9354168	-0.1931797	0.0003679023	0.001470509	-0.0006245059	0.003246119
	-0.9354168	-0.1931797	-0.0003152788	-0.005816502	-0.0006223108	0.003246547	0.0007254607	0.001598406
	0.0003679023	0.001470509	-0.0006223108	0.003246547	-0.0005766424	-0.005946063	-0.9362105	-0.1889202
	-0.0006245059	0.003246119	0.0007254607	0.001598406	-0.9362105	-0.1889202	-0.0002944239	-0.005811727
5e+08	-0.0004284272	-0.004409167	-0.944754	-0.1371181	0.0003406059	0.002565177	-0.0004320773	0.003368674
	-0.944754	-0.1371181	-0.0001787247	-0.004293443	-0.0004298188	0.003368964	0.0006367055	0.002665319
	0.0003406059	0.002565177	-0.0004298188	0.003368964	-0.0003710231	-0.004394176	-0.9453038	-0.1327347
