!$
! Info: Touchstone file created by Circ.  Input file=Tx_6in_Rx_93ohms_TxVia_10mils_RxVia_20mils.circ
!$
# Hz S RI R 50
0	0.005601975	4.410712e-26	-3.255749e-05	1.915455e-25	4.539611e-05	5.918447e-24	-3.258326e-05	2.998667e-24
	-3.255749e-05	1.923657e-25	0.005602646	6.034483e-26	-3.255041e-05	8.094813e-26	4.348249e-05	7.925597e-24
	4.409481e-05	5.766758e-24	-3.255041e-05	8.101902e-26	0.005617326	4.620792e-26	-3.256024e-05	3.802491e-25
	-3.258325e-05	2.997797e-24	4.493983e-05	8.157341e-24	-3.256023e-05	3.788186e-25	0.005608268	5.757861e-26
1e+07	0.008024613	-0.0002323867	-0.0001514746	-1.41987e-06	0.0001578704	0.00117101	-2.999501e-05	-5.384678e-06
	-0.0001514746	-1.419871e-06	0.008188994	-0.0002400475	-8.116498e-05	3.647425e-05	0.0001556176	0.001166927
	0.0001578265	0.001171013	-8.116498e-05	3.647425e-05	0.00820637	-0.0002456548	-0.000151401	-4.268912e-08
	-2.9995e-05	-5.384677e-06	0.00015565	0.001166915	-0.000151401	-4.268821e-08	0.008037146	-0.0002502933
2e+07	0.009611908	-0.002374667	-0.0001255944	-3.302589e-05	0.0003367755	0.002347092	-1.302955e-05	-3.407774e-05
	-0.0001255944	-3.302589e-05	0.009727852	-0.002448374	-8.094708e-05	2.031278e-05	0.0003308657	0.002340433
	0.0003367657	0.002347119	-8.094708e-05	2.031278e-05	0.009752425	-0.002461109	-0.0001247103	-3.562931e-05
	-1.302955e-05	-3.407774e-05	0.0003308628	0.002340412	-0.0001247103	-3.562931e-05	0.009610557	-0.002409636
3e+07	0.01037492	-0.00527976	-0.0001081421	-4.872449e-05	0.0007072853	0.00343491	-1.566505e-05	-4.167491e-05
	-0.0001081421	-4.872449e-05	0.01044413	-0.005375117	-7.921396e-05	1.866707e-05	0.0006848445	0.003430103
	0.0007072859	0.003434914	-7.921396e-05	1.866707e-05	0.01048046	-0.005396828	-0.0001065678	-5.189935e-05
	-1.566505e-05	-4.167491e-05	0.0006848395	0.003430101	-0.0001065678	-5.189935e-05	0.0103535	-0.005326872
4e+07	0.01051611	-0.008433973	-9.466369e-05	-5.676038e-05	0.001230602	0.004446623	-3.215516e-05	-4.078325e-05
	-9.466369e-05	-5.676038e-05	0.01053701	-0.008536463	-7.6465e-05	1.856674e-05	0.001193947	0.004445713
	0.001230598	0.004446621	-7.6465e-05	1.856675e-05	0.01058921	-0.008570102	-9.255053e-05	-6.035844e-05
	-3.215516e-05	-4.078325e-05	0.001193947	0.004445715	-9.255053e-05	-6.035844e-05	0.01046807	-0.008490896
5e+07	0.01011479	-0.0116698	-8.36014e-05	-6.13238e-05	0.001866495	0.005376835	-4.619155e-05	-3.605934e-05
	-8.36014e-05	-6.13238e-05	0.01008546	-0.01176859	-7.289856e-05	1.824716e-05	0.001813225	0.005382899
	0.001866493	0.005376834	-7.289856e-05	1.824716e-05	0.01015692	-0.01181799	-8.104257e-05	-6.527424e-05
	-4.619155e-05	-3.605934e-05	0.001813225	0.005382899	-8.104257e-05	-6.527424e-05	0.01003265	-0.01173173
6e+07	0.009219834	-0.01488206	-7.40486e-05	-6.379598e-05	0.002604867	0.006214171	-5.801373e-05	-2.851704e-05
	-7.40486e-05	-6.379598e-05	0.009138845	-0.01496729	-6.87804e-05	1.694898e-05	0.002533088	0.006230655
	0.002604873	0.006214169	-6.87804e-05	1.694898e-05	0.009232121	-0.01503695	-7.110453e-05	-6.805631e-05
	-5.801373e-05	-2.851704e-05	0.002533085	0.006230656	-7.110453e-05	-6.805631e-05	0.009097745	-0.0149425
7e+07	0.007871541	-0.01799086	-6.535887e-05	-6.473235e-05	0.003433744	0.00694765	-6.766164e-05	-1.866837e-05
	-6.535887e-05	-6.473235e-05	0.007738332	-0.01805291	-6.446577e-05	1.418822e-05	0.003342119	0.006978303
	0.003433754	0.006947643	-6.446577e-05	1.418822e-05	0.007855058	-0.01814775	-6.20674e-05	-6.927034e-05
	-6.766164e-05	-1.866837e-05	0.003342114	0.006978305	-6.20674e-05	-6.927034e-05	0.007704988	-0.01804286
8e+07	0.006108976	-0.02093015	-5.695699e-05	-6.430045e-05	0.004339576	0.007567421	-7.502483e-05	-6.753188e-06
	-5.695699e-05	-6.430045e-05	0.005924121	-0.02095938	-6.041775e-05	9.575757e-06	0.004227374	0.007616238
	0.004339587	0.007567411	-6.041775e-05	9.575757e-06	0.006065011	-0.02108463	-5.333522e-05	-6.908279e-05
	-7.502483e-05	-6.753188e-06	0.00422737	0.007616242	-5.333522e-05	-6.908279e-05	0.00589422	-0.02096636
9e+07	0.003973451	-0.0236425	-4.813605e-05	-6.228414e-05	0.005307492	0.008065148	-7.973973e-05	7.313364e-06
	-4.813605e-05	-6.228414e-05	0.003738943	-0.02362907	-5.726207e-05	2.684975e-06	0.005174645	0.008136326
	0.005307499	0.008065139	-5.726207e-05	2.684974e-06	0.003903785	-0.02379006	-4.884148e-05	-6.44891e-05
	-7.973973e-05	7.313364e-06	0.005174642	0.00813633	-4.884148e-05	-6.44891e-05	0.003707509	-0.02365482
1e+08	0.001516386	-0.0260685	-5.127312e-05	-4.6652e-05	0.006321443	0.008433862	-7.996125e-05	2.534389e-05
	-5.127312e-05	-4.6652e-05	0.001237111	-0.02600059	-5.645001e-05	-8.041465e-06	0.006168734	0.008531926
	0.006321443	0.008433862	-5.645001e-05	-8.041465e-06	0.001424765	-0.02620262	-5.736387e-05	-4.452969e-05
	-7.996125e-05	2.534389e-05	0.006168734	0.008531926	-5.736387e-05	-4.452969e-05	0.001197509	-0.02604782
1.1e+08	-0.001184555	-0.0282383	-4.839352e-05	-3.417313e-05	0.007363102	0.008671168	-7.06866e-05	3.722806e-05
	-4.839352e-05	-3.417313e-05	-0.001497835	-0.02811389	-5.09996e-05	-2.400014e-05	0.007192217	0.008799018
	0.007363102	0.008671168	-5.09996e-05	-2.400014e-05	-0.00128751	-0.02836354	-5.386482e-05	-3.132943e-05
	-7.06866e-05	3.722806e-05	0.007192217	0.008799018	-5.386482e-05	-3.132943e-05	-0.001555468	-0.0281744
1.2e+08	-0.004158513	-0.03009112	-4.731994e-05	-2.584736e-05	0.008418048	0.008775069	-6.313625e-05	4.49531e-05
	-4.731994e-05	-2.584736e-05	-0.004504803	-0.02990743	-4.574775e-05	-3.87994e-05	0.008230582	0.008936458
	0.008418048	0.008775069	-4.574775e-05	-3.87994e-05	-0.004276028	-0.03020999	-5.229573e-05	-2.254814e-05
	-6.313625e-05	4.49531e-05	0.008230582	0.008936457	-5.229573e-05	-2.254814e-05	-0.004579827	-0.02997542
1.3e+08	-0.007346778	-0.03158391	-4.648577e-05	-1.885508e-05	0.009469155	0.008744836	-5.602595e-05	5.092339e-05
	-4.648577e-05	-1.885508e-05	-0.007722721	-0.03133587	-4.208508e-05	-5.411391e-05	0.009267521	0.008943432
	0.009469155	0.008744836	-4.208508e-05	-5.411391e-05	-0.007480271	-0.03169572	-5.100982e-05	-1.521295e-05
	-5.602595e-05	5.092339e-05	0.009267521	0.008943432	-5.100982e-05	-1.521295e-05	-0.007815462	-0.03140778
1.4e+08	-0.01069625	-0.0326925	-4.557902e-05	-1.261307e-05	0.01049956	0.008582352	-5.023149e-05	5.467064e-05
	-4.557902e-05	-1.261307e-05	-0.01109729	-0.03237491	-4.051032e-05	-7.01238e-05	0.0102868	0.008821478
	0.01049956	0.008582352	-4.051032e-05	-7.01238e-05	-0.01084642	-0.03279569	-4.968149e-05	-8.702782e-06
	-5.023149e-05	5.467064e-05	0.0102868	0.008821478	-4.968149e-05	-8.702782e-06	-0.01120793	-0.03244756
1.5e+08	-0.01415417	-0.0334012	-4.445895e-05	-6.857729e-06	0.01149283	0.008291651	-4.850528e-05	5.447918e-05
	-4.445895e-05	-6.857729e-06	-0.0145747	-0.0330092	-4.137797e-05	-8.671759e-05	0.01127254	0.008574197
	0.01149283	0.008291651	-4.137797e-05	-8.671759e-05	-0.01432111	-0.03349382	-4.816387e-05	-2.734119e-06
	-4.850528e-05	5.447918e-05	0.01127254	0.008574197	-4.816387e-05	-2.734119e-06	-0.01470313	-0.03307961
1.6e+08	-0.01766798	-0.03370157	-4.304011e-05	-1.526661e-06	0.01243324	0.0078788	-4.663164e-05	5.459748e-05
	-4.304011e-05	-1.526661e-06	-0.01810149	-0.03323089	-4.495567e-05	-0.0001036394	0.01220953	0.008207149
	0.01243324	0.0078788	-4.495567e-05	-0.0001036394	-0.01785129	-0.03378153	-4.636927e-05	2.767501e-06
	-4.663164e-05	5.459748e-05	0.01220953	0.008207149	-4.636927e-05	2.767501e-06	-0.01824726	-0.03329623
1.7e+08	-0.02118574	-0.03359188	-4.12846e-05	3.419314e-06	0.013306	0.007351773	-4.463565e-05	5.492428e-05
	-4.12846e-05	3.419314e-06	-0.02162487	-0.03303902	-5.143324e-05	-0.0001205432	0.0130834	0.007727731
	0.013306	0.007351773	-5.143324e-05	-0.0001205432	-0.02138459	-0.03365707	-4.425759e-05	7.850552e-06
	-4.463565e-05	5.492428e-05	0.0130834	0.007727731	-4.425759e-05	7.850552e-06	-0.02178721	-0.03309663
1.8e+08	-0.02465664	-0.03307673	-3.917918e-05	7.984647e-06	0.01409748	0.006720311	-4.253209e-05	5.538931e-05
	-3.917918e-05	7.984647e-06	-0.02509334	-0.03243916	-6.092184e-05	-0.0001370238	0.01388087	0.007145038
	0.01409748	0.006720311	-6.092184e-05	-0.0001370238	-0.0248698	-0.03312517	-4.18135e-05	1.252663e-05
	-4.253209e-05	5.538931e-05	0.01388087	0.007145038	-4.18135e-05	1.252663e-05	-0.02527113	-0.03248658
1.9e+08	-0.02803152	-0.03216677	-3.672959e-05	1.215492e-05	0.01479543	0.005995746	-4.033153e-05	5.594035e-05
	-3.672959e-05	1.215492e-05	-0.02845716	-0.03144305	-7.345201e-05	-0.0001526393	0.01458996	0.006469704
	0.01479543	0.005995746	-7.345201e-05	-0.0001526393	-0.02825745	-0.03219664	-3.904055e-05	1.678694e-05
	-4.033153e-05	5.594035e-05	0.01458996	0.006469704	-3.904055e-05	1.678694e-05	-0.02864901	-0.03147802
2e+08	-0.03126347	-0.03087838	-3.395722e-05	1.590636e-05	0.01538916	0.005190815	-3.804239e-05	5.653702e-05
	-3.395722e-05	1.590636e-05	-0.03166902	-0.03006829	-8.897185e-05	-0.0001669306	0.01520013	0.005713718
	0.01538916	0.005190815	-8.897185e-05	-0.0001669306	-0.03150035	-0.03088806	-3.595779e-05	2.061211e-05
	-3.804239e-05	5.653702e-05	0.01520013	0.005713718	-3.595779e-05	2.061211e-05	-0.03187327	-0.0300888
2.1e+08	-0.03430836	-0.02923332	-3.089651e-05	1.921228e-05	0.01586965	0.004319443	-3.567229e-05	5.714714e-05
	-3.089651e-05	1.921228e-05	-0.03468458	-0.02833791	-0.000107348	-0.0001794382	0.01570244	0.00489023
	0.01586965	0.004319443	-0.000107348	-0.0001794382	-0.03455414	-0.02922143	-3.259711e-05	2.397882e-05
	-3.567229e-05	5.714714e-05	0.01570244	0.00489023	-3.259711e-05	2.397882e-05	-0.03489934	-0.0283422
2.2e+08	-0.03712541	-0.02725827	-2.759283e-05	2.204746e-05	0.01622975	0.003396522	-3.322849e-05	5.774451e-05
	-2.759283e-05	2.204746e-05	-0.03746303	-0.02627994	-0.0001283675	-0.0001897182	0.01608967	0.004013339
	0.01622975	0.003396522	-0.0001283675	-0.0001897182	-0.03737787	-0.02722372	-2.900123e-05	2.686425e-05
	-3.322849e-05	5.774451e-05	0.01608967	0.004013339	-2.900123e-05	2.686425e-05	-0.0376862	-0.02626656
2.3e+08	-0.03967764	-0.02498441	-2.41004e-05	2.439143e-05	0.01646423	0.002437668	-3.071816e-05	5.830752e-05
	-2.41004e-05	2.439143e-05	-0.03996756	-0.02392692	-0.0001517422	-0.0001973588	0.01635642	0.003097867
	0.01646423	0.002437668	-0.0001517422	-0.0001973588	-0.03993439	-0.02492637	-2.52217e-05	2.924944e-05
	-3.071816e-05	5.830752e-05	0.01635642	0.003097867	-2.52217e-05	2.924944e-05	-0.04019688	-0.02389471
2.4e+08	-0.04193232	-0.0224469	-2.047966e-05	2.623091e-05	0.01656985	0.001458976	-2.814907e-05	5.881812e-05
	-2.047966e-05	2.623091e-05	-0.04216584	-0.02131536	-0.0001771166	-0.000201989	0.01649917	0.002159134
	0.01656985	0.001458976	-0.0001771166	-0.000201989	-0.04219091	-0.02236486	-2.131635e-05	3.112177e-05
	-2.814907e-05	5.881812e-05	0.01649917	0.002159134	-2.131635e-05	3.112177e-05	-0.04239892	-0.02126348
2.5e+08	-0.04386141	-0.01968433	-1.679559e-05	2.756141e-05	0.01654538	0.0004767726	-2.552912e-05	5.926126e-05
	-1.679559e-05	2.756141e-05	-0.04403038	-0.01848518	-0.0002040744	-0.0002033078	0.0165163	0.001212723
	0.01654538	0.0004767726	-0.0002040744	-0.0002033078	-0.04411927	-0.01957808	-1.734775e-05	3.247666e-05
	-2.552912e-05	5.926126e-05	0.0165163	0.001212723	-1.734775e-05	3.247666e-05	-0.04426475	-0.01841311
2.6e+08	-0.04544178	-0.01673815	-1.306251e-05	2.831747e-05	0.01639166	-0.000492636	-2.286771e-05	5.962438e-05
	-1.306251e-05	2.831747e-05	-0.04553889	-0.01547904	-0.0002323633	-0.0001928871	0.01640812	0.0002742478
	0.01639166	-0.000492636	-0.0002323633	-0.0001928871	-0.04569639	-0.01660778	-1.33261e-05	3.325017e-05
	-2.286771e-05	5.962438e-05	0.01640812	0.0002742478	-1.33261e-05	3.325017e-05	-0.04577201	-0.01538661
2.7e+08	-0.04665559	-0.01365202	-9.40403e-06	2.856286e-05	0.0161115	-0.001433211	-2.017256e-05	5.989741e-05
	-9.40403e-06	2.856286e-05	-0.04667443	-0.01234176	-0.0002602315	-0.0001774734	0.01617684	-0.0006408813
	0.0161115	-0.001433211	-0.0002602315	-0.0001774734	-0.0469044	-0.01349796	-9.374313e-06	3.350239e-05
	-2.017256e-05	5.989741e-05	0.01617684	-0.0006408813	-9.374313e-06	3.350239e-05	-0.04690378	-0.01222913
2.8e+08	-0.04749038	-0.01047121	-5.895661e-06	2.833659e-05	0.01570968	-0.002329421	-1.745233e-05	6.007209e-05
	-5.895661e-06	2.833659e-05	-0.04742569	-0.009119624	-0.0002870564	-0.0001584425	0.01582653	-0.00151768
	0.01570968	-0.002329421	-0.0002870564	-0.0001584425	-0.04773088	-0.01029419	-5.567091e-06	3.326984e-05
	-1.745233e-05	6.007209e-05	0.01582653	-0.00151768	-5.567091e-06	3.326984e-05	-0.0476488	-0.008987288
2.9e+08	-0.04793924	-0.007241918	-2.598325e-06	2.767664e-05	0.01519284	-0.003166473	-1.471593e-05	6.014185e-05
	-2.598325e-06	2.767664e-05	-0.04778703	-0.005859706	-0.0003123305	-0.0001358723	0.01536304	-0.002341809
	0.01519284	-0.003166473	-0.0003123305	-0.0001358723	-0.04816902	-0.007042993	-1.964896e-06	3.258806e-05
	-1.471593e-05	6.014185e-05	0.01536304	-0.002341809	-1.964896e-06	3.258806e-05	-0.04800149	-0.005708485
3e+08	-0.04800081	-0.004010663	4.336512e-07	2.663004e-05	0.01456938	-0.003930528	-1.197225e-05	6.01016e-05
	4.336512e-07	2.663004e-05	-0.04775852	-0.002609207	-0.0003355563	-0.0001099214	0.01479392	-0.003099778
	0.01456938	-0.003930528	-0.0003355563	-0.0001099214	-0.04821759	-0.00379118	1.377706e-06	3.150141e-05
	-1.197225e-05	6.01016e-05	0.01479392	-0.003099778	1.377706e-06	3.150141e-05	-0.04796207	-0.002440229
3.1e+08	-0.04767929	-0.0008235696	3.154377e-06	2.525153e-05	0.01384934	-0.004608908	-9.230182e-06	5.994784e-05
	3.154377e-06	2.525153e-05	-0.04734589	0.0005852393	-0.0003562589	-8.082351e-05	0.01412829	-0.003779143
	0.01384934	-0.004608908	-0.0003562589	-8.082351e-05	-0.04788096	-0.000585165	4.413863e-06	3.006189e-05
	-9.230182e-06	5.994784e-05	0.01412829	-0.003779143	4.413863e-06	3.006189e-05	-0.0475364	0.0007705469
3.2e+08	-0.04698429	0.002274223	5.527565e-06	2.360213e-05	0.01304422	-0.005190281	-6.49844e-06	5.967821e-05
	5.527565e-06	2.360213e-05	-0.04656035	0.003678201	-0.0003739989	-4.888619e-05	0.01337669	-0.004368679
	0.01304422	-0.005190281	-0.0003739989	-4.888619e-05	-0.04716895	0.002529654	7.105585e-06	2.832785e-05
	-6.49844e-06	5.967821e-05	0.01337669	-0.004368679	7.105585e-06	2.832785e-05	-0.04673592	0.003878139
3.3e+08	-0.0459307	0.005239209	7.527506e-06	2.174735e-05	0.01216682	-0.005664825	-3.785456e-06	5.929146e-05
	7.527506e-06	2.174735e-05	-0.04541845	0.006626091	-0.0003883848	-1.448363e-05	0.01255095	-0.004858543
	0.01216682	-0.005664825	-0.0003883848	-1.448363e-05	-0.04609666	0.005509528	9.424741e-06	2.63624e-05
	-3.785456e-06	5.929146e-05	0.01255095	-0.004858543	9.424741e-06	2.63624e-05	-0.04557738	0.006838714
3.4e+08	-0.04453839	0.00803011	9.139908e-06	1.975529e-05	0.01123106	-0.006024375	-1.099425e-06	5.878745e-05
	9.139908e-06	1.975529e-05	-0.04394176	0.009387783	-0.0003990823	2.195367e-05	0.01166398	-0.005240415
	0.01123106	-0.006024375	-0.0003990823	2.195367e-05	-0.04468426	0.008312969	1.135397e-05	2.423158e-05
	-1.099425e-06	5.878745e-05	0.01166398	-0.005240415	1.135397e-05	2.423158e-05	-0.04408262	0.009610928
3.5e+08	-0.04283193	0.01060843	1.036208e-05	1.769464e-05	0.01025174	-0.006262541	1.551836e-06	5.816681e-05
	1.036208e-05	1.769464e-05	-0.04215652	0.01192516	-0.0004058236	5.994724e-05	0.01072964	-0.005507618
	0.01025174	-0.006262541	-0.0004058236	5.994724e-05	-0.0429566	0.01090131	1.28869e-05	2.200259e-05
	1.551836e-06	5.816681e-05	0.01072964	-0.005507618	1.28869e-05	2.200259e-05	-0.04227819	0.01215648
3.6e+08	-0.04084023	0.01293898	1.120294e-05	1.563264e-05	0.009244354	-0.006374811	4.160879e-06	5.743102e-05
	1.120294e-05	1.563264e-05	-0.04009328	0.01420364	-0.000408414	9.898307e-05	0.009762455	-0.005655211
	0.009244354	-0.006374811	-0.000408414	9.898307e-05	-0.04094291	0.01323922	1.402834e-05	1.974181e-05
	4.160879e-06	5.743102e-05	0.009762455	-0.005655211	1.402834e-05	1.974181e-05	-0.04019492	0.01444066
3.7e+08	-0.03859606	0.01499036	1.168258e-05	1.363314e-05	0.008224823	-0.006358611	6.720673e-06	5.658214e-05
	1.168258e-05	1.363314e-05	-0.03778639	0.01619267	-0.0004067372	0.0001385234	0.008777467	-0.005680071
	0.008224823	-0.006358611	-0.0004067372	0.0001385234	-0.0386763	0.0152952	1.479387e-05	1.7513e-05
	6.720673e-06	5.658214e-05	0.008777467	-0.005680071	1.479387e-05	1.7513e-05	-0.0378675	0.0164328
3.8e+08	-0.03613562	0.01673538	1.183146e-05	1.175464e-05	0.007209289	-0.006213357	9.224598e-06	5.56228e-05
	1.183146e-05	1.175464e-05	-0.03527351	0.01786611	-0.0004007572	0.0001780198	0.007789988	-0.005580935
	0.007209289	-0.006213357	-0.0004007572	0.0001780198	-0.03619332	0.01704201	1.520929e-05	1.537543e-05
	9.224598e-06	5.56228e-05	0.007789988	-0.005580935	1.520929e-05	1.537543e-05	-0.03533394	0.01810669
3.9e+08	-0.03349797	0.0181514	1.168938e-05	1.004863e-05	0.006213856	-0.005940463	1.166643e-05	5.45561e-05
	1.168938e-05	1.004863e-05	-0.03259507	0.01920257	-0.0003905192	0.0002169269	0.006815376	-0.005358422
	0.006213856	-0.005940463	-0.0003905192	0.0002169269	-0.03353339	0.01845699	1.530969e-05	1.338217e-05
	1.166643e-05	5.45561e-05	0.006815376	-0.005358422	1.530969e-05	1.338217e-05	-0.03263499	0.01944094
4e+08	-0.03072452	0.01922066	1.130404e-05	8.557991e-06	0.005254346	-0.00554333	1.404035e-05	5.33855e-05
	1.130404e-05	8.557991e-06	-0.02979364	0.02018576	-0.0003761477	0.0002547147	0.005868811	-0.005015034
	0.005254346	-0.00554333	-0.0003761477	0.0002547147	-0.03073827	0.01952242	1.513819e-05	1.157867e-05
	1.404035e-05	5.33855e-05	0.005868811	-0.005015034	1.513819e-05	1.157867e-05	-0.02981359	0.02041928
4.1e+08	-0.02785837	0.01993049	1.07294e-05	7.315811e-06	0.004346064	-0.0050273	1.63409e-05	5.211485e-05
	1.07294e-05	7.315811e-06	-0.02691333	0.02080461	-0.0003578422	0.0002908819	0.004965064	-0.004555123
	0.004346064	-0.0050273	-0.0003578422	0.0002908819	-0.02785141	0.02022572	1.474453e-05	1.00014e-05
	1.63409e-05	5.211485e-05	0.004965064	-0.004555123	1.474453e-05	1.00014e-05	-0.02691419	0.02103072
4.2e+08	-0.02494374	0.02027349	1.002389e-05	6.344344e-06	0.003503552	-0.004399585	1.8563e-05	5.074828e-05
	1.002389e-05	6.344344e-06	-0.02399916	0.02105349	-0.0003358711	0.0003249667	0.004118276	-0.003984831
	0.003503552	-0.004399585	-0.0003358711	0.0003249667	-0.02491739	0.0205596	1.418336e-05	8.676857e-06
	1.8563e-05	5.074828e-05	0.004118276	-0.003984831	1.418336e-05	8.676857e-06	-0.02398215	0.02126975
4.3e+08	-0.02202533	0.02024759	9.248277e-06	5.654496e-06	0.002740374	-0.003669165	2.070189e-05	4.929018e-05
	9.248277e-06	5.654496e-06	-0.0210964	0.02093222	-0.0003105641	0.0003565578	0.003341741	-0.003312006
	0.002740374	-0.003669165	-0.0003105641	0.0003565578	-0.02198122	0.02052216	1.351238e-05	7.62094e-06
	2.070189e-05	4.929018e-05	0.003341741	-0.003312006	1.351238e-05	7.62094e-06	-0.02106303	0.02113633
4.4e+08	-0.01914765	0.01985608	8.463672e-06	5.245531e-06	0.002068889	-0.002846658	2.275317e-05	4.774517e-05
	8.463672e-06	5.245531e-06	-0.01824988	0.02044604	-0.0002823022	0.0003853025	0.002647697	-0.002546091
	0.002068889	-0.002846658	-0.0002823022	0.0003853025	-0.01908774	0.02011691	1.27904e-05	6.838524e-06
	2.275317e-05	4.774517e-05	0.002647697	-0.002546091	1.27904e-05	6.838524e-06	-0.01820198	0.02063593
4.5e+08	-0.01635443	0.01910753	7.729355e-06	5.105258e-06	0.001500062	-0.001944166	2.47127e-05	4.611806e-05
	7.729355e-06	5.105258e-06	-0.01550341	0.01960557	-0.0002515075	0.0004109143	0.00204714	-0.001697988
	0.001500062	-0.001944166	-0.0002515075	0.0004109143	-0.01628094	0.01935266	1.207535e-05	6.323517e-06
	2.47127e-05	4.611806e-05	0.00204714	-0.001697988	1.207535e-05	6.323517e-06	-0.01544307	0.01977939
4.6e+08	-0.01368796	0.01801569	7.100697e-06	5.210451e-06	0.001043278	-0.0009750928	2.657663e-05	4.441384e-05
	7.100697e-06	5.210451e-06	-0.01289908	0.0184266	-0.0002186303	0.0004331774	0.001549643	-0.0007798975
	0.001043278	-0.0009750928	-0.0002186303	0.0004331774	-0.01360338	0.01824344	1.14222e-05	6.059022e-06
	2.657663e-05	4.441384e-05	0.001549643	-0.0007798975	1.14222e-05	6.059022e-06	-0.0128286	0.0185828
4.7e+08	-0.01118851	0.01659923	6.6272e-06	5.527858e-06	0.0007061909	4.605566e-05	2.834144e-05	4.263772e-05
	6.6272e-06	5.527858e-06	-0.0104767	0.01692982	-0.0001841378	0.0004519499	0.001163203	0.0001948659
	0.0007061909	4.605566e-05	-0.0001841378	0.0004519499	-0.01109554	0.01680824	1.088142e-05	6.01851e-06
