!$
! Info: Touchstone file created by Circ.  Input file=Tx_6in_Rx_85ohms_TxVia_10mils_RxVia_20mils.circ
!$
# Hz S RI R 50
0	0.004931799	4.425585e-26	-3.26852e-05	1.912675e-25	4.554345e-05	5.2039e-24	-3.2711e-05	3.000561e-24
	-3.268521e-05	1.92091e-25	0.004932474	6.055593e-26	-3.267812e-05	8.015767e-26	4.362913e-05	6.967253e-24
	4.424204e-05	5.070531e-24	-3.267812e-05	8.022885e-26	0.004947171	4.636379e-26	-3.268796e-05	3.802005e-25
	-3.271099e-05	2.999688e-24	4.508672e-05	7.170977e-24	-3.268795e-05	3.787642e-25	0.004938103	5.777938e-26
1e+07	0.006556067	-0.005419295	-6.834375e-05	-1.717957e-05	0.0001599042	0.001156106	-4.983718e-06	-1.419624e-06
	-6.834375e-05	-1.717957e-05	0.006571774	-0.005422319	-2.464637e-05	4.776827e-05	0.0001579264	0.001158708
	0.0001598603	0.001156109	-2.464637e-05	4.776827e-05	0.006591638	-0.005408511	-6.836585e-05	-1.720426e-05
	-4.983718e-06	-1.419623e-06	0.0001579587	0.001158697	-6.836586e-05	-1.720426e-05	0.006567774	-0.005417963
2e+07	0.007223347	-0.01247282	-6.36263e-05	7.313901e-06	0.0004057811	0.002257224	-3.689368e-06	-1.015878e-05
	-6.36263e-05	7.313901e-06	0.007220902	-0.01248441	-3.268864e-05	6.356642e-05	0.0003982787	0.002263313
	0.0004057716	0.002257252	-3.268864e-05	6.356642e-05	0.007255154	-0.01245935	-6.364705e-05	7.229468e-06
	-3.689367e-06	-1.015878e-05	0.0003982755	0.002263292	-6.364705e-05	7.229469e-06	0.007220199	-0.01246958
3e+07	0.006414768	-0.02021319	-6.223191e-05	3.507639e-06	0.0007833099	0.003307219	-1.041555e-05	-1.236073e-05
	-6.223191e-05	3.507639e-06	0.00638621	-0.02022514	-3.312103e-05	7.798237e-05	0.0007670026	0.003318345
	0.0007833107	0.003307223	-3.312103e-05	7.798237e-05	0.006443632	-0.02019235	-6.22615e-05	3.379767e-06
	-1.041555e-05	-1.236073e-05	0.0007669975	0.003318342	-6.22615e-05	3.379767e-06	0.006388424	-0.02020313
4e+07	0.004372922	-0.02797258	-6.14498e-05	2.25453e-06	0.001286654	0.004292578	-1.604882e-05	-1.205818e-05
	-6.14498e-05	2.25453e-06	0.004310557	-0.02797862	-2.830992e-05	8.91625e-05	0.001258575	0.00431087
	0.00128665	0.004292576	-2.830992e-05	8.91625e-05	0.004399175	-0.02794332	-6.148855e-05	2.078037e-06
	-1.604882e-05	-1.205818e-05	0.001258575	0.004310871	-6.148855e-05	2.078037e-06	0.004315075	-0.02795223
5e+07	0.001219138	-0.03550091	-6.108577e-05	2.15142e-06	0.001906182	0.00519846	-2.083774e-05	-1.031499e-05
	-6.108577e-05	2.15142e-06	0.001116161	-0.0354938	-1.961877e-05	9.655262e-05	0.001863806	0.005226643
	0.00190618	0.005198459	-1.961877e-05	9.655262e-05	0.001242883	-0.03546265	-6.113688e-05	1.921181e-06
	-2.083774e-05	-1.031499e-05	0.001863806	0.005226643	-6.113688e-05	1.921181e-06	0.001120989	-0.03546376
6e+07	-0.002949091	-0.04262308	-6.10043e-05	2.770067e-06	0.002630011	0.006011189	-2.487286e-05	-7.532171e-06
	-6.10043e-05	2.770067e-06	-0.003098285	-0.04259452	-8.224769e-06	9.960096e-05	0.002571374	0.006052453
	0.002630016	0.006011186	-8.22477e-06	9.960096e-05	-0.002927887	-0.04257532	-6.107301e-05	2.480682e-06
	-2.487286e-05	-7.532171e-06	0.002571371	0.006052454	-6.1073e-05	2.480682e-06	-0.003094274	-0.04256053
7e+07	-0.008036143	-0.04919832	-6.10968e-05	3.934353e-06	0.003444512	0.006718731	-2.817028e-05	-3.897443e-06
	-6.10968e-05	3.934353e-06	-0.008235735	-0.04913908	4.680525e-06	9.779069e-05	0.003368252	0.006776611
	0.003444523	0.006718723	4.680525e-06	9.779069e-05	-0.008017551	-0.04914051	-6.119057e-05	3.58063e-06
	-2.817028e-05	-3.897443e-06	0.003368247	0.006776614	-6.119057e-05	3.58063e-06	-0.008233252	-0.04910104
8e+07	-0.01394171	-0.05510882	-6.126991e-05	5.553229e-06	0.004334621	0.007311038	-3.068929e-05	5.123343e-07
	-6.126991e-05	5.55323e-06	-0.01419432	-0.05500896	1.779766e-05	9.063046e-05	0.004239994	0.007389325
	0.004334632	0.007311027	1.779766e-05	9.063046e-05	-0.01392578	-0.05504032	-6.139857e-05	5.130779e-06
	-3.068929e-05	5.123341e-07	0.00423999	0.00738933	-6.139857e-05	5.130779e-06	-0.01419436	-0.0549669
9e+07	-0.02055914	-0.0602559	-6.144273e-05	7.566068e-06	0.005284241	0.00778044	-3.230447e-05	5.740313e-06
	-6.144273e-05	7.566069e-06	-0.02086569	-0.06010498	2.956214e-05	7.748365e-05	0.005171161	0.007883095
	0.005284247	0.00778043	2.956214e-05	7.748365e-05	-0.0205458	-0.06017594	-6.161839e-05	7.071878e-06
	-3.230447e-05	5.740313e-06	0.005171158	0.007883099	-6.161838e-05	7.071878e-06	-0.02086962	-0.06005857
1e+08	-0.02777665	-0.06456029	-6.156104e-05	9.915592e-06	0.006277558	0.0081232	-3.241833e-05	1.246438e-05
	-6.156104e-05	9.915592e-06	-0.02813629	-0.06434745	3.677756e-05	5.546622e-05	0.006146624	0.008254261
	0.006277557	0.0081232	3.677756e-05	5.546622e-05	-0.02776564	-0.06446783	-6.17981e-05	9.348238e-06
	-3.241833e-05	1.246438e-05	0.006146624	0.008254261	-6.17981e-05	9.348238e-06	-0.02814564	-0.06429591
1.1e+08	-0.03548015	-0.06795566	-6.15215e-05	1.248041e-05	0.007302452	0.008327546	-2.896903e-05	1.711331e-05
	-6.15215e-05	1.248041e-05	-0.03589044	-0.06766958	5.214784e-05	2.284827e-05	0.007154512	0.008490598
	0.007302452	0.008327546	5.214784e-05	2.284827e-05	-0.03546948	-0.06785056	-6.183449e-05	1.184578e-05
	-2.896903e-05	1.711331e-05	0.007154512	0.008490598	-6.183449e-05	1.184578e-05	-0.0359053	-0.0676106
1.2e+08	-0.04353759	-0.0703819	-6.125204e-05	1.531669e-05	0.008330494	0.008393928	-2.607725e-05	2.0229e-05
	-6.125204e-05	1.531669e-05	-0.04399388	-0.07001293	6.638909e-05	-8.66786e-06	0.008167749	0.008593142
	0.008330494	0.008393928	6.638909e-05	-8.66786e-06	-0.04352775	-0.07026411	-6.165618e-05	1.462041e-05
	-2.607725e-05	2.0229e-05	0.008167749	0.008593142	-6.165618e-05	1.462041e-05	-0.04401425	-0.06994503
1.3e+08	-0.05182227	-0.07181108	-6.072545e-05	1.835745e-05	0.009345426	0.008326435	-2.372767e-05	2.222955e-05
	-6.072545e-05	1.835745e-05	-0.05231834	-0.07135001	7.690874e-05	-4.189934e-05	0.009170752	0.008565529
	0.009345425	0.008326435	7.690874e-05	-4.189934e-05	-0.05181337	-0.07167993	-6.123622e-05	1.7608e-05
	-2.372767e-05	2.222955e-05	0.009170752	0.008565529	-6.123622e-05	1.7608e-05	-0.05234407	-0.07127174
1.4e+08	-0.06020617	-0.07222939	-5.991006e-05	2.155159e-05	0.01033068	0.008129511	-2.303536e-05	2.22865e-05
	-5.991006e-05	2.155159e-05	-0.06073436	-0.07166779	8.272668e-05	-7.690274e-05	0.01014755	0.008411723
	0.01033068	0.008129511	8.272668e-05	-7.690274e-05	-0.06019795	-0.07208399	-6.054211e-05	2.076051e-05
	-2.303536e-05	2.22865e-05	0.01014755	0.008411723	-6.054211e-05	2.076051e-05	-0.06076501	-0.0715777
1.5e+08	-0.0685626	-0.07163863	-5.877585e-05	2.482227e-05	0.01127042	0.007809381	-2.225545e-05	2.251183e-05
	-5.877585e-05	2.482227e-05	-0.06911387	-0.0709691	8.317487e-05	-0.0001132082	0.01108286	0.008137417
	0.01127042	0.007809381	8.317487e-05	-0.0001132082	-0.06855443	-0.07147805	-5.954297e-05	2.400393e-05
	-2.225545e-05	2.251183e-05	0.01108286	0.008137417	-5.954297e-05	2.400393e-05	-0.06914871	-0.07086579
1.6e+08	-0.07676784	-0.07005583	-5.731e-05	2.810776e-05	0.01214991	0.007374047	-2.140103e-05	2.284727e-05
	-5.731e-05	2.810776e-05	-0.07733192	-0.06927219	7.779783e-05	-0.000150097	0.01196239	0.007750021
	0.01214991	0.007374047	7.779783e-05	-0.000150097	-0.07675879	-0.0698792	-5.822423e-05	2.727956e-05
	-2.140103e-05	2.284727e-05	0.01196239	0.007750021	-5.822423e-05	2.727956e-05	-0.07736989	-0.06915436
1.7e+08	-0.08470275	-0.06751249	-5.551038e-05	3.13477e-05	0.01295567	0.006833141	-2.047908e-05	2.325361e-05
	-5.551038e-05	3.13477e-05	-0.08526826	-0.06661004	6.633191e-05	-0.0001867104	0.01277309	0.00725851
	0.01295567	0.006833141	6.633191e-05	-0.0001867104	-0.0846916	-0.06731914	-5.658138e-05	3.052975e-05
	-2.047908e-05	2.325361e-05	0.01277309	0.00725851	-5.658138e-05	3.052975e-05	-0.08530808	-0.06647656
1.8e+08	-0.09225422	-0.06405383	-5.338513e-05	3.448455e-05	0.01367574	0.006197726	-1.949403e-05	2.370222e-05
	-5.338513e-05	3.448455e-05	-0.09280889	-0.06302944	4.870093e-05	-0.0002221134	0.01350327	0.006673234
	0.01367574	0.006197726	4.870093e-05	-0.0002221134	-0.09223954	-0.06384326	-5.461958e-05	3.369933e-05
	-1.949403e-05	2.370222e-05	0.01350327	0.006673234	-5.461958e-05	3.369933e-05	-0.09284903	-0.0628794
1.9e+08	-0.09931654	-0.0597377	-5.09517e-05	3.746505e-05	0.01429972	0.005480082	-1.844942e-05	2.417084e-05
	-5.09517e-05	3.746505e-05	-0.09984745	-0.05859006	2.501197e-05	-0.0002553435	0.01414278	0.006005708
	0.01429972	0.005480082	2.501197e-05	-0.0002553435	-0.09929679	-0.05950969	-5.235286e-05	3.673684e-05
	-1.844942e-05	2.417084e-05	0.01414278	0.006005708	-5.235286e-05	3.673684e-05	-0.0998862	-0.05842279
2e+08	-0.1057927	-0.05463357	-4.823584e-05	4.024134e-05	0.01481896	0.004693474	-1.734863e-05	2.464145e-05
	-4.823584e-05	4.024134e-05	-0.1062865	-0.05336321	-4.450575e-06	-0.0002854503	0.01468304	0.005268396
	0.01481896	0.004693474	-4.450575e-06	-0.0002854503	-0.1057662	-0.05438815	-4.98031e-05	3.959569e-05
	-1.734863e-05	2.464145e-05	0.01468304	0.005268396	-4.98031e-05	3.959569e-05	-0.106322	-0.05317833
2.1e+08	-0.1115953	-0.04882124	-4.527023e-05	4.277209e-05	0.01522654	0.00385193	-1.619539e-05	2.509913e-05
	-4.527023e-05	4.277209e-05	-0.1120386	-0.04743071	-3.923585e-05	-0.0003115299	0.01511714	0.0044745
	0.01522654	0.00385193	-3.923585e-05	-0.0003115299	-0.1115604	-0.04855873	-4.699889e-05	4.223505e-05
	-1.619539e-05	2.509913e-05	0.01511714	0.0044745	-4.699889e-05	4.223505e-05	-0.1120689	-0.04722811
2.2e+08	-0.116648	-0.04238962	-4.20932e-05	4.502309e-05	0.01551737	0.002970011	-1.499382e-05	2.553126e-05
	-4.20932e-05	4.502309e-05	-0.1170273	-0.04088342	-7.874018e-05	-0.000332755	0.01543983	0.003637753
	0.01551737	0.002970011	-7.874018e-05	-0.000332755	-0.116603	-0.04211058	-4.397424e-05	4.462055e-05
	-1.499382e-05	2.553126e-05	0.01543983	0.003637753	-4.397424e-05	4.462055e-05	-0.1170505	-0.04066332
2.3e+08	-0.1208856	-0.03543527	-3.874722e-05	4.69678e-05	0.01568815	0.002062604	-1.374854e-05	2.592718e-05
	-3.874722e-05	4.69678e-05	-0.1211882	-0.03381992	-0.0001222248	-0.0003484022	0.01564757	0.002772222
	0.01568815	0.002062604	-0.0001222248	-0.0003484022	-0.1208288	-0.03514056	-4.076739e-05	4.672468e-05
	-1.374854e-05	2.592718e-05	0.01564757	0.002772222	-4.076739e-05	4.672468e-05	-0.1212022	-0.03358285
2.4e+08	-0.1242553	-0.02806107	-3.527761e-05	4.858768e-05	0.01573736	0.001144714	-1.24648e-05	2.627788e-05
	-3.527761e-05	4.858768e-05	-0.124469	-0.02634505	-0.000168838	-0.0003578707	0.01573847	0.00189212
	0.01573736	0.001144714	-0.000168838	-0.0003578707	-0.1241853	-0.0277518	-3.74195e-05	4.852717e-05
	-1.24648e-05	2.627788e-05	0.01573847	0.00189212	-3.74195e-05	4.852717e-05	-0.1244719	-0.02609184
2.5e+08	-0.1267171	-0.02037471	-3.173111e-05	4.987209e-05	0.01566527	0.000231274	-1.114825e-05	2.657582e-05
	-3.173111e-05	4.987209e-05	-0.1268307	-0.01856836	-0.0002176375	-0.0003607026	0.0157123	0.001011637
	0.01566527	0.0002312741	-0.0002176375	-0.0003607026	-0.1266323	-0.02005224	-3.397345e-05	5.001491e-05
	-1.114825e-05	2.657582e-05	0.0157123	0.001011637	-3.397345e-05	5.001491e-05	-0.1268206	-0.01830014
2.6e+08	-0.1282437	-0.01248724	-2.815464e-05	5.081826e-05	0.01547384	-0.0006630344	-9.804956e-06	2.681487e-05
	-2.815464e-05	5.081826e-05	-0.1282474	-0.01060262	-0.0002676171	-0.0003565936	0.0155704	0.0001447718
	0.01547384	-0.0006630344	-0.0002676171	-0.0003565936	-0.1281429	-0.01215316	-3.047274e-05	5.1182e-05
	-9.804956e-06	2.681487e-05	0.0155704	0.0001447718	-3.047274e-05	5.1182e-05	-0.1282226	-0.01032082
2.7e+08	-0.1288213	-0.004511567	-2.459411e-05	5.143091e-05	0.01516668	-0.001523949	-8.441205e-06	2.699011e-05
	-2.459411e-05	5.143091e-05	-0.1287068	-0.002562306	-0.0003177324	-0.0003454038	0.01531569	-0.0006948164
	0.01516668	-0.001523949	-0.0003177324	-0.0003454038	-0.1287034	-0.004167694	-2.696039e-05	5.202936e-05
	-8.441205e-06	2.699011e-05	0.01531569	-0.0006948164	-2.696039e-05	5.202936e-05	-0.1286658	-0.002268648
2.8e+08	-0.1284492	0.003439023	-2.109336e-05	5.172197e-05	0.01474898	-0.002337787	-7.0635e-06	2.709788e-05
	-2.109336e-05	5.172197e-05	-0.12821	0.005437924	-0.00036693	-0.0003271574	0.01495255	-0.001493952
	0.01474898	-0.002337787	-0.00036693	-0.0003271574	-0.1283133	0.003790683	-2.347799e-05	5.256466e-05
	-7.0635e-06	2.709788e-05	0.01495255	-0.001493952	-2.347799e-05	5.256466e-05	-0.1281514	0.005741488
2.9e+08	-0.1271398	0.01125231	-1.769308e-05	5.170988e-05	0.01422746	-0.003091589	-5.67837e-06	2.713559e-05
	-1.769308e-05	5.170988e-05	-0.1267714	0.01328473	-0.0004141732	-0.0003020434	0.01448681	-0.00224008
	0.01422746	-0.003091589	-0.0004141732	-0.0003020434	-0.1269854	0.01160959	-2.006479e-05	5.280169e-05
	-5.67837e-06	2.713559e-05	0.01448681	-0.00224008	-2.006479e-05	5.280169e-05	-0.1266942	0.01359602
3e+08	-0.1249187	0.01881862	-1.443003e-05	5.141904e-05	0.01361022	-0.003773267	-4.292238e-06	2.710163e-05
	-1.443003e-05	5.141904e-05	-0.1244187	0.02086757	-0.0004584705	-0.0002704169	0.01392564	-0.002921393
	0.01361022	-0.003773267	-0.0004584705	-0.0002704169	-0.1247453	0.01917921	-1.675687e-05	5.275996e-05
	-4.292238e-06	2.710163e-05	0.01392564	-0.002921393	-1.675687e-05	5.275996e-05	-0.1243221	0.02118421
3.1e+08	-0.1218236	0.02603217	-1.132576e-05	5.084704e-05	0.01290672	-0.004371737	-2.911843e-06	2.699556e-05
	-1.132576e-05	5.084704e-05	-0.1211919	0.0280801	-0.0004980585	-0.0002296871	0.01327749	-0.003526961
	0.01290672	-0.004371737	-0.0004980585	-0.0002296871	-0.1216312	0.02639369	-1.357455e-05	5.24324e-05
	-2.911843e-06	2.699556e-05	0.01327749	-0.003526961	-1.357455e-05	5.24324e-05	-0.1210754	0.02839957
3.2e+08	-0.1179045	0.03279249	-8.407221e-06	4.999148e-05	0.01212762	-0.00487705	-1.543577e-06	2.681798e-05
	-8.407221e-06	4.999148e-05	-0.1171434	0.0348216	-0.0005304857	-0.0001776587	0.01255201	-0.004046853
	0.01212762	-0.00487705	-0.0005304857	-0.0001776587	-0.1176934	0.03315249	-1.054412e-05	5.181148e-05
	-1.543577e-06	2.681798e-05	0.01255201	-0.004046853	-1.054412e-05	5.181148e-05	-0.1170069	0.03514125
3.3e+08	-0.1132224	0.03900568	-5.721754e-06	4.895446e-05	0.01128472	-0.005280518	-1.921116e-07	2.656937e-05
	-5.721754e-06	4.895446e-05	-0.1123368	0.04099821	-0.0005563816	-0.0001215407	0.01175993	-0.004472258
	0.01128472	-0.005280518	-0.0005563816	-0.0001215407	-0.1129933	0.03936169	-7.717786e-06	5.099357e-05
	-1.921116e-07	2.656937e-05	0.01175993	-0.004472258	-7.717786e-06	5.099357e-05	-0.1121805	0.04131535
3.4e+08	-0.107849	0.04458567	-3.283547e-06	4.777847e-05	0.01039077	-0.005574838	1.137256e-06	2.625081e-05
	-3.283547e-06	4.777847e-05	-0.1068462	0.04652424	-0.0005752164	-6.228492e-05	0.01091298	-0.004795605
	0.01039077	-0.005574838	-0.0005752164	-6.228492e-05	-0.1076028	0.04493523	-5.112685e-06	5.001669e-05
	1.137256e-06	2.625081e-05	0.01091298	-0.004795605	-5.112685e-06	5.001669e-05	-0.1066708	0.0468362
3.5e+08	-0.1018657	0.04945534	-1.099369e-06	4.650771e-05	0.009459394	-0.005754205	2.439688e-06	2.586436e-05
	-1.099369e-06	4.650771e-05	-0.1007553	0.05132331	-0.0005866194	-9.246609e-07	0.01002378	-0.005010678
	0.009459394	-0.005754205	-0.0005866194	-9.246609e-07	-0.1016037	0.04979606	-2.739265e-06	4.892145e-05
	2.439688e-06	2.586436e-05	0.01002378	-0.005010678	-2.739265e-06	4.892145e-05	-0.1005618	0.05162743
3.6e+08	-0.09536226	0.05354757	8.31743e-07	4.518678e-05	0.008504911	-0.00581442	3.710749e-06	2.541236e-05
	8.31743e-07	4.518678e-05	-0.09415639	0.05532941	-0.0005903849	6.146406e-05	0.009105672	-0.005112724
	0.008504911	-0.00581442	-0.0005903849	6.146406e-05	-0.09508606	0.05387721	-6.009159e-07	4.77493e-05
	3.710749e-06	2.541236e-05	0.009105672	-0.005112724	-6.009159e-07	4.77493e-05	-0.09394612	0.05562313
3.7e+08	-0.0884358	0.05680627	2.518474e-06	4.385909e-05	0.007542161	-0.005752991	4.946379e-06	2.48973e-05
	2.518474e-06	4.385909e-05	-0.08714883	0.05848783	-0.0005864789	0.0001237876	0.008172599	-0.005098562
	0.007542161	-0.005752991	-0.0005864789	0.0001237876	-0.08814742	0.05712274	1.3062e-06	4.654143e-05
	4.946379e-06	2.48973e-05	0.008172599	-0.005098562	1.3062e-06	4.654143e-05	-0.08692357	0.05876873
3.8e+08	-0.08118964	0.0591871	3.977109e-06	4.256573e-05	0.006586323	-0.005569214	6.142872e-06	2.432191e-05
	3.977109e-06	4.256573e-05	-0.07983803	0.060756	-0.0005750395	0.0001849643	0.007238923	-0.004966667
	0.006586323	-0.005569214	-0.0005750395	0.0001849643	-0.08089136	0.05948857	2.993174e-06	4.533763e-05
	6.142872e-06	2.432191e-05	0.007238923	-0.004966667	2.993174e-06	4.533763e-05	-0.07959987	0.06102186
3.9e+08	-0.07373178	0.06065828	5.231165e-06	4.134398e-05	0.00565271	-0.005264241	7.296843e-06	2.368906e-05
	5.231165e-06	4.134398e-05	-0.07233386	0.06210414	-0.0005563723	0.0002439532	0.006319242	-0.004717255
	0.00565271	-0.005264241	-0.0005563723	0.0002439532	-0.07342619	0.06094314	4.478163e-06	4.417489e-05
	7.296843e-06	2.368906e-05	0.006319242	-0.004717255	4.478163e-06	4.417489e-05	-0.07208525	0.06235299
4e+08	-0.06617345	0.06120104	6.310703e-06	4.022605e-05	0.004756547	-0.004841125	8.405202e-06	2.300175e-05
	6.310703e-06	4.022605e-05	-0.06474921	0.06251581	-0.0005309421	0.0002997809	0.005428184	-0.004352337
	0.004756547	-0.004841125	-0.0005309421	0.0002997809	-0.06586339	0.06146802	5.785899e-06	4.308614e-05
	8.405202e-06	2.300175e-05	0.005428184	-0.004352337	5.785899e-06	4.308614e-05	-0.06449289	0.06274599
4.1e+08	-0.05862761	0.06081004	7.251457e-06	3.923782e-05	0.003912733	-0.004304842	9.465115e-06	2.226311e-05
	7.251457e-06	3.923782e-05	-0.05719834	0.06198825	-0.0004993589	0.000351568	0.004580184	-0.003875753
	0.003912733	-0.004304842	-0.0004993589	0.000351568	-0.05831613	0.06105821	6.94701e-06	4.2099e-05
	9.465115e-06	2.226311e-05	0.004580184	-0.003875753	6.94701e-06	4.2099e-05	-0.05693732	0.06219842
4.2e+08	-0.05120728	0.05949358	8.093646e-06	3.839769e-05	0.003135593	-0.003662275	1.047398e-05	2.147636e-05
	8.093646e-06	3.839769e-05	-0.0497953	0.06053249	-0.0004623598	0.0003985525	0.003789249	-0.003293181
	0.003135593	-0.003662275	-0.0004623598	0.0003985525	-0.05089762	0.0597224	7.997035e-06	4.123458e-05
	1.047398e-05	2.147636e-05	0.003789249	-0.003293181	7.997035e-06	4.123458e-05	-0.04953282	0.06072172
4.3e+08	-0.04402394	0.05727357	8.880514e-06	3.77157e-05	0.00243862	-0.002922172	1.142942e-05	2.064482e-05
	8.880514e-06	3.77157e-05	-0.04265221	0.05817339	-0.0004207874	0.0004401092	0.003068713	-0.002612106
	0.00243862	-0.002922172	-0.0004207874	0.0004401092	-0.04371945	0.05748291	8.975153e-06	4.05065e-05
	1.142942e-05	2.064482e-05	0.003068713	-0.002612106	8.975153e-06	4.05065e-05	-0.04239167	0.05834115
4.4e+08	-0.03718585	0.05418536	9.656678e-06	3.719284e-05	0.001834217	-0.002095061	1.232925e-05	1.977192e-05
	9.656678e-06	3.719284e-05	-0.03587759	0.05494935	-0.0003755643	0.0004757661	0.002430988	-0.001841762
	0.001834217	-0.002095061	-0.0003755643	0.0004757661	-0.03688996	0.05437553	9.922703e-06	3.992012e-05
	1.232925e-05	1.977192e-05	0.002430988	-0.001841762	9.922703e-06	3.992012e-05	-0.03562252	0.05509558
4.5e+08	-0.03079641	0.05027732	1.046632e-05	3.682084e-05	0.001333443	-0.001193126	1.317148e-05	1.886118e-05
	1.046632e-05	3.682084e-05	-0.02957469	0.05091185	-0.0003276649	0.0005052158	0.00188731	-0.000993026
	0.001333443	-0.001193126	-0.0003276649	0.0005052158	-0.03051258	0.05044908	1.088152e-05	3.947207e-05
	1.317148e-05	1.886118e-05	0.00188731	-0.000993026	1.088152e-05	3.947207e-05	-0.02932868	0.05103694
4.6e+08	-0.02495256	0.04561022	1.135131e-05	3.658216e-05	0.0009457728	-0.0002300409	1.395435e-05	1.791628e-05
	1.135131e-05	3.658216e-05	-0.02383988	0.0461248	-0.0002780855	0.0005283213	0.001447509	-7.827615e-05
	0.0009457728	-0.0002300409	-0.0002780855	0.0005283213	-0.0246842	0.0457648	1.18922e-05	3.915019e-05
	1.395435e-05	1.791628e-05	0.001447509	-7.827615e-05	1.18922e-05	3.915019e-05	-0.02360652	0.04622964
4.7e+08	-0.01974325	0.04025641	1.234922e-05	3.64505e-05	0.0006788683	0.0007792363	1.467633e-05	1.694097e-05
	1.234922e-05	3.64505e-05	-0.01876111	0.04066363	-0.0002278138	0.0005451168	0.001119774	0.0008887891
	0.0006788683	0.0007792363	-0.0002278138	0.0005451168	-0.01949364	0.0403955	1.299214e-05	3.893371e-05
	1.467633e-05	1.694097e-05	0.001119774	0.0008887891	1.299214e-05	3.893371e-05	-0.0185439	0.0407496
