!$
! Info: Touchstone file created by Circ.  Input file=Tx_6in_Rx_100ohms_TxVia_10mils_RxVia_20mils.circ
!$
# Hz S RI R 50
0	0.006326106	4.80967e-26	3.237439e-09	2.688709e-27	4.404744e-05	6.431095e-24	-3.544865e-09	4.675813e-25
	3.237431e-09	2.688876e-27	0.00632571	6.035488e-26	-3.040985e-09	4.209839e-25	4.348519e-05	8.959574e-24
	4.632098e-05	6.445977e-24	-3.039046e-09	4.20744e-25	0.006318694	4.196289e-26	1.254163e-08	1.259237e-29
	-3.542129e-09	4.672444e-25	4.494226e-05	9.22155e-24	1.254172e-08	1.24325e-29	0.006331324	5.758854e-26
1e+07	0.009157641	0.004327607	4.995461e-09	8.140357e-09	0.000350883	0.001179327	7.732318e-09	5.698113e-08
	4.995461e-09	8.140358e-09	0.009156166	0.004326354	3.025918e-10	5.791664e-08	0.0003491323	0.001179715
	0.0003509313	0.0011793	3.02592e-10	5.791665e-08	0.009080152	0.004335465	-1.095321e-08	4.515536e-08
	7.732319e-09	5.698113e-08	0.0003491648	0.001179704	-1.095321e-08	4.515536e-08	0.009078707	0.004334161
2e+07	0.01169027	0.006557557	7.652069e-09	1.43044e-08	0.0004797988	0.002437874	2.336801e-08	7.731642e-08
	7.652068e-09	1.43044e-08	0.01168417	0.006555182	4.676815e-09	8.059211e-08	0.0004730371	0.002439506
	0.0004797912	0.002437849	4.676815e-09	8.059211e-08	0.01163677	0.006604897	-6.711528e-09	4.635596e-08
	2.336801e-08	7.731642e-08	0.0004730345	0.002439484	-6.711529e-09	4.635596e-08	0.011631	0.006602624
3e+07	0.0138921	0.00783217	1.081033e-08	1.98543e-08	0.0007679019	0.003562906	4.900138e-08	9.59096e-08
	1.081033e-08	1.98543e-08	0.01387795	0.007829576	1.306416e-08	1.066091e-07	0.0007530839	0.003567125
	0.0007679025	0.003562902	1.306416e-08	1.066091e-07	0.01385978	0.007896003	-2.086522e-09	5.408829e-08
	4.900138e-08	9.59096e-08	0.0007530788	0.003567122	-2.086523e-09	5.408829e-08	0.01384693	0.007893493
4e+07	0.01595169	0.008634014	1.446491e-08	2.464407e-08	0.001213065	0.004607333	7.689477e-08	1.089387e-07
	1.446491e-08	2.464407e-08	0.01592628	0.008632822	2.016335e-08	1.312399e-07	0.001187409	0.004616009
	0.001213069	0.004607329	2.016335e-08	1.312399e-07	0.01593978	0.008705766	4.472848e-09	6.063047e-08
	7.689477e-08	1.089387e-07	0.001187409	0.00461601	4.472848e-09	6.063047e-08	0.01591659	0.008704186
5e+07	0.01792155	0.009081587	1.849944e-08	2.862613e-08	0.001885704	0.005535894	1.07059e-07	1.17044e-07
	1.849944e-08	2.862613e-08	0.01788197	0.009084039	2.607971e-08	1.554439e-07	0.00184677	0.005551263
	0.001885705	0.005535891	2.607971e-08	1.554439e-07	0.01792803	0.009156016	1.265936e-08	6.467476e-08
	1.07059e-07	1.17044e-07	0.00184677	0.005551263	1.265936e-08	6.467476e-08	0.01789162	0.009157716
6e+07	0.01981655	0.009232487	2.282624e-08	3.179192e-08	0.002653395	0.006365399	1.394293e-07	1.19716e-07
	2.282624e-08	3.179192e-08	0.01976035	0.009241351	3.136273e-08	1.794611e-07	0.002599205	0.006390208
	0.002653395	0.0063654	3.136273e-08	1.794611e-07	0.01983975	0.00930616	2.181373e-08	6.604104e-08
	1.394293e-07	1.19716e-07	0.002599202	0.006390209	2.181373e-08	6.604104e-08	0.01978805	0.009313848
7e+07	0.02163658	0.009121653	2.733171e-08	3.410534e-08	0.003504794	0.007087041	1.73389e-07	1.162832e-07
	2.733171e-08	3.410534e-08	0.02156183	0.009140109	3.634563e-08	2.032582e-07	0.003433856	0.007124372
	0.003504795	0.007087045	3.634563e-08	2.032582e-07	0.02167513	0.009191576	3.120202e-08	6.486472e-08
	1.73389e-07	1.162832e-07	0.003433851	0.007124374	3.120202e-08	6.486472e-08	0.02160645	0.009207987
8e+07	0.02337493	0.008774673	3.188673e-08	3.553739e-08	0.004426744	0.007692296	2.079761e-07	1.062308e-07
	3.188673e-08	3.553739e-08	0.02328025	0.008806202	4.121338e-08	2.26758e-07	0.004338086	0.007745491
	0.004426746	0.0076923	4.121338e-08	2.26758e-07	0.02342725	0.008837865	4.018456e-08	6.144054e-08
	2.079761e-07	1.062308e-07	0.004338081	0.007745495	4.018456e-08	6.144054e-08	0.02334003	0.008865995
9e+07	0.02502255	0.008213806	3.635044e-08	3.607591e-08	0.005404338	0.008173272	2.420411e-07	8.927742e-08
	3.635044e-08	3.607592e-08	0.02490712	0.0082621	4.601362e-08	2.499141e-07	0.005297541	0.008245865
	0.00540434	0.008173274	4.601362e-08	2.499141e-07	0.02508646	0.008267266	4.826828e-08	5.616114e-08
	2.420411e-07	8.927742e-08	0.005297538	0.008245868	4.826828e-08	5.616114e-08	0.0249794	0.008310634
1e+08	0.02657668	0.007468724	4.057349e-08	3.573162e-08	0.00641839	0.008519511	2.743544e-07	6.539075e-08
	4.057349e-08	3.573162e-08	0.02644028	0.007537593	5.078619e-08	2.72655e-07	0.006293602	0.008615161
	0.00641839	0.008519511	5.078619e-08	2.72655e-07	0.02664859	0.007508632	5.51331e-08	4.947318e-08
	2.743544e-07	6.539075e-08	0.006293602	0.008615161	5.51331e-08	4.947318e-08	0.02652098	0.007571319
1.1e+08	0.0280547	0.006488269	4.441091e-08	3.45665e-08	0.007440625	0.008752472	3.046016e-07	3.696658e-08
	4.441091e-08	3.45665e-08	0.02789693	0.006582648	5.335938e-08	2.964377e-07	0.007298115	0.008874487
	0.007440625	0.008752472	5.335938e-08	2.964377e-07	0.02812895	0.006518442	6.028556e-08	4.804039e-08
	3.046016e-07	3.696658e-08	0.007298115	0.008874487	6.028556e-08	4.804039e-08	0.02798063	0.006604747
1.2e+08	0.02937084	0.005319027	4.773819e-08	3.262639e-08	0.008483631	0.008864037	3.313391e-07	2.289849e-09
	4.773819e-08	3.262639e-08	0.02919331	0.005442738	5.555095e-08	3.199908e-07	0.00832506	0.00901632
	0.008483631	0.008864037	5.555095e-08	3.199908e-07	0.02944731	0.005340821	6.475273e-08	4.557438e-08
	3.313391e-07	2.289849e-09	0.00832506	0.00901632	6.475273e-08	4.557438e-08	0.02928006	0.005454628
1.3e+08	0.03052319	0.00399493	5.043206e-08	2.998334e-08	0.009527782	0.008847334	3.535455e-07	-3.817845e-08
	5.043206e-08	2.998334e-08	0.03032794	0.004151552	5.735954e-08	3.43369e-07	0.009355368	0.009033408
	0.009527782	0.008847334	5.735954e-08	3.43369e-07	0.03060093	0.004008709	6.837121e-08	4.217029e-08
	3.535455e-07	-3.817845e-08	0.009355368	0.009033408	6.837121e-08	4.217029e-08	0.03041693	0.004153457
1.4e+08	0.03150367	0.002538846	5.23779e-08	2.672567e-08	0.01055624	0.008702292	3.702544e-07	-8.382066e-08
	5.23779e-08	2.672567e-08	0.03129321	0.002731709	5.878039e-08	3.666275e-07	0.01037271	0.008925298
	0.01055624	0.008702292	5.878039e-08	3.666275e-07	0.03158171	0.00254497	7.098832e-08	3.794569e-08
	3.702544e-07	-8.382066e-08	0.01037271	0.008925298	7.098832e-08	3.794569e-08	0.03138351	0.002723742
1.5e+08	0.03230432	0.0009724018	5.347198e-08	2.29585e-08	0.01155282	0.008431531	3.805799e-07	-1.338723e-07
	5.347198e-08	2.29585e-08	0.03208163	0.001204547	5.981015e-08	3.898218e-07	0.01136136	0.008694201
	0.01155282	0.008431531	5.981015e-08	3.898218e-07	0.03238177	0.0009713033	7.246567e-08	3.304072e-08
	3.805799e-07	-1.338723e-07	0.01136136	0.008694201	7.246567e-08	3.304072e-08	0.03217224	0.00118685
1.6e+08	0.0329182	-0.000682896	5.362421e-08	1.880267e-08	0.01250197	0.008039864	3.837405e-07	-1.874326e-07
	5.362421e-08	1.880267e-08	0.03268672	-0.000408784	6.044854e-08	4.130075e-07	0.01230622	0.008344479
	0.01250197	0.008039864	6.044854e-08	4.130075e-07	0.03299426	-0.0006907418	7.268295e-08	2.761676e-08
	3.837405e-07	-1.874326e-07	0.01230622	0.008344479	7.268295e-08	2.761676e-08	0.03277667	-0.000436017
1.7e+08	0.03333985	-0.002405372	5.276077e-08	1.43931e-08	0.01338899	0.007534085	3.790799e-07	-2.434789e-07
	5.276077e-08	1.43931e-08	0.03310346	-0.002087041	6.069959e-08	4.362409e-07	0.01319295	0.007882419
	0.01338899	0.007534085	6.069959e-08	4.362409e-07	0.03341383	-0.002419458	7.154149e-08	2.185414e-08
	3.790799e-07	-2.434789e-07	0.01319295	0.007882419	7.154149e-08	2.185414e-08	0.03319179	-0.002123545
1.8e+08	0.03356556	-0.004173147	5.082632e-08	9.876629e-09	0.01420013	0.006922799	3.660857e-07	-3.008843e-07
	5.082632e-08	9.876629e-09	0.03332853	-0.003808855	6.05726e-08	4.595789e-07	0.01400813	0.00731607
	0.01420013	0.006922799	6.05726e-08	4.595789e-07	0.03363686	-0.00419294	6.896741e-08	1.594918e-08
	3.660857e-07	-3.008843e-07	0.01400813	0.00731607	6.896741e-08	1.594918e-08	0.03341433	-0.003854281
1.9e+08	0.03359357	-0.005964223	4.778593e-08	5.409471e-09	0.01492291	0.006216267	3.444058e-07	-3.584382e-07
	4.778593e-08	5.409471e-09	0.03336054	-0.005552811	6.008293e-08	4.830779e-07	0.01473953	0.006655083
	0.01492291	0.006216267	6.008293e-08	4.830779e-07	0.03366165	-0.005989176	6.491413e-08	1.011082e-08
	3.444058e-07	-3.584382e-07	0.01473953	0.006655083	6.491413e-08	1.011082e-08	0.03344289	-0.005606731
2e+08	0.03342419	-0.007756666	4.362657e-08	1.154392e-09	0.0155462	0.005426229	3.138599e-07	-4.148691e-07
	4.362657e-08	1.154392e-09	0.03320003	-0.007297623	5.925242e-08	5.067935e-07	0.01537618	0.005910548
	0.0155462	0.005426228	5.925242e-08	5.067935e-07	0.0334886	-0.007786205	5.936446e-08	4.556749e-09
	3.138599e-07	-4.148691e-07	0.01537618	0.005910548	5.936446e-08	4.55675e-09	0.0332781	-0.007359512
2.1e+08	0.03305985	-0.009528785	3.835822e-08	-2.722318e-09	0.01606042	0.004565713	2.744496e-07	-4.68869e-07
	3.835822e-08	-2.722318e-09	0.03284961	-0.009022298	5.810966e-08	5.307793e-07	0.01590859	0.005094813
	0.01606042	0.004565713	5.810966e-08	5.307793e-07	0.03312017	-0.009562315	5.2332e-08	-4.906645e-10
	2.744496e-07	-4.68869e-07	0.01590859	0.005094813	5.2332e-08	-4.906644e-10	0.0329226	-0.009091548
2.2e+08	0.03250513	-0.01125935	3.201448e-08	-6.054036e-09	0.0164577	0.003648836	2.263637e-07	-5.191189e-07
	3.201448e-08	-6.054036e-09	0.03231393	-0.01070634	5.669006e-08	5.550861e-07	0.01632888	0.004221294
	0.0164577	0.003648836	5.669006e-08	5.550861e-07	0.03256101	-0.01129625	4.386204e-08	-4.808708e-09
	2.263637e-07	-5.191189e-07	0.01632888	0.004221294	4.386204e-08	-4.808708e-09	0.03238111	-0.01078225
2.3e+08	0.03176675	-0.01292779	2.46528e-08	-8.677084e-09	0.01673199	0.002690577	1.699803e-07	-5.643151e-07
	2.46528e-08	-8.677084e-09	0.03159967	-0.01232995	5.503572e-08	5.79761e-07	0.01663086	0.003304265
	0.01673199	0.002690577	5.503572e-08	5.79761e-07	0.03181792	-0.01296741	3.403173e-08	-8.178727e-09
	1.699803e-07	-5.643151e-07	0.01663086	0.003304266	3.403173e-08	-8.178727e-09	0.0316604	-0.01241174
2.4e+08	0.03085346	-0.01451449	1.635422e-08	-1.043403e-08	0.01687912	0.00170655	1.058653e-07	-6.031958e-07
	1.635423e-08	-1.043403e-08	0.03071544	-0.01387426	5.319514e-08	6.048462e-07	0.01681017	0.002358645
	0.01687912	0.00170655	5.319514e-08	6.048462e-07	0.03089972	-0.01455615	2.29498e-08	-1.039057e-08
	1.058653e-07	-6.031958e-07	0.01681017	0.002358645	2.29498e-08	-1.039057e-08	0.03076917	-0.01396105
2.5e+08	0.02977605	-0.01600089	7.222746e-09	-1.1177e-08	0.01689691	0.0007127638	3.476705e-08	-6.34567e-07
	7.222746e-09	-1.1177e-08	0.02967175	-0.01532146	5.122273e-08	6.303783e-07	0.0168643	0.001399769
	0.01689691	0.0007127638	5.122273e-08	6.303783e-07	0.02981727	-0.01604389	1.075556e-08	-1.1247e-08
	3.476705e-08	-6.34567e-07	0.0168643	0.001399769	1.075556e-08	-1.1247e-08	0.02971804	-0.01541233
2.6e+08	0.02854715	-0.01736981	-2.615859e-09	-1.077087e-08	0.01678517	-0.000274628	-4.239212e-08	-6.573286e-07
	-2.615859e-09	-1.077087e-08	0.02848087	-0.01665509	4.917824e-08	6.563873e-07	0.01679264	0.0004431549
	0.01678517	-0.0002746281	4.917824e-08	6.563873e-07	0.02858329	-0.01741344	-2.382672e-09	-1.056801e-08
	-4.239212e-08	-6.573286e-07	0.01679264	0.0004431549	-2.382672e-09	-1.056801e-08	0.02851938	-0.01674904
2.7e+08	0.02718111	-0.01860556	-1.301558e-08	-9.0964e-09	0.01654572	-0.001239571	-1.245283e-07	-6.70498e-07
	-1.301558e-08	-9.0964e-09	0.02715665	-0.01786014	4.712597e-08	6.828958e-07	0.01659651	-0.0004957249
	0.01654572	-0.001239571	4.712597e-08	6.828958e-07	0.02721221	-0.01864912	-1.626971e-08	-8.194901e-09
	-1.245283e-07	-6.70498e-07	0.01659651	-0.0004957249	-1.626971e-08	-8.194901e-09	0.02718719	-0.01795615
2.8e+08	0.02569385	-0.01969418	-2.381216e-08	-6.053093e-09	0.01618234	-0.002166359	-2.104112e-07	-6.732333e-07
	-2.381216e-08	-6.053093e-09	0.02571444	-0.01892324	4.513398e-08	7.099184e-07	0.0162791	-0.001401682
	0.01618234	-0.002166359	4.513398e-08	7.099184e-07	0.02572006	-0.01973695	-3.068619e-08	-3.994167e-09
	-2.104112e-07	-6.732333e-07	0.0162791	-0.001401682	-3.068619e-08	-3.994167e-09	0.02573694	-0.01902025
2.9e+08	0.02410264	-0.02062355	-3.482551e-08	-1.561892e-09	0.01570073	-0.003039873	-2.986832e-07	-6.648538e-07
	-3.482551e-08	-1.561892e-09	0.02417084	-0.01983281	4.327302e-08	7.374608e-07	0.01584543	-0.00226004
	0.01570073	-0.003039873	4.327302e-08	7.374608e-07	0.02412419	-0.02066484	-4.539185e-08	2.13904e-09
	-2.986832e-07	-6.648538e-07	0.01584543	-0.00226004	-4.539185e-08	2.13904e-09	0.02418537	-0.01992974
3e+08	0.02242592	-0.02138354	-4.586248e-08	4.432467e-09	0.01510843	-0.003845815	-3.878801e-07	-6.448581e-07
	-4.586248e-08	4.432467e-09	0.02254353	-0.02057916	4.161547e-08	7.655196e-07	0.01530232	-0.003056854
	0.01510843	-0.003845815	4.161547e-08	7.655196e-07	0.02244315	-0.0214227	-6.012926e-08	1.02778e-08
	-3.878801e-07	-6.448581e-07	0.01530232	-0.003056854	-6.012926e-08	1.02778e-08	0.0225503	-0.02067498
3.1e+08	0.02068308	-0.02196615	-5.671997e-08	1.195943e-08	0.01441469	-0.00457093	-4.764552e-07	-6.129392e-07
	-5.671997e-08	1.195943e-08	0.02085108	-0.02115463	4.023419e-08	7.940819e-07	0.0146582	-0.003779124
	0.01441469	-0.00457093	4.023419e-08	7.940819e-07	0.0206964	-0.02200258	-7.462801e-08	2.046079e-08
	-4.764552e-07	-6.129392e-07	0.0146582	-0.003779124	-7.462801e-08	2.046079e-08	0.02085044	-0.02124829
3.2e+08	0.01889421	-0.02236557	-6.718839e-08	2.102102e-08	0.01363034	-0.005203207	-5.628055e-07	-5.689973e-07
	-6.718839e-08	2.102102e-08	0.01911269	-0.02155364	3.920122e-08	8.231249e-07	0.01392308	-0.004414988
	0.01363034	-0.005203207	3.920122e-08	8.231249e-07	0.01890412	-0.02239872	-8.860926e-08	3.269025e-08
	-5.628055e-07	-5.689973e-07	0.01392308	-0.004414988	-8.860926e-08	3.269025e-08	0.01910512	-0.02164417
3.3e+08	0.01707984	-0.02257827	-7.705536e-08	3.159069e-08	0.01276761	-0.005732067	-6.452986e-07	-5.131478e-07
	-7.705536e-08	3.159069e-08	0.017348	-0.02177275	3.858649e-08	8.52616e-07	0.01310832	-0.004953906
	0.01276761	-0.005732067	3.858649e-08	8.52616e-07	0.01708692	-0.02260766	-1.017907e-07	4.69305e-08
	-6.452986e-07	-5.131478e-07	0.01310832	-0.004953906	-1.017907e-07	4.69305e-08	0.01733411	-0.02185923
3.4e+08	0.01526075	-0.02260298	-8.610958e-08	4.361262e-08	0.01183994	-0.006148526	-7.223025e-07	-4.457272e-07
	-8.610958e-08	4.361262e-08	0.01557683	-0.02181071	3.845648e-08	8.825129e-07	0.0122265	-0.005386817
	0.01183994	-0.006148526	3.845648e-08	8.825129e-07	0.01526563	-0.02262824	-1.138917e-07	6.310712e-08
	-7.223025e-07	-4.457272e-07	0.0122265	-0.005386817	-1.138917e-07	6.310712e-08	0.01555736	-0.0218923
3.5e+08	0.01345763	-0.02244079	-9.414482e-08	5.700165e-08	0.01086181	-0.006445337	-7.922144e-07	-3.672934e-07
	-9.414482e-08	5.700165e-08	0.01381895	-0.02166842	3.887289e-08	9.12764e-07	0.0112912	-0.005706275
	0.01086181	-0.006445337	3.887289e-08	9.12764e-07	0.01346101	-0.0224616	-1.246385e-07	8.11069e-08
	-7.922144e-07	-3.672934e-07	0.0112912	-0.005706275	-1.246385e-07	8.11069e-08	0.01379473	-0.02174439
3.6e+08	0.01169093	-0.02209503	-1.009641e-07	7.164362e-08	0.009848486	-0.006617099	-8.534912e-07	-2.786239e-07
	-1.009641e-07	7.164362e-08	0.01209385	-0.02134898	3.98913e-08	9.433089e-07	0.01031684	-0.005906566
	0.009848486	-0.006617099	3.98913e-08	9.433089e-07	0.01169353	-0.02211121	-1.337697e-07	1.007783e-07
	-8.534912e-07	-2.786239e-07	0.01031684	-0.005906566	-1.337697e-07	1.007783e-07	0.01206583	-0.0214187
3.7e+08	0.009980495	-0.0215713	-1.063836e-07	8.739643e-08	0.008815776	-0.006660348	-9.046787e-07	-1.807084e-07
	-1.063836e-07	8.739643e-08	0.01042049	-0.02085756	4.155992e-08	9.740791e-07	0.009318401	-0.00598379
	0.008815776	-0.006660348	4.155992e-08	9.740791e-07	0.009983076	-0.02158274	-1.410414e-07	1.219331e-07
	-9.046787e-07	-1.807084e-07	0.009318401	-0.00598379	-1.410414e-07	1.219331e-07	0.01038969	-0.02092053
3.8e+08	0.008345416	-0.02087736	-1.102368e-07	1.040916e-07	0.007779816	-0.006573606	-9.444407e-07	-7.473841e-08
	-1.102368e-07	1.040916e-07	0.008817111	-0.02020139	4.391839e-08	1.004999e-06	0.008311255	-0.005935926
	0.007779816	-0.006573606	4.391839e-08	1.004999e-06	0.008348744	-0.02088407	-1.462326e-07	1.443482e-07
	-9.444407e-07	-7.473841e-08	0.008311255	-0.005935926	-1.462326e-07	1.443482e-07	0.008784614	-0.02025725
3.9e+08	0.00680374	-0.02002301	-1.12378e-07	1.215364e-07	0.006756801	-0.006357408	-9.715865e-07	3.790735e-08
	-1.12378e-07	1.215364e-07	0.007300961	-0.01938965	4.699671e-08	1.035986e-06	0.007310889	-0.005762857
	0.006756801	-0.006357408	4.699671e-08	1.035986e-06	0.006808581	-0.0200251	-1.4915e-07	1.677686e-07
	-9.715865e-07	3.790735e-08	0.007310889	-0.005762857	-1.4915e-07	1.677686e-07	0.007267905	-0.01943816
4e+08	0.005372275	-0.01902	-1.126862e-07	1.395165e-07	0.005762745	-0.006014299	-9.850962e-07	1.556812e-07
	-1.126862e-07	1.395165e-07	0.005888137	-0.01843331	5.081431e-08	1.066954e-06	0.006332685	-0.005466376
	0.005762745	-0.006014299	5.081431e-08	1.066954e-06	0.005379372	-0.0190177	-1.496324e-07	1.919109e-07
	-9.850962e-07	1.556812e-07	0.006332685	-0.005466376	-1.496324e-07	1.919109e-07	0.005855686	-0.01847441
4.1e+08	0.004066365	-0.01788184	-1.110678e-07	1.577993e-07	0.004813223	-0.005548789	-9.841446e-07	2.768885e-07
	-1.110678e-07	1.577993e-07	0.004593369	-0.01734504	5.537928e-08	1.097812e-06	0.005391687	-0.005050153
	0.004813223	-0.005548789	5.537928e-08	1.097812e-06	0.004076429	-0.01787549	-1.475549e-07	2.164676e-07
	-9.841446e-07	2.768885e-07	0.005391687	-0.005050153	-1.475549e-07	2.164676e-07	0.004562699	-0.0173788
4.2e+08	0.002899712	-0.01662366	-1.074595e-07	1.761374e-07	0.003923141	-0.004967291	-9.681211e-07	3.997119e-07
	-1.074595e-07	1.761374e-07	0.003429851	-0.01613901	6.06878e-08	1.128469e-06	0.004502371	-0.004519685
	0.003923141	-0.004967291	6.06878e-08	1.128469e-06	0.002913407	-0.01661367	-1.428327e-07	2.411115e-07
	-9.681211e-07	3.997119e-07	0.004502371	-0.004519685	-1.428327e-07	2.411115e-07	0.003402126	-0.01616566
4.3e+08	0.001884204	-0.01526196	-1.018308e-07	1.942727e-07	0.003106495	-0.00427802	-9.36647e-07	5.222399e-07
	-1.018308e-07	1.942727e-07	0.002409086	-0.01483073	6.672379e-08	1.158832e-06	0.003678422	-0.003882208
	0.003106495	-0.00427802	6.672379e-08	1.158832e-06	0.001902137	-0.01524886	-1.354235e-07	2.655017e-07
	-9.36647e-07	5.222399e-07	0.003678422	-0.003882208	-1.354235e-07	2.655017e-07	0.002385445	-0.01485064
4.4e+08	0.001029778	-0.01381448	-9.418511e-08	2.11941e-07	0.002376162	-0.003490868	-8.895897e-07	6.424961e-07
	-9.418511e-08	2.11941e-07	0.001540753	-0.01343682	7.345877e-08	1.18881e-06	0.002932528	-0.003146585
	0.002376162	-0.003490868	7.345877e-08	1.18881e-06	0.001052479	-0.01379885	-1.2533e-07	2.892885e-07
	-8.895897e-07	6.424961e-07	0.002932528	-0.003146585	-1.2533e-07	2.892885e-07	0.001522284	-0.01345054
4.5e+08	0.0003442902	-0.01229986	-8.45611e-08	2.288763e-07	0.001743694	-0.002617253	-8.270714e-07	7.584715e-07
	-8.45611e-08	2.288763e-07	0.0008325934	-0.01197484	8.085199e-08	1.218314e-06	0.002276186	-0.002323173
	0.001743694	-0.002617253	8.085199e-08	1.218314e-06	0.0003722101	-0.01228239	-1.126009e-07	3.1212e-07
	-8.270714e-07	7.584715e-07	0.002276186	-0.002323173	-1.126009e-07	3.1212e-07	0.0008203188	-0.01198303
4.6e+08	-0.0001665657	-0.0107375	-7.303307e-08	2.448159e-07	0.001219144	-0.001669942	-7.494756e-07	8.681578e-07
	-7.303307e-08	2.448159e-07	0.0002903297	-0.01046302	8.885079e-08	1.247262e-06	0.001719528	-0.001423663
	0.001219144	-0.001669942	8.885079e-08	1.247262e-06	-0.000133071	-0.01071891	-9.733204e-08	3.336481e-07
	-7.494756e-07	8.681578e-07	0.001719528	-0.001423663	-9.733204e-08	3.336481e-07	0.0002851847	-0.01046649
4.7e+08	-0.0004993287	-0.009147237	-5.971061e-08	2.595049e-07	0.000810906	-0.0006628537	-6.574475e-07	9.695812e-07
	-5.971061e-08	2.595049e-07	-8.239914e-05	-0.008920077	9.739119e-08	1.275575e-06	0.00127117	-0.0004609013
	0.000810906	-0.0006628537	9.739119e-08	1.275575e-06	-0.000459978	-0.009128301	-7.966526e-08	3.535344e-07
	-6.574475e-07	9.695812e-07	0.00127117	-0.0004609013	-7.966526e-08	3.535344e-07	-7.955574e-05	-0.008919726
4.8e+08	-0.0006528036	-0.007549141	-4.473762e-08	2.727015e-07	0.0005255866	0.0003891526	-5.518908e-07	1.060837e-06
