!$
! Info: Touchstone file created by Circ.  Input file=Tx_6in_Rx_85ohms_TxVia_10mils_RxVia_20mils.circ
!$
# Hz S RI R 50
0	0.00492961	5.275422e-26	-3.268618e-05	-4.507188e-26	4.620025e-05	6.154406e-24	-3.269941e-05	1.572545e-24
	-3.268618e-05	-4.446109e-26	0.004932474	6.055593e-26	-3.268587e-05	-3.501767e-26	4.362913e-05	6.967253e-24
	4.624846e-05	6.158002e-24	-3.268586e-05	-3.565228e-26	0.004944554	5.290552e-26	-3.268748e-05	1.737964e-25
	-3.269941e-05	1.571887e-24	4.508672e-05	7.170977e-24	-3.268748e-05	1.730337e-25	0.004938103	5.777938e-26
1e+07	0.00658396	-0.005521645	-3.389626e-06	-8.381743e-06	0.0001136464	0.001161168	-1.821334e-06	-9.724273e-06
	-3.389625e-06	-8.381743e-06	0.006571774	-0.005422319	-5.759584e-06	-4.944625e-07	0.0001579264	0.001158708
	0.0001136508	0.001161165	-5.759584e-06	-4.944623e-07	0.007401132	-0.005319697	-1.267452e-05	7.756981e-07
	-1.821334e-06	-9.724273e-06	0.0001579587	0.001158697	-1.267452e-05	7.756981e-07	0.006567774	-0.005417963
2e+07	0.007150149	-0.01265179	-3.098399e-06	-3.363327e-06	0.0003390483	0.002304535	-9.103941e-07	-5.135426e-06
	-3.098399e-06	-3.363327e-06	0.007220902	-0.01248441	-1.424281e-05	-9.64599e-06	0.0003982787	0.002263313
	0.0003390474	0.002304532	-1.424281e-05	-9.64599e-06	0.007988969	-0.01261463	-1.837254e-05	-5.018585e-06
	-9.103942e-07	-5.135426e-06	0.0003982755	0.002263292	-1.837254e-05	-5.018585e-06	0.007220199	-0.01246958
3e+07	0.00626154	-0.02040973	-2.957048e-06	-2.145951e-06	0.0007366865	0.00336941	-1.167934e-06	-4.057353e-06
	-2.957048e-06	-2.145951e-06	0.00638621	-0.02022514	-2.076095e-05	-1.065899e-05	0.0007670026	0.003318345
	0.0007366865	0.00336941	-2.076095e-05	-1.065899e-05	0.007112407	-0.02045102	-2.269022e-05	-5.109784e-06
	-1.167934e-06	-4.057353e-06	0.0007669975	0.003318342	-2.269022e-05	-5.109784e-06	0.006388424	-0.02020313
4e+07	0.004151878	-0.02816516	-2.838944e-06	-1.501668e-06	0.001257987	0.004362856	-1.849394e-06	-3.323173e-06
	-2.838944e-06	-1.501668e-06	0.004310557	-0.02797862	-2.615183e-05	-9.399297e-06	0.001258575	0.00431087
	0.001257987	0.004362855	-2.615183e-05	-9.399297e-06	0.005005734	-0.02827461	-2.619828e-05	-3.623468e-06
	-1.849394e-06	-3.323173e-06	0.001258575	0.004310871	-2.619828e-05	-3.623468e-06	0.004315075	-0.02795223
5e+07	0.0009398959	-0.03567546	-2.727498e-06	-1.070721e-06	0.001893888	0.005272763	-2.419895e-06	-2.680936e-06
	-2.727498e-06	-1.070721e-06	0.001116161	-0.0354938	-3.065619e-05	-6.791431e-06	0.001863806	0.005226643
	0.001893889	0.005272762	-3.065619e-05	-6.791431e-06	0.001788389	-0.03584998	-2.905829e-05	-1.209584e-06
	-2.419895e-06	-2.680936e-06	0.001863806	0.005226643	-2.905829e-05	-1.209584e-06	0.001120989	-0.03546376
6e+07	-0.003277838	-0.04276888	-2.615143e-06	-7.446028e-07	0.002632725	0.006086512	-2.888772e-06	-2.042929e-06
	-2.615143e-06	-7.446028e-07	-0.003098285	-0.04259452	-3.435981e-05	-3.193322e-06	0.002571374	0.006052453
	0.002632727	0.006086512	-3.435981e-05	-3.193322e-06	-0.002442756	-0.04300697	-3.13262e-05	1.881586e-06
	-2.888772e-06	-2.042929e-06	0.002571371	0.006052454	-3.13262e-05	1.881586e-06	-0.003094274	-0.04256053
7e+07	-0.00840588	-0.04930646	-2.497544e-06	-4.797955e-07	0.003460925	0.006792572	-3.257548e-06	-1.376593e-06
	-2.497544e-06	-4.797955e-07	-0.008235735	-0.04913908	-3.72742e-05	1.225607e-06	0.003368252	0.006776611
	0.003460927	0.006792571	-3.72742e-05	1.225607e-06	-0.007592124	-0.04960696	-3.300926e-05	5.529795e-06
	-3.257548e-06	-1.376593e-06	0.003368247	0.006776614	-3.300926e-05	5.529795e-06	-0.008233252	-0.04910104
8e+07	-0.01434357	-0.0551713	-2.371737e-06	-2.557513e-07	0.004363354	0.007381107	-3.521067e-06	-6.664167e-07
	-2.371737e-06	-2.557513e-07	-0.01419432	-0.05500896	-3.935361e-05	6.39904e-06	0.004239994	0.007389325
	0.004363356	0.007381107	-3.935361e-05	6.39904e-06	-0.01355911	-0.0555332	-3.406215e-05	9.677327e-06
	-3.521067e-06	-6.664166e-07	0.00423999	0.00738933	-3.406215e-05	9.677327e-06	-0.01419436	-0.0549669
9e+07	-0.02098308	-0.06026441	-2.23495e-06	-6.229283e-08	0.005323679	0.007844382	-3.656159e-06	1.063942e-07
	-2.23495e-06	-6.229279e-08	-0.02086569	-0.06010498	-4.046232e-05	1.238033e-05	0.005171161	0.007883095
	0.00532368	0.007844382	-4.046232e-05	1.238033e-05	-0.02023647	-0.06068743	-3.437985e-05	1.438891e-05
	-3.656159e-06	1.063942e-07	0.005171158	0.007883099	-3.437985e-05	1.438891e-05	-0.02086962	-0.06005857
1e+08	-0.02820668	-0.0644994	-2.076792e-06	1.098535e-07	0.006324956	0.008177248	-3.58612e-06	1.04608e-06
	-2.076792e-06	1.098535e-07	-0.02813629	-0.06434745	-3.996166e-05	1.989518e-05	0.006146624	0.008254261
	0.006324956	0.008177248	-3.996166e-05	1.989518e-05	-0.0275108	-0.06498925	-3.350451e-05	2.018442e-05
	-3.58612e-06	1.04608e-06	0.006146624	0.008254261	-3.350451e-05	2.018442e-05	-0.02814564	-0.06429591
1.1e+08	-0.03587826	-0.06784833	-1.970622e-06	2.662865e-07	0.007350616	0.00837516	-3.069146e-06	1.690495e-06
	-1.970622e-06	2.662865e-07	-0.03589044	-0.06766958	-3.567552e-05	2.514759e-05	0.007154512	0.008490598
	0.007350616	0.00837516	-3.567552e-05	2.514759e-05	-0.03526192	-0.06838045	-3.231551e-05	2.078552e-05
	-3.069146e-06	1.690495e-06	0.007154512	0.008490598	-3.231551e-05	2.078552e-05	-0.0359053	-0.0676106
1.2e+08	-0.0439108	-0.07024498	-1.887436e-06	4.179132e-07	0.008380626	0.008437644	-2.634232e-06	2.117456e-06
	-1.887436e-06	4.179132e-07	-0.04399388	-0.07001293	-3.452224e-05	2.555326e-05	0.008167749	0.008593142
	0.008380626	0.008437644	-3.452224e-05	2.555326e-05	-0.04336804	-0.07080032	-3.18073e-05	2.062172e-05
	-2.634232e-06	2.117456e-06	0.008167749	0.008593142	-3.18073e-05	2.062172e-05	-0.04401425	-0.06994503
1.3e+08	-0.05217282	-0.07165127	-1.805791e-06	5.573746e-07	0.009397842	0.008366903	-2.335165e-06	2.31212e-06
	-1.805791e-06	5.573746e-07	-0.05231834	-0.07135001	-3.382367e-05	2.555089e-05	0.009170752	0.008565529
	0.009397842	0.008366903	-3.382367e-05	2.555089e-05	-0.05170087	-0.07221876	-3.115822e-05	2.083961e-05
	-2.335165e-06	2.31212e-06	0.009170752	0.008565529	-3.115822e-05	2.083961e-05	-0.05234407	-0.07127174
1.4e+08	-0.06053541	-0.07205107	-1.72232e-06	6.850501e-07	0.0103855	0.008166973	-2.310795e-06	2.199451e-06
	-1.72232e-06	6.850501e-07	-0.06073436	-0.07166779	-3.300694e-05	2.583981e-05	0.01014755	0.008411723
	0.0103855	0.008166973	-3.300694e-05	2.583981e-05	-0.06013155	-0.0726216	-3.041998e-05	2.127581e-05
	-2.310795e-06	2.199451e-06	0.01014755	0.008411723	-3.041998e-05	2.127581e-05	-0.06076501	-0.0715777
1.5e+08	-0.06887149	-0.07144501	-1.635847e-06	8.009019e-07	0.01132767	0.007843892	-2.2826e-06	2.117986e-06
	-1.635847e-06	8.009019e-07	-0.06911387	-0.0709691	-3.210023e-05	2.631709e-05	0.01108286	0.008137417
	0.01132767	0.007843892	-3.210023e-05	2.631709e-05	-0.06853264	-0.07201069	-2.961054e-05	2.184964e-05
	-2.2826e-06	2.117986e-06	0.01108286	0.008137417	-2.961054e-05	2.184964e-05	-0.06914871	-0.07086579
1.6e+08	-0.07705714	-0.06984941	-1.546384e-06	9.063834e-07	0.01220953	0.007405562	-2.252429e-06	2.059814e-06
	-1.546384e-06	9.063834e-07	-0.07733192	-0.06927219	-3.111569e-05	2.692149e-05	0.01196239	0.007750021
	0.01220953	0.007405562	-3.111569e-05	2.692149e-05	-0.07677978	-0.07040332	-2.873804e-05	2.251564e-05
	-2.252429e-06	2.059814e-06	0.01196239	0.007750021	-2.873804e-05	2.251564e-05	-0.07736989	-0.06915436
1.7e+08	-0.08497307	-0.06729534	-1.454011e-06	1.002437e-06	0.01301757	0.006861559	-2.221175e-06	2.019827e-06
	-1.454011e-06	1.002437e-06	-0.08526826	-0.06661004	-3.005915e-05	2.761185e-05	0.01277309	0.00725851
	0.01301757	0.006861559	-3.005915e-05	2.761185e-05	-0.08475327	-0.06783139	-2.7806e-05	2.324301e-05
	-2.221175e-06	2.019827e-06	0.01277309	0.00725851	-2.7806e-05	2.324301e-05	-0.08530808	-0.06647656
1.8e+08	-0.09250607	-0.06382768	-1.358856e-06	1.089686e-06	0.01373975	0.006222916	-2.189236e-06	1.99453e-06
	-1.358856e-06	1.089686e-06	-0.09280889	-0.06302944	-2.893356e-05	2.835823e-05	0.01350327	0.006673234
	0.01373975	0.006222916	-2.893356e-05	2.835823e-05	-0.09233957	-0.0643406	-2.681595e-05	2.400916e-05
	-2.189236e-06	1.99453e-06	0.01350327	0.006673234	-2.681595e-05	2.400916e-05	-0.09284903	-0.0628794
1.9e+08	-0.09955035	-0.05950407	-1.261096e-06	1.168547e-06	0.01436566	0.005501902	-2.156745e-06	1.981414e-06
	-1.261096e-06	1.168547e-06	-0.09984745	-0.05859006	-2.77407e-05	2.913746e-05	0.01414278	0.006005708
	0.01436566	0.005501902	-2.77407e-05	2.913746e-05	-0.09943261	-0.05998933	-2.576862e-05	2.479643e-05
	-2.156745e-06	1.981414e-06	0.01414278	0.006005708	-2.576862e-05	2.479643e-05	-0.0998862	-0.05842279
2e+08	-0.1060088	-0.05439379	-1.160943e-06	1.239294e-06	0.01488659	0.004711784	-2.123666e-06	1.978612e-06
	-1.160943e-06	1.239294e-06	-0.1062865	-0.05336321	-2.648195e-05	2.993076e-05	0.01468304	0.005268396
	0.01488659	0.004711784	-2.648195e-05	2.993076e-05	-0.1059351	-0.05484762	-2.466457e-05	2.559034e-05
	-2.123666e-06	1.978612e-06	0.01468304	0.005268396	-2.466457e-05	2.559034e-05	-0.106322	-0.05317833
2.1e+08	-0.1117941	-0.04857655	-1.058652e-06	1.302107e-06	0.01529561	0.003866599	-2.089872e-06	1.984697e-06
	-1.058652e-06	1.302107e-06	-0.1120386	-0.04743071	-2.515885e-05	3.072236e-05	0.01511714	0.0044745
	0.01529561	0.003866599	-2.515885e-05	3.072236e-05	-0.1117596	-0.04899585	-2.350451e-05	2.637858e-05
	-2.089872e-06	1.984697e-06	0.01511714	0.0044745	-2.350451e-05	2.637858e-05	-0.1120689	-0.04722811
2.2e+08	-0.1168297	-0.04214115	-9.545129e-07	1.357099e-06	0.01558758	0.002980928	-2.055162e-06	1.998545e-06
	-9.545129e-07	1.357099e-06	-0.1170273	-0.04088342	-2.377321e-05	3.149868e-05	0.01543983	0.003637753
	0.01558758	0.002980928	-2.377321e-05	3.149868e-05	-0.1168294	-0.0425235	-2.228947e-05	2.71504e-05
	-2.055162e-06	1.998545e-06	0.01543983	0.003637753	-2.228947e-05	2.71504e-05	-0.1170505	-0.04066332
2.3e+08	-0.1210505	-0.0351841	-8.488518e-07	1.404344e-06	0.01575919	0.002069678	-2.01928e-06	2.019246e-06
	-8.488518e-07	1.404344e-06	-0.1211882	-0.03381992	-2.232724e-05	3.224782e-05	0.01564757	0.002772222
	0.01575919	0.002069678	-2.232724e-05	3.224782e-05	-0.1210795	-0.03552773	-2.102086e-05	2.789625e-05
	-2.01928e-06	2.019246e-06	0.01564757	0.002772222	-2.102086e-05	2.789625e-05	-0.1212022	-0.03358285
2.4e+08	-0.1244037	-0.02780824	-7.420267e-07	1.443893e-06	0.01580891	0.001147883	-1.981958e-06	2.046045e-06
	-7.420267e-07	1.443893e-06	-0.124469	-0.02634505	-2.082381e-05	3.295921e-05	0.01573847	0.00189212
	0.01580891	0.001147883	-2.082381e-05	3.295921e-05	-0.124457	-0.02811199	-1.970063e-05	2.860755e-05
	-1.981958e-06	2.046045e-06	0.01573847	0.00189212	-1.970063e-05	2.860755e-05	-0.1244719	-0.02609184
2.5e+08	-0.1268492	-0.02012124	-6.344264e-07	1.475791e-06	0.01573698	0.0002305045	-1.942896e-06	2.078293e-06
	-6.344264e-07	1.475791e-06	-0.1268307	-0.01856836	-1.926625e-05	3.362341e-05	0.0157123	0.001011637
	0.01573698	0.0002305045	-1.926625e-05	3.362341e-05	-0.1269221	-0.02038451	-1.833122e-05	2.92765e-05
	-1.942896e-06	2.078293e-06	0.0157123	0.001011637	-1.833122e-05	2.92765e-05	-0.1268206	-0.01830014
2.6e+08	-0.1283597	-0.01223414	-5.264644e-07	1.500091e-06	0.01554535	-0.0006677436	-1.901794e-06	2.115423e-06
	-5.264644e-07	1.500091e-06	-0.1282474	-0.01060262	-1.765849e-05	3.423199e-05	0.0155704	0.0001447718
	0.01554535	-0.0006677436	-1.765849e-05	3.423199e-05	-0.1284476	-0.01245688	-1.691555e-05	2.989601e-05
	-1.901794e-06	2.115423e-06	0.0155704	0.0001447718	-1.691555e-05	2.989601e-05	-0.1282226	-0.01032082
2.7e+08	-0.1289215	-0.004259832	-4.185759e-07	1.516856e-06	0.01523764	-0.001532566	-1.858334e-06	2.156914e-06
	-4.185759e-07	1.516856e-06	-0.1287068	-0.002562306	-1.600493e-05	3.477738e-05	0.01531569	-0.0006948164
	0.01523764	-0.001532566	-1.600493e-05	3.477738e-05	-0.1290199	-0.004442515	-1.545705e-05	3.045962e-05
	-1.858334e-06	2.156914e-06	0.01531569	-0.0006948164	-1.545705e-05	3.045962e-05	-0.1286658	-0.002268648
2.8e+08	-0.1285339	0.003688388	-3.112116e-07	1.526178e-06	0.01481904	-0.002350244	-1.812209e-06	2.202292e-06
	-3.112116e-07	1.526178e-06	-0.12821	0.005437924	-1.431055e-05	3.525292e-05	0.01495255	-0.001493952
	0.01481904	-0.002350244	-1.431055e-05	3.525292e-05	-0.1286386	0.00354482	-1.395962e-05	3.096155e-05
	-1.812209e-06	2.202292e-06	0.01495255	-0.001493952	-1.395962e-05	3.096155e-05	-0.1281514	0.005741488
2.9e+08	-0.1272095	0.01149831	-2.048311e-07	1.528176e-06	0.01429625	-0.003107785	-1.763111e-06	2.251107e-06
	-2.048311e-07	1.528176e-06	-0.1267714	0.01328473	-1.258076e-05	3.565275e-05	0.01448681	-0.00224008
	0.01429625	-0.003107785	-1.258076e-05	3.565275e-05	-0.1273165	0.01139247	-1.242763e-05	3.13966e-05
	-1.763111e-06	2.251107e-06	0.01448681	-0.00224008	-1.242763e-05	3.13966e-05	-0.1266942	0.01359602
3e+08	-0.1249736	0.01906023	-9.989758e-08	1.523001e-06	0.0136774	-0.003793064	-1.710738e-06	2.302916e-06
	-9.989758e-08	1.523001e-06	-0.1244187	0.02086757	-1.082135e-05	3.597176e-05	0.01392564	-0.002921393
	0.0136774	-0.003793064	-1.082135e-05	3.597176e-05	-0.1250793	0.01899036	-1.086581e-05	3.176013e-05
	-1.710738e-06	2.302916e-06	0.01392564	-0.002921393	-1.086581e-05	3.176013e-05	-0.1243221	0.02118421
3.1e+08	-0.1218642	0.02626841	3.12927e-09	1.51084e-06	0.01297195	-0.004394961	-1.654799e-06	2.357296e-06
	3.12927e-09	1.51084e-06	-0.1211919	0.0280801	-9.038485e-06	3.620543e-05	0.01327749	-0.003526961
	0.01297195	-0.004394961	-9.038485e-06	3.620543e-05	-0.1219654	0.02623236	-9.279298e-06	3.20482e-05
	-1.654799e-06	2.357296e-06	0.01327749	-0.003526961	-9.279298e-06	3.20482e-05	-0.1210754	0.02839957
3.2e+08	-0.1179313	0.03302237	1.038008e-07	1.491917e-06	0.01219057	-0.00490349	-1.595016e-06	2.41382e-06
	1.038008e-07	1.491917e-06	-0.1171434	0.0348216	-7.238707e-06	3.634999e-05	0.01255201	-0.004046853
	0.01219057	-0.00490349	-7.238707e-06	3.634999e-05	-0.1180251	0.03301769	-7.67354e-06	3.22574e-05
	-1.595016e-06	2.41382e-06	0.01255201	-0.004046853	-7.67354e-06	3.22574e-05	-0.1170069	0.03514125
3.3e+08	-0.113236	0.03922821	2.016855e-07	1.466504e-06	0.01134508	-0.00530993	-1.53112e-06	2.472046e-06
	2.016855e-07	1.466504e-06	-0.1123368	0.04099821	-5.428692e-06	3.640319e-05	0.01175993	-0.004472258
	0.01134508	-0.00530993	-5.428692e-06	3.640319e-05	-0.1133199	0.03925221	-6.054235e-06	3.238494e-05
	-1.53112e-06	2.472046e-06	0.01175993	-0.004472258	-6.054235e-06	3.238494e-05	-0.1121805	0.04131535
3.4e+08	-0.1078502	0.04479988	2.963741e-07	1.434906e-06	0.01044825	-0.005606943	-1.462875e-06	2.531487e-06
	2.963741e-07	1.434906e-06	-0.1068462	0.04652424	-3.615386e-06	3.63628e-05	0.01091298	-0.004795605
	0.01044825	-0.005606943	-3.615386e-06	3.63628e-05	-0.1079222	0.04484968	-4.427414e-06	3.242838e-05
	-1.462875e-06	2.531487e-06	0.01091298	-0.004795605	-4.427414e-06	3.242838e-05	-0.1066708	0.0468362
3.5e+08	-0.1018551	0.0496603	3.874892e-07	1.397453e-06	0.009513747	-0.005788691	-1.390049e-06	2.591738e-06
	3.874892e-07	1.397453e-06	-0.1007553	0.05132331	-1.805732e-06	3.622765e-05	0.01002378	-0.005010678
	0.009513747	-0.005788691	-1.805732e-06	3.622765e-05	-0.1019137	0.04973283	-2.799157e-06	3.238643e-05
	-1.390049e-06	2.591738e-06	0.01002378	-0.005010678	-2.799157e-06	3.238643e-05	-0.1005618	0.05162743
3.6e+08	-0.09534071	0.05374241	4.746861e-07	1.354503e-06	0.008555903	-0.005850945	-1.312435e-06	2.652343e-06
	4.746861e-07	1.354503e-06	-0.09415639	0.05532941	-6.648088e-09	3.599737e-05	0.009105672	-0.005112724
	0.008555903	-0.005850945	-6.648088e-09	3.599737e-05	-0.09538465	0.05383451	-1.175643e-06	3.22583e-05
	-1.312435e-06	2.652343e-06	0.009105672	-0.005112724	-1.175643e-06	3.22583e-05	-0.09394612	0.05562313
3.7e+08	-0.08840428	0.05699016	5.576573e-07	1.306442e-06	0.007589599	-0.005791184	-1.229853e-06	2.712823e-06
	5.576573e-07	1.306442e-06	-0.08714883	0.05848783	1.774912e-06	3.56721e-05	0.008172599	-0.005098562
	0.007589599	-0.005791184	1.774912e-06	3.56721e-05	-0.08843292	0.05709862	4.368718e-07	3.204375e-05
	-1.229853e-06	2.712823e-06	0.008172599	-0.005098562	4.368718e-07	3.204375e-05	-0.08692357	0.05876873
3.8e+08	-0.08114917	0.0593593	6.361358e-07	1.253674e-06	0.006630053	-0.00560868	-1.142152e-06	2.772679e-06
	6.361358e-07	1.253674e-06	-0.07983803	0.060756	3.532068e-06	3.525264e-05	0.007238923	-0.004966667
	0.006630053	-0.00560868	3.532068e-06	3.525264e-05	-0.08116229	0.05948092	2.03214e-06	3.174311e-05
	-1.142152e-06	2.772679e-06	0.007238923	-0.004966667	2.03214e-06	3.174311e-05	-0.07959987	0.06102186
3.9e+08	-0.07368346	0.0608181	7.098978e-07	1.196615e-06	0.005692622	-0.005304564	-1.049218e-06	2.8314e-06
	7.098978e-07	1.196615e-06	-0.07233386	0.06210414	5.258072e-06	3.474047e-05	0.006319242	-0.004717255
	0.005692622	-0.005304564	5.258072e-06	3.474047e-05	-0.07368131	0.06094976	3.603984e-06	3.135737e-05
	-1.049218e-06	2.8314e-06	0.006319242	-0.004717255	3.603984e-06	3.135737e-05	-0.07208525	0.06235299
4e+08	-0.06611847	0.06134792	7.787629e-07	1.135688e-06	0.004792577	-0.004881876	-9.509745e-07	2.888453e-06
	7.787629e-07	1.135688e-06	-0.06474921	0.06251581	6.946362e-06	3.413768e-05	0.005428184	-0.004352337
	0.004792577	-0.004881876	6.946362e-06	3.413768e-05	-0.06610173	0.06148661	5.146349e-06	3.088808e-05
	-9.509745e-07	2.888453e-06	0.005428184	-0.004352337	5.146349e-06	3.088808e-05	-0.06449289	0.06274599
4.1e+08	-0.0585672	0.0609435	8.425937e-07	1.071317e-06	0.003944867	-0.004345579	-8.47387e-07	2.943298e-06
	8.425937e-07	1.071317e-06	-0.05719834	0.06198825	8.590631e-06	3.344698e-05	0.004580184	-0.003875753
	0.003944867	-0.004345579	8.590631e-06	3.344698e-05	-0.05853698	0.06108641	6.653375e-06	3.033737e-05
	-8.47387e-07	2.943298e-06	0.004580184	-0.003875753	6.653375e-06	3.033737e-05	-0.05693732	0.06219842
4.2e+08	-0.05114274	0.05961327	9.012945e-07	1.00392e-06	0.003163868	-0.003702553	-7.384656e-07	2.995385e-06
	9.012945e-07	1.00392e-06	-0.0497953	0.06053249	1.018487e-05	3.267167e-05	0.003789249	-0.003293181
	0.003163868	-0.003702553	1.018487e-05	3.267167e-05	-0.05110054	0.05975782	8.11945e-06	2.970795e-05
	-7.384656e-07	2.995385e-06	0.003789249	-0.003293181	8.11945e-06	2.970795e-05	-0.04953282	0.06072172
4.3e+08	-0.04395662	0.05737925	9.548081e-07	9.339027e-07	0.002463125	-0.002961549	-6.242709e-07	3.044155e-06
	9.548081e-07	9.339027e-07	-0.04265221	0.05817339	1.172344e-05	3.181556e-05	0.003068713	-0.002612106
	0.002463125	-0.002961549	1.172344e-05	3.181556e-05	-0.0439043	0.05752315	9.539266e-06	2.900302e-05
	-6.24271e-07	3.044155e-06	0.003068713	-0.002612106	9.539266e-06	2.900302e-05	-0.04239167	0.05834115
4.4e+08	-0.03711713	0.05427694	1.003113e-06	8.616567e-07	0.001855097	-0.002133103	-5.049181e-07	3.089048e-06
	1.003113e-06	8.616567e-07	-0.03587759	0.05494935	1.320108e-05	3.088297e-05	0.002430988	-0.001841762
	0.001855097	-0.002133103	1.320108e-05	3.088297e-05	-0.03705686	0.05441823	1.090786e-05	2.822624e-05
	-5.049181e-07	3.089048e-06	0.002430988	-0.001841762	1.090786e-05	2.822624e-05	-0.03562252	0.05509558
4.5e+08	-0.03072769	0.05035483	1.046217e-06	7.875527e-07	0.001350895	-0.001229416	-3.80579e-07	3.129504e-06
	1.046217e-06	7.875527e-07	-0.02957469	0.05091185	1.461301e-05	2.987864e-05	0.00188731	-0.000993026
	0.001350895	-0.001229416	1.461301e-05	2.987864e-05	-0.03066192	0.05049194	1.222068e-05	2.738169e-05
	-3.80579e-07	3.129504e-06	0.00188731	-0.000993026	1.222068e-05	2.738169e-05	-0.02932868	0.05103694
4.6e+08	-0.02488524	0.04567384	1.084155e-06	7.119387e-07	0.0009600444	-0.000264186	-2.514775e-07	3.164981e-06
	1.084155e-06	7.119387e-07	-0.02383988	0.0461248	1.595492e-05	2.88077e-05	0.001447509	-7.827615e-05
	0.0009600444	-0.000264186	1.595492e-05	2.88077e-05	-0.02481663	0.04580561	1.34736e-05	2.647386e-05
	-2.514775e-07	3.164981e-06	0.001447509	-7.827615e-05	1.34736e-05	2.647386e-05	-0.02360652	0.04622964
4.7e+08	-0.0196787	0.04030649	1.116981e-06	6.351383e-07	0.0006902564	0.0007475981	-1.179038e-07	3.194947e-06
	1.116981e-06	6.351383e-07	-0.01876111	0.04066363	1.722303e-05	2.767562e-05	0.001119774	0.0008887891
	0.0006902564	0.0007475981	1.722303e-05	2.767562e-05	-0.01961009	0.04043218	1.466296e-05	2.550751e-05
	-1.179038e-07	3.194947e-06	0.001119774	0.0008887891	1.466296e-05	2.550751e-05	-0.0185439	0.0407496
