!$
! Info: Touchstone file created by Circ.  Input file=Tx_6in_Rx_85ohms_TxVia_10mils_RxVia_20mils.circ
!$
# Hz S RI R 50
0	0.004933098	4.245631e-26	-1.748211e-11	4.109235e-27	4.401936e-05	5.091815e-24	-2.166677e-08	2.653378e-24
	-1.746782e-11	4.108217e-27	0.004932474	6.055593e-26	1.690072e-11	1.372307e-28	4.362913e-05	6.967253e-24
	4.212976e-05	5.020119e-24	1.686538e-11	1.375742e-28	0.004947246	4.418512e-26	1.750239e-08	7.452959e-27
	-2.16675e-08	2.653468e-24	4.508672e-05	7.170977e-24	1.750291e-08	7.451794e-27	0.004938103	5.777938e-26
1e+07	0.007386047	-0.005318297	3.634405e-11	-4.320833e-11	0.0001132583	0.00115478	-7.237428e-09	1.90845e-08
	3.634407e-11	-4.320863e-11	0.006571774	-0.005422319	-4.034704e-12	-7.500404e-11	0.0001579264	0.001158708
	0.0001132197	0.001154806	-4.034762e-12	-7.500373e-11	0.006598729	-0.005525515	-9.20485e-09	1.865299e-08
	-7.237428e-09	1.90845e-08	0.0001579587	0.001158697	-9.20485e-09	1.865299e-08	0.006567774	-0.005417963
2e+07	0.007970851	-0.01260906	4.213085e-11	-5.249461e-11	0.0003335145	0.002293816	-7.368993e-09	2.299658e-08
	4.213056e-11	-5.249484e-11	0.007220902	-0.01248441	1.271528e-11	-1.811871e-10	0.0003982787	0.002263313
	0.000333522	0.002293834	1.271547e-11	-1.811869e-10	0.007163271	-0.01266033	-1.21556e-08	1.859422e-08
	-7.368993e-09	2.299658e-08	0.0003982755	0.002263292	-1.21556e-08	1.859422e-08	0.007220199	-0.01246958
3e+07	0.007094164	-0.02043869	5.060809e-11	-1.135561e-10	0.0007269214	0.003357007	-2.579865e-09	1.795135e-08
	5.060804e-11	-1.135561e-10	0.00638621	-0.02022514	-3.889525e-11	-2.12183e-10	0.0007670026	0.003318345
	0.000726919	0.003357008	-3.889513e-11	-2.121831e-10	0.006271365	-0.02042272	-8.88471e-09	2.134382e-08
	-2.579865e-09	1.795135e-08	0.0007669975	0.003318342	-8.88471e-09	2.134382e-08	0.006388424	-0.02020313
4e+07	0.004989877	-0.02825497	5.72596e-11	-1.612886e-10	0.001244429	0.004349861	-5.855497e-10	1.528943e-08
	5.725965e-11	-1.612886e-10	0.004310557	-0.02797862	-7.853826e-12	-2.658749e-10	0.001258575	0.00431087
	0.001244424	0.004349864	-7.853813e-12	-2.65875e-10	0.004156839	-0.02818216	-3.623394e-09	1.895646e-08
	-5.855497e-10	1.528943e-08	0.001258575	0.004310871	-3.623394e-09	1.895646e-08	0.004315075	-0.02795223
5e+07	0.001777232	-0.03582314	7.502771e-11	-2.052192e-10	0.001876926	0.005259947	1.220123e-09	1.508813e-08
	7.502773e-11	-2.052192e-10	0.001116161	-0.0354938	-3.647128e-11	-3.210036e-10	0.001863806	0.005226643
	0.001876924	0.005259949	-3.647127e-11	-3.210036e-10	0.0009384169	-0.03569582	-1.08387e-10	1.437466e-08
	1.220123e-09	1.508813e-08	0.001863806	0.005226643	-1.08387e-10	1.437466e-08	0.001120989	-0.03546376
6e+07	-0.002447001	-0.04297348	1.078289e-10	-2.515058e-10	0.002612718	0.006074472	6.536199e-09	1.585391e-08
	1.078289e-10	-2.515058e-10	-0.003098285	-0.04259452	-6.420486e-11	-3.51858e-10	0.002571374	0.006052453
	0.002612719	0.00607447	-6.420487e-11	-3.51858e-10	-0.003287297	-0.04279163	1.741502e-09	9.688573e-09
	6.536199e-09	1.585391e-08	0.002571371	0.006052454	1.741502e-09	9.688573e-09	-0.003094274	-0.04256053
7e+07	-0.00758738	-0.0495678	1.585228e-10	-3.013766e-10	0.00343821	0.006781827	1.312404e-08	9.573539e-09
	1.585229e-10	-3.013765e-10	-0.008235735	-0.04913908	-8.685979e-11	-3.833159e-10	0.003368252	0.006776611
	0.00343821	0.006781822	-8.685983e-11	-3.83316e-10	-0.008424725	-0.04933031	2.506999e-09	5.553508e-09
	1.312404e-08	9.573539e-09	0.003368247	0.006776614	2.506999e-09	5.553508e-09	-0.008233252	-0.04910104
8e+07	-0.0135435	-0.05548971	2.085481e-10	-3.392827e-10	0.004338281	0.007372175	1.216678e-08	2.980273e-09
	2.085482e-10	-3.392826e-10	-0.01419432	-0.05500896	-1.093884e-10	-4.272582e-10	0.004239994	0.007389325
	0.00433828	0.007372169	-1.093884e-10	-4.272583e-10	-0.01437301	-0.05519469	2.573093e-09	2.127836e-09
	1.216678e-08	2.980273e-09	0.00423999	0.00738933	2.573093e-09	2.127835e-09	-0.01419436	-0.0549669
9e+07	-0.02020831	-0.06064119	2.053367e-10	-3.759762e-10	0.00529667	0.007837845	1.003608e-08	4.461341e-10
	2.053368e-10	-3.759762e-10	-0.02086569	-0.06010498	-1.20999e-10	-4.902149e-10	0.005171161	0.007883095
	0.005296668	0.007837841	-1.20999e-10	-4.902149e-10	-0.02102407	-0.06028556	2.119014e-09	-5.866881e-10
	1.003608e-08	4.461341e-10	0.005171158	0.007883099	2.119014e-09	-5.866881e-10	-0.02086962	-0.06005857
1e+08	-0.02746842	-0.06494169	1.900551e-10	-5.130067e-10	0.006296774	0.008174092	8.361863e-09	-7.32162e-10
	1.900551e-10	-5.130067e-10	-0.02813629	-0.06434745	-1.056168e-10	-5.582202e-10	0.006146624	0.008254261
	0.006296774	0.008174092	-1.056168e-10	-5.582202e-10	-0.02825988	-0.06451631	1.263022e-09	-2.73961e-09
	8.361863e-09	-7.32162e-10	0.006146624	0.008254261	1.263022e-09	-2.73961e-09	-0.02814564	-0.06429591
1.1e+08	-0.03520397	-0.06833482	2.083777e-10	-5.906061e-10	0.007323148	0.008374272	9.133856e-09	-1.900326e-09
	2.083777e-10	-5.906061e-10	-0.03589044	-0.06766958	-1.181227e-10	-6.021223e-10	0.007154512	0.008490598
	0.007323147	0.008374272	-1.181227e-10	-6.021223e-10	-0.03594304	-0.06785896	1.405018e-09	-3.218635e-09
	9.133856e-09	-1.900326e-09	0.007154512	0.008490598	1.405018e-09	-3.218635e-09	-0.0359053	-0.0676106
1.2e+08	-0.04329417	-0.07075963	2.226714e-10	-6.732308e-10	0.00835355	0.008438327	9.767705e-09	-3.244279e-09
	2.226714e-10	-6.732308e-10	-0.04399388	-0.07001293	-1.292507e-10	-6.449237e-10	0.008167749	0.008593142
	0.00835355	0.008438327	-1.292507e-10	-6.449237e-10	-0.0439877	-0.07024753	1.520768e-09	-3.735797e-09
	9.767705e-09	-3.244279e-09	0.008167749	0.008593142	1.520768e-09	-3.735797e-09	-0.04401425	-0.06994503
1.3e+08	-0.051611	-0.07218587	2.322765e-10	-7.610608e-10	0.009371091	0.008368947	1.023406e-08	-4.744233e-09
	2.322765e-10	-7.610608e-10	-0.05231834	-0.07135001	-1.390364e-10	-6.868388e-10	0.009170752	0.008565529
	0.009371091	0.008368947	-1.390364e-10	-6.868388e-10	-0.05226192	-0.07164355	1.603785e-09	-4.288582e-09
	1.023406e-08	-4.744233e-09	0.009170752	0.008565529	1.603785e-09	-4.288582e-09	-0.05234407	-0.07127174
1.4e+08	-0.06002613	-0.07259941	2.360801e-10	-8.537868e-10	0.01035906	0.008170274	1.050611e-08	-6.375973e-09
	2.360801e-10	-8.537868e-10	-0.06073436	-0.07166779	-1.474203e-10	-7.281973e-10	0.01014755	0.008411723
	0.01035906	0.008170275	-1.474203e-10	-7.281973e-10	-0.06063626	-0.07203073	1.647476e-09	-4.872999e-09
	1.050611e-08	-6.375973e-09	0.01014755	0.008411723	1.647476e-09	-4.872999e-09	-0.06076501	-0.0715777
1.5e+08	-0.06841267	-0.072002	2.329119e-10	-9.508131e-10	0.01130157	0.007848395	1.056046e-08	-8.111192e-09
	2.329119e-10	-9.508131e-10	-0.06911387	-0.0709691	-1.543845e-10	-7.693392e-10	0.01108286	0.008137417
	0.01130157	0.007848395	-1.543845e-10	-7.693392e-10	-0.06898313	-0.07140974	1.645723e-09	-5.483888e-09
	1.056046e-08	-8.111192e-09	0.01108286	0.008137417	1.645723e-09	-5.483888e-09	-0.06914871	-0.07086579
1.6e+08	-0.07664676	-0.0704107	2.216358e-10	-1.051254e-09	0.01218381	0.007411235	1.037773e-08	-9.917964e-09
	2.216358e-10	-1.051254e-09	-0.07733192	-0.06927219	-1.599633e-10	-8.105965e-10	0.01196239	0.007750021
	0.01218381	0.007411235	-1.599633e-10	-8.105965e-10	-0.07717813	-0.06979704	1.593115e-09	-6.115008e-09
	1.037773e-08	-9.917964e-09	0.01196239	0.007750021	1.593115e-09	-6.115008e-09	-0.07736989	-0.06915436
1.7e+08	-0.08460912	-0.06785714	2.012284e-10	-1.153942e-09	0.01299229	0.006868384	9.9432e-09	-1.176135e-08
	2.012284e-10	-1.153942e-09	-0.08526826	-0.06661004	-1.642412e-10	-8.522816e-10	0.01277309	0.00725851
	0.01299229	0.006868384	-1.642412e-10	-8.522816e-10	-0.08510156	-0.06722395	1.485148e-09	-6.759151e-09
	9.9432e-09	-1.176135e-08	0.01277309	0.00725851	1.485148e-09	-6.759151e-09	-0.08530808	-0.06647656
1.8e+08	-0.09218656	-0.06438665	1.708522e-10	-1.257445e-09	0.01371498	0.006230879	9.247207e-09	-1.360406e-08
	1.708522e-10	-1.257445e-09	-0.09280889	-0.06302944	-1.673476e-10	-8.946784e-10	0.01350327	0.006673234
	0.01371498	0.006230879	-1.673476e-10	-8.946784e-10	-0.09263986	-0.06373567	1.318396e-09	-7.408279e-09
	9.247207e-09	-1.360406e-08	0.01350327	0.006673234	1.318396e-09	-7.408279e-09	-0.09284903	-0.0628794
1.9e+08	-0.09927331	-0.06005725	1.29921e-10	-1.360107e-09	0.01434149	0.005510985	8.285505e-09	-1.540726e-08
	1.299209e-10	-1.360107e-09	-0.09984745	-0.05859006	-1.694486e-10	-9.380366e-10	0.01414278	0.006005708
	0.01434149	0.005510985	-1.694486e-10	-9.380366e-10	-0.09968699	-0.0593902	1.090662e-09	-8.053697e-09
	8.285505e-09	-1.540726e-08	0.01414278	0.006005708	1.090662e-09	-8.053697e-09	-0.0998862	-0.05842279
2e+08	-0.1057723	-0.05493854	7.815646e-11	-1.460097e-09	0.01486313	0.004721964	7.059457e-09	-1.713129e-08
	7.815646e-11	-1.460097e-09	-0.1062865	-0.05336321	-1.707389e-10	-9.825672e-10	0.01468304	0.005268396
	0.01486313	0.004721964	-1.707389e-10	-9.825672e-10	-0.1061457	-0.05425722	8.010931e-10	-8.686246e-09
	7.059457e-09	-1.713129e-08	0.01468304	0.005268396	8.010931e-10	-8.686246e-09	-0.106322	-0.05317833
2.1e+08	-0.1115961	-0.0491105	1.563232e-11	-1.555476e-09	0.01527296	0.003877842	5.576135e-09	-1.873646e-08
	1.563232e-11	-1.555476e-09	-0.1120386	-0.04743071	-1.714321e-10	-1.028441e-09	0.01511714	0.0044745
	0.01527296	0.003877842	-1.714321e-10	-1.028441e-09	-0.1119284	-0.04841683	4.502655e-10	-9.296522e-09
	5.576135e-09	-1.873646e-08	0.01511714	0.0044745	4.502655e-10	-9.296522e-09	-0.1120689	-0.04722811
2.2e+08	-0.1166683	-0.04266216	-5.719708e-11	-1.644265e-09	0.01556585	0.002993186	3.848299e-09	-2.01839e-08
	-5.719708e-11	-1.644265e-09	-0.1170273	-0.04088342	-1.717527e-10	-1.075792e-09	0.01543983	0.003637753
	0.01556585	0.002993186	-1.717527e-10	-1.075792e-09	-0.1169586	-0.04195826	4.023263e-11	-9.875099e-09
	3.848299e-09	-2.01839e-08	0.01543983	0.003637753	4.023263e-11	-9.875099e-09	-0.1170505	-0.04066332
2.3e+08	-0.1209238	-0.03569026	-1.394841e-10	-1.724535e-09	0.0157385	0.002082889	1.894272e-09	-2.143625e-08
	-1.394841e-10	-1.724535e-09	-0.1211882	-0.03381992	-1.719286e-10	-1.124715e-09	0.01564757	0.002772222
	0.0157385	0.002082889	-1.719286e-10	-1.124715e-09	-0.1211711	-0.03497843	-4.254655e-10	-1.041277e-08
	1.894272e-09	-2.143625e-08	0.01564757	0.002772222	-4.254655e-10	-1.041277e-08	-0.1212022	-0.03358285
2.4e+08	-0.1243097	-0.02829782	-2.299945e-10	-1.79448e-09	0.01578938	0.001161967	-2.622685e-10	-2.245849e-08
	-2.299945e-10	-1.79448e-09	-0.124469	-0.02634505	-1.721852e-10	-1.175276e-09	0.01573847	0.00189212
	0.01578938	0.001161967	-1.721852e-10	-1.175276e-09	-0.1245132	-0.02758061	-9.418332e-10	-1.090079e-08
	-2.622685e-10	-2.245849e-08	0.01573847	0.00189212	-9.418332e-10	-1.090079e-08	-0.1244719	-0.02609184
2.5e+08	-0.126786	-0.02059266	-3.271305e-10	-1.852503e-09	0.01571873	0.0002453679	-2.592607e-09	-2.321857e-08
	-3.271305e-10	-1.852503e-09	-0.1268307	-0.01856836	-1.727421e-10	-1.227513e-09	0.0157123	0.001011637
	0.01571873	0.0002453679	-1.727421e-10	-1.227513e-09	-0.1269448	-0.01987285	-1.502487e-09	-1.133108e-08
	-2.592607e-09	-2.321857e-08	0.0157123	0.001011637	-1.502487e-09	-1.133108e-08	-0.1268206	-0.01830014
2.6e+08	-0.1283255	-0.01268597	-4.289723e-10	-1.89729e-09	0.01552848	-0.0006522129	-5.063374e-09	-2.368816e-08
	-4.289723e-10	-1.89729e-09	-0.1282474	-0.01060262	-1.738115e-10	-1.281446e-09	0.0155704	0.0001447718
	0.01552848	-0.0006522129	-1.738115e-10	-1.281446e-09	-0.128439	-0.01196658	-2.099761e-09	-1.169649e-08
	-5.063374e-09	-2.368816e-08	0.0155704	0.0001447718	-2.099761e-09	-1.169649e-08	-0.1282226	-0.01032082
2.7e+08	-0.1289144	-0.00469079	-5.333341e-10	-1.927877e-09	0.01522225	-0.001516495	-7.637018e-09	-2.384319e-08
	-5.333341e-10	-1.927877e-09	-0.1287068	-0.002562306	-1.755985e-10	-1.337076e-09	0.01531569	-0.0006948164
	0.01522225	-0.001516495	-1.755985e-10	-1.337076e-09	-0.1289821	-0.003975083	-2.724851e-09	-1.199096e-08
	-7.637018e-09	-2.384319e-08	0.01531569	-0.0006948164	-2.724851e-09	-1.199096e-08	-0.1286658	-0.002268648
2.8e+08	-0.128552	0.003279479	-6.378366e-10	-1.9437e-09	0.0148052	-0.002333776	-1.027234e-08	-2.366448e-08
	-6.378366e-10	-1.9437e-09	-0.12821	0.005437924	-1.783039e-10	-1.394396e-09	0.01495255	-0.001493952
	0.0148052	-0.002333776	-1.783039e-10	-1.394396e-09	-0.1285736	0.003988027	-3.367984e-09	-1.220972e-08
	-1.027234e-08	-2.366448e-08	0.01495255	-0.001493952	-3.367984e-09	-1.220972e-08	-0.1281514	0.005741488
2.9e+08	-0.1272509	0.01111251	-7.399865e-10	-1.944636e-09	0.01428404	-0.003091075	-1.292513e-08	-2.313821e-08
	-7.399865e-10	-1.944636e-09	-0.1267714	0.01328473	-1.821273e-10	-1.453387e-09	0.01448681	-0.00224008
	0.01428404	-0.003091075	-1.821273e-10	-1.453387e-09	-0.1272266	0.01181022	-4.018617e-09	-1.234944e-08
	-1.292513e-08	-2.313821e-08	0.01448681	-0.00224008	-4.018617e-09	-1.234944e-08	-0.1266942	0.01359602
3e+08	-0.1250365	0.01869849	-8.372644e-10	-1.931022e-09	0.01366688	-0.003776279	-1.554878e-08	-2.225634e-08
	-8.372644e-10	-1.931022e-09	-0.1244187	0.02086757	-1.872719e-10	-1.514022e-09	0.01392564	-0.002921393
	0.01366688	-0.003776279	-1.872719e-10	-1.514022e-09	-0.1249666	0.01938154	-4.665663e-09	-1.24083e-08
	-1.554878e-08	-2.225634e-08	0.01392564	-0.002921393	-4.665663e-09	-1.24083e-08	-0.1243221	0.02118421
3.1e+08	-0.1219467	0.02593158	-9.272171e-10	-1.903659e-09	0.01296314	-0.004378278	-1.809506e-08	-2.101699e-08
	-9.272171e-10	-1.903659e-09	-0.1211919	0.0280801	-1.939463e-10	-1.576265e-09	0.01327749	-0.003526961
	0.01296314	-0.004378278	-1.939463e-10	-1.576265e-09	-0.121832	0.026596	-5.297722e-09	-1.238614e-08
	-1.809506e-08	-2.101699e-08	0.01327749	-0.003526961	-5.297722e-09	-1.238614e-08	-0.1210754	0.02839957
3.2e+08	-0.1180314	0.03271118	-1.007549e-09	-1.863789e-09	0.0121835	-0.004887095	-2.051491e-08	-1.942472e-08
	-1.007549e-09	-1.863789e-09	-0.1171434	0.0348216	-2.023707e-10	-1.640065e-09	0.01255201	-0.004046853
	0.0121835	-0.004887095	-2.023707e-10	-1.640065e-09	-0.1178732	0.03335294	-5.903332e-09	-1.228443e-08
	-2.051491e-08	-1.942472e-08	0.01255201	-0.004046853	-5.903332e-09	-1.228443e-08	-0.1170069	0.03514125
3.3e+08	-0.1133519	0.0389433	-1.0762e-09	-1.813065e-09	0.01133973	-0.005294013	-2.275919e-08	-1.74907e-08
	-1.0762e-09	-1.813065e-09	-0.1123368	0.04099821	-2.127866e-10	-1.705346e-09	0.01175993	-0.004472258
	0.01133973	-0.005294013	-2.127866e-10	-1.705346e-09	-0.1131518	0.03955834	-6.471204e-09	-1.210634e-08
	-2.275919e-08	-1.74907e-08	0.01175993	-0.004472258	-6.471204e-09	-1.210634e-08	-0.1121805	0.04131535
3.4e+08	-0.1079799	0.04454181	-1.135342e-09	-1.75199e-09	0.0104446	-0.005591695	-2.477892e-08	-1.523162e-08
	-1.135342e-09	-1.75199e-09	-0.1068462	0.04652424	-2.252397e-10	-1.771981e-09	0.01091298	-0.004795605
	0.0104446	-0.005591695	-2.252397e-10	-1.771981e-09	-0.10774	0.04512609	-6.994471e-09	-1.185513e-08
	-2.477892e-08	-1.523162e-08	0.01091298	-0.004795605	-6.994471e-09	-1.185513e-08	-0.1066708	0.0468362
3.5e+08	-0.1019968	0.04942949	-1.179929e-09	-1.683736e-09	0.009511738	-0.005774305	-2.652776e-08	-1.267337e-08
	-1.179929e-09	-1.683736e-09	-0.1007553	0.05132331	-2.401537e-10	-1.839902e-09	0.01002378	-0.005010678
	0.009511738	-0.005774305	-2.401537e-10	-1.839902e-09	-0.1017198	0.04997907	-7.459203e-09	-1.153799e-08
	-2.652776e-08	-1.267337e-08	0.01002378	-0.005010678	-7.459203e-09	-1.153799e-08	-0.1005618	0.05162743
3.6e+08	-0.09549233	0.05353915	-1.20838e-09	-1.611059e-09	0.008555463	-0.00583761	-2.796188e-08	-9.847362e-09
	-1.20838e-09	-1.611059e-09	-0.09415639	0.05532941	-2.578355e-10	-1.908937e-09	0.009105672	-0.005112724
	0.008555463	-0.00583761	-2.578355e-10	-1.908937e-09	-0.09518136	0.0540503	-7.855434e-09	-1.116291e-08
	-2.796188e-08	-9.847362e-09	0.009105672	-0.005112724	-7.855434e-09	-1.116291e-08	-0.09394612	0.05562313
3.7e+08	-0.08856387	0.05681463	-1.220194e-09	-1.536639e-09	0.007590627	-0.005779083	-2.904093e-08	-6.791126e-09
	-1.220194e-09	-1.536639e-09	-0.08714883	0.05848783	-2.785621e-10	-1.978856e-09	0.008172599	-0.005098562
	0.007590627	-0.005779083	-2.785621e-10	-1.978856e-09	-0.08822255	0.05728382	-8.174914e-09	-1.073903e-08
	-2.904093e-08	-6.791126e-09	0.008172599	-0.005098562	-8.174914e-09	-1.073903e-08	-0.08692357	0.05876873
3.8e+08	-0.08131475	0.05921154	-1.215358e-09	-1.463179e-09	0.006632427	-0.005597986	-2.972899e-08	-3.548117e-09
	-1.215358e-09	-1.463179e-09	-0.07983803	0.060756	-3.025989e-10	-2.049367e-09	0.007238923	-0.004966667
	0.006632427	-0.005597986	-3.025989e-10	-2.049367e-09	-0.08094718	0.05963558	-8.410667e-09	-1.027659e-08
	-2.972899e-08	-3.548117e-09	0.007238923	-0.004966667	-8.410667e-09	-1.027659e-08	-0.07959987	0.06102186
3.9e+08	-0.07385306	0.06069803	-1.194327e-09	-1.393306e-09	0.005696196	-0.005295438	-2.999545e-08	-1.672357e-10
	-1.194327e-09	-1.393306e-09	-0.07233386	0.06210414	-3.301858e-10	-2.120119e-09	0.006319242	-0.004717255
	0.005696196	-0.005295438	-3.301858e-10	-2.120119e-09	-0.07346377	0.0610741	-8.557134e-09	-9.786781e-09
	-2.999545e-08	-1.672357e-10	0.006319242	-0.004717255	-8.557134e-09	-9.786781e-09	-0.07208525	0.06235299
4e+08	-0.06629012	0.06125528	-1.158001e-09	-1.329481e-09	0.004797184	-0.004874462	-2.98158e-08	3.297804e-09
	-1.158001e-09	-1.329481e-09	-0.06474921	0.06251581	-3.615237e-10	-2.190696e-09	0.005428184	-0.004352337
	0.004797184	-0.004874462	-3.615237e-10	-2.190696e-09	-0.06588408	0.06158103	-8.610282e-09	-9.281502e-09
	-2.98158e-08	3.297804e-09	0.005428184	-0.004352337	-8.610282e-09	-9.281502e-09	-0.06449289	0.06274599
4.1e+08	-0.05873896	0.06087792	-1.107665e-09	-1.273916e-09	0.00395032	-0.004340003	-2.917244e-08	6.789226e-09
	-1.107665e-09	-1.273916e-09	-0.05719834	0.06198825	-3.967581e-10	-2.260626e-09	0.004580184	-0.003875753
	0.00395032	-0.004340003	-3.967581e-10	-2.260626e-09	-0.05832149	0.0611515	-8.567684e-09	-8.773162e-09
	-2.917244e-08	6.789226e-09	0.004580184	-0.003875753	-8.567684e-09	-8.773162e-09	-0.05693732	0.06219842
4.2e+08	-0.05131271	0.05957421	-1.044924e-09	-1.228509e-09	0.003169962	-0.00369892	-2.805528e-08	1.024607e-08
	-1.044924e-09	-1.228509e-09	-0.0497953	0.06053249	-4.359642e-10	-2.329384e-09	0.003789249	-0.003293181
	0.003169962	-0.00369892	-4.359642e-10	-2.329384e-09	-0.05088943	0.05979434	-8.428554e-09	-8.274446e-09
	-2.805528e-08	1.024607e-08	0.003789249	-0.003293181	-8.428554e-09	-8.274446e-09	-0.04953282	0.06072172
4.3e+08	-0.04412293	0.05736603	-9.716222e-10	-1.194797e-09	0.002469642	-0.002959939	-2.646236e-08	1.360519e-08
	-9.716222e-10	-1.194797e-09	-0.04265221	0.05817339	-4.791332e-10	-2.396407e-09	0.003068713	-0.002612106
	0.002469642	-0.002959939	-4.791332e-10	-2.396407e-09	-0.0436997	0.05753209	-8.193758e-09	-7.798097e-09
	-2.646236e-08	1.360519e-08	0.003068713	-0.002612106	-8.193758e-09	-7.798097e-09	-0.04239167	0.05834115
4.4e+08	-0.03727798	0.05428871	-8.897526e-10	-1.173929e-09	0.001861805	-0.002133571	-2.440024e-08	1.680232e-08
	-8.897526e-10	-1.173929e-09	-0.03587759	0.05494935	-5.261594e-10	-2.461105e-09	0.002430988	-0.001841762
	0.001861805	-0.002133571	-5.261594e-10	-2.461105e-09	-0.03686083	0.05440072	-7.865797e-09	-7.356703e-09
	-2.440024e-08	1.680232e-08	0.002430988	-0.001841762	-7.865797e-09	-7.356703e-09	-0.03562252	0.05509558
4.5e+08	-0.03088137	0.05039061	-8.013672e-10	-1.16666e-09	0.001357554	-0.001231988	-2.188429e-08	1.977329e-08
	-8.013672e-10	-1.16666e-09	-0.02957469	0.05091185	-5.768323e-10	-2.522884e-09	0.00188731	-0.000993026
	0.001357554	-0.001231988	-5.768323e-10	-2.522884e-09	-0.0304764	0.05044932	-7.448749e-09	-6.962494e-09
	-2.188429e-08	1.977329e-08	0.00188731	-0.000993026	-7.448749e-09	-6.962494e-09	-0.02932868	0.05103694
4.6e+08	-0.02503013	0.0457325	-7.084902e-10	-1.173377e-09	0.0009664085	-0.0002688559	-1.893877e-08	2.245523e-08
	-7.084902e-10	-1.173377e-09	-0.02383988	0.0461248	-6.308306e-10	-2.581161e-09	0.001447509	-7.827615e-05
	0.0009664085	-0.0002688559	-6.308306e-10	-2.581161e-09	-0.02464342	0.04573938	-6.948208e-09	-6.62716e-09
	-1.893877e-08	2.245523e-08	0.001447509	-7.827615e-05	-6.948208e-09	-6.62716e-09	-0.02360652	0.04622964
4.7e+08	-0.0198133	0.04038675	-6.130417e-10	-1.194131e-09	0.0006960793	0.0007408654	-1.559682e-08	2.478788e-08
	-6.130417e-10	-1.194131e-09	-0.01876111	0.04066363	-6.877216e-10	-2.635391e-09	0.001119774	0.0008887891
