!$
! Info: Touchstone file created by Circ.  Input file=Tx_6in_Rx_93ohms_TxVia_10mils_RxVia_20mils.circ
!$
# Hz S RI R 50
0	0.00560328	4.231161e-26	-3.255755e-05	1.879105e-25	4.387368e-05	5.790863e-24	-3.256284e-05	4.719982e-25
	-3.255756e-05	1.881401e-25	0.005602646	6.034483e-26	-3.255797e-05	4.567091e-26	4.348249e-05	7.925597e-24
	4.198413e-05	5.709303e-24	-3.255797e-05	4.592036e-26	0.005617391	4.403414e-26	-3.255697e-05	3.872731e-25
	-3.256282e-05	4.706447e-25	4.493983e-05	8.157341e-24	-3.255695e-05	3.856625e-25	0.005608268	5.757861e-26
1e+07	0.008302828	0.0001264157	-0.0001596205	-4.542426e-05	0.0001517117	0.001069498	-9.084522e-05	7.411043e-05
	-0.0001596205	-4.542426e-05	0.008188994	-0.0002400475	-1.921632e-06	-5.030564e-06	0.0001556176	0.001166927
	0.0001516729	0.001069523	-1.921629e-06	-5.030565e-06	0.007748947	-0.0001923367	-8.965887e-06	2.316853e-07
	-9.084522e-05	7.411043e-05	0.00015565	0.001166915	-8.965888e-06	2.316877e-07	0.008037146	-0.0002502933
2e+07	0.01018561	-0.001895163	-0.0001645443	-3.368221e-06	0.0003991887	0.002163357	-0.0001145334	8.349167e-05
	-0.0001645443	-3.368224e-06	0.009727852	-0.002448374	-2.437601e-06	-3.089385e-06	0.0003308657	0.002340433
	0.0003991959	0.002163375	-2.437601e-06	-3.089387e-06	0.009447501	-0.002209406	-2.315126e-06	-1.603518e-05
	-0.0001145334	8.349167e-05	0.0003308628	0.002340412	-2.315125e-06	-1.603518e-05	0.009610557	-0.002409636
3e+07	0.01117603	-0.004810495	-0.0001675734	1.793398e-05	0.0007723887	0.003218808	-0.0001295786	9.467374e-05
	-0.0001675734	1.793398e-05	0.01044413	-0.005375117	-5.727816e-06	-4.630144e-06	0.0006848445	0.003430103
	0.0007723862	0.003218809	-5.727815e-06	-4.630144e-06	0.01029659	-0.005087836	-1.128291e-05	-1.987362e-05
	-0.0001295786	9.467374e-05	0.0006848395	0.003430101	-1.128291e-05	-1.987362e-05	0.0103535	-0.005326872
4e+07	0.01150192	-0.008031542	-0.0001687213	3.692893e-05	0.001268512	0.004219272	-0.0001398999	0.0001039523
	-0.0001687213	3.692893e-05	0.01053701	-0.008536463	-8.433438e-06	-4.61145e-06	0.001193947	0.004445713
	0.001268507	0.004219274	-8.433437e-06	-4.61145e-06	0.01050907	-0.008244089	-1.921127e-05	-2.050143e-05
	-0.0001398999	0.0001039523	0.001193947	0.004445715	-1.921127e-05	-2.050143e-05	0.01046807	-0.008490896
5e+07	0.01125027	-0.01137212	-0.0001684962	5.420524e-05	0.001880181	0.005148963	-0.0001471717	0.0001112415
	-0.0001684962	5.420524e-05	0.01008546	-0.01176859	-1.067662e-05	-3.765851e-06	0.001813225	0.005382899
	0.00188018	0.005148965	-1.067662e-05	-3.765851e-06	0.01016699	-0.01149907	-2.630434e-05	-1.91333e-05
	-0.0001471717	0.0001112415	0.001813225	0.005382899	-2.630434e-05	-1.91333e-05	0.01003265	-0.01173173
6e+07	0.01047275	-0.01471763	-0.0001712462	5.937837e-05	0.002597672	0.005993851	-0.0001525263	0.0001164169
	-0.0001712462	5.937837e-05	0.009138845	-0.01496729	-1.253286e-05	-2.339161e-06	0.002533088	0.006230655
	0.002597673	0.005993848	-1.253287e-05	-2.33916e-06	0.009320205	-0.01474258	-3.261136e-05	-1.622161e-05
	-0.0001525263	0.0001164169	0.002533085	0.006230656	-3.261136e-05	-1.622161e-05	0.009097745	-0.0149425
7e+07	0.009210281	-0.01798259	-0.00017393	6.487625e-05	0.003409552	0.006741639	-0.0001568801	0.0001191975
	-0.00017393	6.487625e-05	0.007738332	-0.01805291	-1.398283e-05	-4.73895e-07	0.003342119	0.006978303
	0.003409552	0.006741633	-1.398283e-05	-4.738949e-07	0.008009209	-0.01789189	-3.809167e-05	-1.198123e-05
	-0.0001568801	0.0001191975	0.003342114	0.006978305	-3.809167e-05	-1.198123e-05	0.007704988	-0.01804286
8e+07	0.007500924	-0.02109786	-0.0001766751	7.050821e-05	0.004303086	0.007382008	-0.0001612453	0.0001191477
	-0.0001766751	7.050821e-05	0.005924121	-0.02095938	-1.500755e-05	1.768196e-06	0.004227374	0.007616238
	0.004303085	0.007382002	-1.500755e-05	1.768196e-06	0.006272827	-0.02087929	-4.26387e-05	-6.508902e-06
	-0.0001612453	0.0001191477	0.00422737	0.007616242	-4.26387e-05	-6.508903e-06	0.00589422	-0.02096636
9e+07	0.005382397	-0.02400654	-0.0001797267	7.596729e-05	0.005264912	0.007907294	-0.0001670199	0.000115382
	-0.0001797267	7.596729e-05	0.003738943	-0.02362907	-1.554816e-05	4.388958e-06	0.005174645	0.008136326
	0.005264911	0.00790729	-1.554816e-05	4.388958e-06	0.004151364	-0.02364699	-4.605091e-05	2.265125e-07
	-0.0001670198	0.000115382	0.005174642	0.00813633	-4.605091e-05	2.265119e-07	0.003707509	-0.02365482
1e+08	0.002886067	-0.02667125	-0.000184223	7.974664e-05	0.00628514	0.008318264	-0.0001783765	0.0001032134
	-0.000184223	7.974664e-05	0.001237111	-0.02600059	-1.53127e-05	7.695671e-06	0.006168734	0.008531926
	0.00628514	0.008318264	-1.53127e-05	7.695671e-06	0.001690414	-0.02614175	-4.759575e-05	8.970081e-06
	-0.0001783765	0.0001032134	0.006168734	0.008531926	-4.759575e-05	8.970081e-06	0.001197509	-0.02604782
1.1e+08	2.405619e-05	-0.02899264	-0.0001830994	8.047256e-05	0.007310656	0.00861603	-0.0001735875	7.881615e-05
	-0.0001830994	8.047256e-05	-0.001497835	-0.02811389	-1.343798e-05	9.890694e-06	0.007192217	0.008799018
	0.007310656	0.00861603	-1.343798e-05	9.890694e-06	-0.001050641	-0.02835473	-4.516748e-05	1.549051e-05
	-0.0001735875	7.881615e-05	0.007192217	0.008799018	-4.516748e-05	1.549051e-05	-0.001555468	-0.0281744
1.2e+08	-0.00308577	-0.03093641	-0.0001803814	8.412507e-05	0.008347037	0.008766165	-0.0001661985	6.111107e-05
	-0.0001803814	8.412507e-05	-0.004504803	-0.02990743	-1.185551e-05	1.132316e-05	0.008230582	0.008936458
	0.008347037	0.008766165	-1.185551e-05	1.132316e-05	-0.004058893	-0.03023308	-4.317451e-05	2.052852e-05
	-0.0001661985	6.111107e-05	0.008230582	0.008936457	-4.317451e-05	2.052852e-05	-0.004579827	-0.02997542
1.3e+08	-0.006400716	-0.03249224	-0.0001770005	8.891998e-05	0.009382287	0.008777444	-0.0001596502	4.481326e-05
	-0.0001770005	8.891998e-05	-0.007722721	-0.03133587	-1.034766e-05	1.24238e-05	0.009267521	0.008943432
	0.009382287	0.008777444	-1.034766e-05	1.24238e-05	-0.007280089	-0.03174296	-4.106638e-05	2.50676e-05
	-0.0001596502	4.481326e-05	0.009267521	0.008943432	-4.106638e-05	2.50676e-05	-0.007815462	-0.03140778
1.4e+08	-0.009870177	-0.03364381	-0.0001730654	9.440023e-05	0.01040028	0.008653619	-0.0001547734	2.891561e-05
	-0.0001730654	9.440023e-05	-0.01109729	-0.03237491	-9.778246e-06	1.245949e-05	0.0102868	0.008821478
	0.01040028	0.008653619	-9.778246e-06	1.245949e-05	-0.01066152	-0.03286214	-3.871947e-05	2.929158e-05
	-0.0001547734	2.891561e-05	0.0102868	0.008821478	-3.871947e-05	2.929158e-05	-0.01120793	-0.03244756
1.5e+08	-0.01344211	-0.03437955	-0.0001685927	0.0001002952	0.0113848	0.008399412	-0.0001520502	1.313277e-05
	-0.0001685927	0.0001002952	-0.0145747	-0.0330092	-9.18276e-06	1.253218e-05	0.01127254	0.008574197
	0.0113848	0.008399412	-9.18276e-06	1.253218e-05	-0.01415028	-0.03357594	-3.606991e-05	3.324053e-05
	-0.0001520502	1.313277e-05	0.01127254	0.008574197	-3.606991e-05	3.324053e-05	-0.01470313	-0.03307961
1.6e+08	-0.01706415	-0.03469366	-0.0001635829	0.000106419	0.01232013	0.008021137	-0.0001518082	-2.512283e-06
	-0.0001635829	0.000106419	-0.01810149	-0.03323089	-8.555945e-06	1.263059e-05	0.01220953	0.008207149
	0.01232013	0.008021137	-8.555945e-06	1.263059e-05	-0.01769353	-0.03387661	-3.308727e-05	3.691348e-05
	-0.0001518082	-2.512283e-06	0.01220953	0.008207149	-3.308727e-05	3.691348e-05	-0.01824726	-0.03329623
1.7e+08	-0.02068432	-0.03458636	-0.0001580364	0.0001126229	0.01319137	0.007526807	-0.0001542694	-1.782643e-05
	-0.0001580364	0.0001126229	-0.02162487	-0.03303902	-7.903943e-06	1.273738e-05	0.0130834	0.007727731
	0.01319137	0.007526807	-7.903943e-06	1.273738e-05	-0.02123902	-0.03376297	-2.976124e-05	4.028519e-05
	-0.0001542694	-1.782643e-05	0.0130834	0.007727731	-2.976124e-05	4.028519e-05	-0.02178721	-0.03309663
1.8e+08	-0.02425167	-0.03406381	-0.0001519599	0.0001187802	0.01398476	0.006926092	-0.0001595633	-3.251232e-05
	-0.0001519599	0.0001187802	-0.02509334	-0.03243916	-7.231384e-06	1.284036e-05	0.01388087	0.007145038
	0.01398476	0.006926092	-7.231384e-06	1.284036e-05	-0.02473562	-0.03324013	-2.609802e-05	4.331795e-05
	-0.0001595633	-3.251232e-05	0.01388087	0.007145038	-2.609802e-05	4.331795e-05	-0.02527113	-0.03248658
1.9e+08	-0.02771692	-0.03313797	-0.0001453701	0.00012478	0.01468786	0.006230202	-0.0001677325	-4.620865e-05
	-0.0001453701	0.00012478	-0.02845716	-0.03144305	-6.542246e-06	1.293051e-05	0.01458996	0.006469704
	0.01468786	0.006230202	-6.542246e-06	1.293051e-05	-0.02813391	-0.03231923	-2.211825e-05	4.596879e-05
	-0.0001677325	-4.620865e-05	0.01458996	0.006469704	-2.211825e-05	4.596879e-05	-0.02864901	-0.03147802
2e+08	-0.03103302	-0.03182639	-0.0001382941	0.0001305238	0.01528973	0.005451726	-0.0001787335	-5.851916e-05
	-0.0001382941	0.0001305238	-0.03166902	-0.03006829	-5.840214e-06	1.300097e-05	0.01520013	0.005713718
	0.01528973	0.005451726	-5.840214e-06	1.300097e-05	-0.03138675	-0.03101711	-1.785542e-05	4.819427e-05
	-0.0001787335	-5.851916e-05	0.01520013	0.005713718	-1.785542e-05	4.819427e-05	-0.03187327	-0.0300888
2.1e+08	-0.03415612	-0.03015178	-0.0001307697	0.0001359248	0.01578593	0.004591959	-0.0001924402	-6.903616e-05
	-0.0001307697	0.0001359248	-0.03468458	-0.02833791	-5.127474e-06	1.304381e-05	0.01570244	0.00489023
	0.01578593	0.004591959	-5.127474e-06	1.304381e-05	-0.03445019	-0.0293559	-1.333039e-05	4.99421e-05
	-0.0001924402	-6.903616e-05	0.01570244	0.00489023	-1.333039e-05	4.99421e-05	-0.03489934	-0.0283422
2.2e+08	-0.03704545	-0.02814166	-0.0001228444	0.0001409082	0.01616724	0.003663969	-0.0002086469	-7.735831e-05
	-0.0001228444	0.0001409082	-0.03746303	-0.02627994	-4.407992e-06	1.305443e-05	0.01608967	0.004013339
	0.01616724	0.003663969	-4.407992e-06	1.305443e-05	-0.03728336	-0.02736261	-8.595304e-06	5.116895e-05
	-0.0002086469	-7.735831e-05	0.01608967	0.004013339	-8.595304e-06	5.116895e-05	-0.0376862	-0.02626656
2.3e+08	-0.03966357	-0.0258281	-0.0001145738	0.0001454114	0.01642165	0.0026986	-0.0002270726	-8.310719e-05
	-0.0001145738	0.0001454114	-0.03996756	-0.02392692	-3.687379e-06	1.303297e-05	0.01635642	0.003097867
	0.01642165	0.0026986	-3.687379e-06	1.303297e-05	-0.03984872	-0.02506888	-3.742808e-06	5.186062e-05
	-0.0002270726	-8.310719e-05	0.01635642	0.003097867	-3.742808e-06	5.186062e-05	-0.04019688	-0.02389471
2.4e+08	-0.04197777	-0.02324707	-0.0001060208	0.000149384	0.0165459	0.001712094	-0.0002473698	-8.594333e-05
	-0.0001060208	0.000149384	-0.04216584	-0.02131536	-2.969375e-06	1.297735e-05	0.01649917	0.002159134
	0.0165459	0.001712094	-2.969375e-06	1.297735e-05	-0.04211349	-0.02251027	1.157912e-06	5.200108e-05
	-0.0002473698	-8.594333e-05	0.01649917	0.002159134	1.157912e-06	5.200108e-05	-0.04239892	-0.02126348
2.5e+08	-0.04396004	-0.02043791	-9.725323e-05	0.0001527883	0.01653876	0.0007209302	-0.0002691319	-8.557885e-05
	-9.725323e-05	0.0001527883	-0.04403038	-0.01848518	-2.25769e-06	1.28863e-05	0.0165163	0.001212723
	0.01653876	0.0007209303	-2.25769e-06	1.28863e-05	-0.04404952	-0.01972581	6.034076e-06	5.158527e-05
	-0.0002691319	-8.557885e-05	0.0165163	0.001212723	6.034076e-06	5.158527e-05	-0.04426475	-0.01841311
2.6e+08	-0.04558738	-0.01744275	-8.834204e-05	0.0001555994	0.01640104	-0.0002584485	-0.0002919044	-8.17868e-05
	-8.834204e-05	0.0001555994	-0.04553889	-0.01547904	-1.555987e-06	1.275922e-05	0.01640812	0.0002742478
	0.01640104	-0.0002584485	-1.555987e-06	1.275922e-05	-0.04563373	-0.01675733	1.08117e-05	5.061965e-05
	-0.0002919044	-8.17868e-05	0.01640812	0.0002742478	1.08117e-05	5.061965e-05	-0.04577201	-0.01538661
2.7e+08	-0.04684206	-0.01430594	-7.935941e-05	0.0001578051	0.01613556	-0.001209872	-0.0003151959	-7.441068e-05
	-7.935941e-05	0.0001578051	-0.04667443	-0.01234176	-8.678071e-07	1.259632e-05	0.01617684	-0.0006408813
	0.01613556	-0.001209872	-8.678071e-07	1.259632e-05	-0.04684828	-0.01364892	1.541768e-05	4.912242e-05
	-0.0003151959	-7.441068e-05	0.01617684	-0.0006408813	1.541768e-05	4.912242e-05	-0.04690378	-0.01222913
2.8e+08	-0.0477118	-0.01107333	-7.037683e-05	0.0001594059	0.01574709	-0.002117686	-0.0003384917	-6.336783e-05
	-7.037683e-05	0.0001594059	-0.04742569	-0.009119624	-1.965138e-07	1.239835e-05	0.01582653	-0.00151768
	0.01574709	-0.002117686	-1.965138e-07	1.239835e-05	-0.04768079	-0.01044622	1.97821e-05	4.712322e-05
	-0.0003384917	-6.336783e-05	0.01582653	-0.00151768	1.97821e-05	4.712322e-05	-0.0476488	-0.008987288
2.9e+08	-0.0481899	-0.007791694	-6.1463e-05	0.0001604138	0.01524227	-0.00296698	-0.0003612662	-4.86544e-05
	-6.1463e-05	0.0001604138	-0.04778703	-0.005859706	4.547984e-07	1.216661e-05	0.01536304	-0.002341809
	0.01524227	-0.00296698	4.547984e-07	1.216661e-05	-0.04812446	-0.007195822	2.384017e-05	4.466246e-05
	-0.0003612662	-4.86544e-05	0.01536304	-0.002341809	2.384017e-05	4.466246e-05	-0.04800149	-0.005708485
3e+08	-0.04827525	-0.004508063	-5.268211e-05	0.0001608516	0.01462951	-0.003743804	-0.0003829966	-3.034689e-05
	-5.268211e-05	0.0001608516	-0.04775852	-0.002609207	1.083369e-06	1.190284e-05	0.01479392	-0.003099778
	0.01462951	-0.003743804	1.083369e-06	1.190284e-05	-0.0481781	-0.00394459	2.753403e-05	4.179032e-05
	-0.0003829966	-3.034689e-05	0.01479392	-0.003099778	2.753403e-05	4.179032e-05	-0.04796207	-0.002440229
3.1e+08	-0.0479723	-0.001269036	-4.409233e-05	0.0001607518	0.01391884	-0.004435373	-0.0004031761	-8.598081e-06
	-4.409233e-05	0.0001607518	-0.04734589	0.0005852393	1.6868e-06	1.160918e-05	0.01412829	-0.003779143
	0.01391884	-0.004435373	1.6868e-06	1.160918e-05	-0.04784609	-0.0007389884	3.081453e-05	3.856542e-05
	-0.0004031761	-8.598081e-06	0.01412829	-0.003779143	3.081453e-05	3.856542e-05	-0.0475364	0.0007705469
3.2e+08	-0.04729096	0.001879822	-3.574427e-05	0.0001601552	0.01312179	-0.005030248	-0.0004213263	1.636395e-05
	-3.574427e-05	0.0001601552	-0.04656035	0.003678201	2.263114e-06	1.128805e-05	0.01337669	-0.004368679
	0.01312179	-0.005030248	2.263114e-06	1.128805e-05	-0.0471383	0.002375538	3.364244e-05	3.505324e-05
	-0.0004213263	1.636395e-05	0.01337669	-0.004368679	3.364244e-05	3.505324e-05	-0.04673592	0.003878139
3.3e+08	-0.04624644	0.004894619	-2.767994e-05	0.000159109	0.01225117	-0.005518505	-0.0004370097	4.424166e-05
	-2.767994e-05	0.000159109	-0.04541845	0.006626091	2.810781e-06	1.094206e-05	0.01255095	-0.004858543
	0.01225117	-0.005518505	2.810781e-06	1.094206e-05	-0.04606985	0.005355202	3.598951e-05	3.132432e-05
	-0.0004370097	4.424166e-05	0.01255095	-0.004858543	3.598951e-05	3.132432e-05	-0.04557738	0.006838714
3.4e+08	-0.04485892	0.007733736	-1.993188e-05	0.0001576657	0.01132091	-0.005891881	-0.0004498392	7.46784e-05
	-1.993188e-05	0.0001576657	-0.04394176	0.009387783	3.328706e-06	1.057392e-05	0.01166398	-0.005240415
	0.01132091	-0.005891881	3.328706e-06	1.057392e-05	-0.04466093	0.008158488	3.783928e-05	2.745229e-05
	-0.0004498392	7.46784e-05	0.01166398	-0.005240415	3.783928e-05	2.745229e-05	-0.04408262	0.009610928
3.5e+08	-0.04315335	0.01035838	-1.25226e-05	0.0001558806	0.01034585	-0.006143889	-0.0004594884	0.0001072647
	-1.25226e-05	0.0001558806	-0.04215652	0.01192516	3.816231e-06	1.018636e-05	0.01072964	-0.005507618
	0.01034585	-0.006143889	3.816231e-06	1.018636e-05	-0.04293644	0.01074669	3.918734e-05	2.351188e-05
	-0.0004594884	0.0001072647	0.01072964	-0.005507618	3.918734e-05	2.351188e-05	-0.04227819	0.01215648
3.6e+08	-0.04115895	0.01273312	-5.46435e-06	0.0001538105	0.009341487	-0.00626992	-0.0004656973	0.0001415512
	-5.46435e-06	0.0001538105	-0.04009328	0.01420364	4.273101e-06	9.782031e-06	0.009762455	-0.005655211
	0.009341487	-0.00626992	4.273101e-06	9.782031e-06	-0.04092562	0.01308447	4.004136e-05	1.957678e-05
	-0.0004656973	0.0001415512	0.009762455	-0.005655211	4.004136e-05	1.957678e-05	-0.04019492	0.01444066
3.7e+08	-0.03890887	0.01482632	1.24074e-06	0.0001515113	0.008323795	-0.006267311	-0.0004682786	0.0001770591
	1.24074e-06	0.0001515113	-0.03778639	0.01619267	4.699422e-06	9.363437e-06	0.008777467	-0.005680071
	0.008323795	-0.006267311	4.699422e-06	9.363437e-06	-0.03866163	0.0151403	4.042073e-05	1.571761e-05
	-0.0004682786	0.0001770591	0.008777467	-0.005680071	4.042073e-05	1.571761e-05	-0.0378675	0.0164328
3.8e+08	-0.03643966	0.01661063	7.600263e-06	0.0001490367	0.00730895	-0.006135387	-0.000467121	0.0002132926
	7.600263e-06	0.0001490367	-0.03527351	0.01786611	5.095608e-06	8.932874e-06	0.007789988	-0.005580935
	0.00730895	-0.006135387	5.095608e-06	8.932874e-06	-0.03618101	0.01688693	4.035579e-05	1.200003e-05
	-0.000467121	0.0002132926	0.007789988	-0.005580935	4.035579e-05	1.200003e-05	-0.03533394	0.01810669
3.9e+08	-0.03379077	0.01806328	1.363082e-05	0.0001464361	0.006313099	-0.005875476	-0.0004621896	0.000249752
	1.363082e-05	0.0001464361	-0.03259507	0.01920257	5.462307e-06	8.492382e-06	0.006815376	-0.005358422
	0.006313099	-0.005875476	5.462307e-06	8.492382e-06	-0.03352325	0.01830169	3.988684e-05	8.482856e-06
	-0.0004621896	0.000249752	0.006815376	-0.005358422	3.988684e-05	8.482856e-06	-0.03263499	0.01944094
4e+08	-0.03100393	0.01916641	1.935693e-05	0.0001437532	0.005352117	-0.005490895	-0.0004535257	0.0002859455
	1.935693e-05	0.0001437532	-0.02979364	0.02018576	5.80034e-06	8.043719e-06	0.005868811	-0.005015034
	0.005352117	-0.005490895	5.80034e-06	8.043719e-06	-0.0307301	0.01936686	3.906274e-05	5.216541e-06
	-0.0004535257	0.0002859455	0.005868811	-0.005015034	3.906274e-05	5.216541e-06	-0.02981359	0.02041928
4.1e+08	-0.02812261	0.0199073	2.480988e-05	0.0001410247	0.004441361	-0.004986909	-0.0004412424	0.0003214026
	2.480988e-05	0.0001410247	-0.02691333	0.02080461	6.110624e-06	7.588356e-06	0.004965064	-0.004555123
	0.004441361	-0.004986909	6.110624e-06	7.588356e-06	-0.02784507	0.02006985	3.793934e-05	2.241798e-06
	-0.0004412424	0.0003214026	0.004965064	-0.004555123	3.793934e-05	2.241798e-06	-0.02691419	0.02103072
4.2e+08	-0.02519137	0.0202785	3.002617e-05	0.0001382792	0.003595439	-0.004370654	-0.0004255193	0.0003556851
	3.002617e-05	0.0001382792	-0.02399916	0.02105349	6.394103e-06	7.127476e-06	0.004118276	-0.003984831
	0.003595439	-0.004370654	6.394103e-06	7.127476e-06	-0.02491273	0.02040337	3.65776e-05	-4.114238e-07
	-0.0004255193	0.0003556851	0.004118276	-0.003984831	3.65776e-05	-4.114238e-07	-0.02398215	0.02126975
4.3e+08	-0.02225523	0.02027797	3.50459e-05	0.0001355367	0.00282798	-0.00365104	-0.0004065961	0.0003883968
	3.50459e-05	0.0001355367	-0.0210964	0.02093222	6.651686e-06	6.661991e-06	0.003341741	-0.003312006
	0.00282798	-0.00365104	6.651686e-06	6.661991e-06	-0.02197812	0.02036553	3.504163e-05	-2.724617e-06
	-0.0004065961	0.0003883968	0.003341741	-0.003312006	3.504163e-05	-2.724617e-06	-0.02106303	0.02113633
4.4e+08	-0.01935902	0.01990902	3.99109e-05	0.0001328074	0.002151417	-0.002838622	-0.0003847643	0.0004191917
	3.99109e-05	0.0001328074	-0.01824988	0.02044604	6.884187e-06	6.192573e-06	0.002647697	-0.002546091
	0.002151417	-0.002838622	6.884187e-06	6.192573e-06	-0.01908609	0.01995983	3.33966e-05	-4.691042e-06
	-0.0003847643	0.0004191917	0.002647697	-0.002546091	3.33966e-05	-4.691042e-06	-0.01820198	0.02063593
4.5e+08	-0.01654678	0.0191803	4.466358e-05	0.0001300929	0.001576793	-0.001945445	-0.0003604234	0.000447752
	4.466358e-05	0.0001300929	-0.01550341	0.01960557	7.092275e-06	5.719687e-06	0.00204714	-0.001697988
	0.001576793	-0.001945445	7.092275e-06	5.719687e-06	-0.01628066	0.01919512	3.170719e-05	-6.315213e-06
	-0.0003604234	0.000447752	0.00204714	-0.001697988	3.170719e-05	-6.315213e-06	-0.01544307	0.01977939
4.6e+08	-0.01386106	0.01810566	4.925952e-05	0.0001273211	0.001113576	-0.0009848629	-0.0003244561	0.0004774626
	4.925952e-05	0.0001273211	-0.01289908	0.0184266	7.277813e-06	5.244873e-06	0.001549643	-0.0007798975
	0.001113576	-0.0009848629	7.277813e-06	5.244873e-06	-0.01360438	0.01808542	2.994848e-05	-7.672297e-06
	-0.0003244561	0.0004774626	0.001549643	-0.0007798975	2.994848e-05	-7.672297e-06	-0.0128286	0.0185828
4.7e+08	-0.0113424	0.01670384	5.380468e-05	0.000124546	0.0007695057	2.866212e-05	-0.0002853408	0.0005037043
	5.380468e-05	0.000124546	-0.0104767	0.01692982	7.440105e-06	4.766852e-06	0.001163203	0.0001948659
	0.0007695057	2.866211e-05	7.440105e-06	4.766852e-06	-0.01109775	0.01664971	2.824807e-05	-8.722062e-06
