!$
! Info: Touchstone file created by Circ.  Input file=Tx_6in_Rx_100ohms_TxVia_10mils_RxVia_20mils.circ
!$
# Hz S RI R 50
0	0.006326353	4.231892e-26	-3.258065e-05	1.880343e-25	4.387742e-05	6.54508e-24	-3.258597e-05	4.757845e-25
	-3.258066e-05	1.88264e-25	0.00632571	6.035488e-26	-3.258107e-05	4.563105e-26	4.348519e-05	8.959574e-24
	4.198793e-05	6.452878e-24	-3.258107e-05	4.588068e-26	0.006340424	4.40413e-26	-3.258006e-05	3.869347e-25
	-3.258595e-05	4.744306e-25	4.494226e-05	9.22155e-24	-3.258004e-05	3.85323e-25	0.006331324	5.758854e-26
1e+07	0.008534778	0.004455751	-5.137393e-05	-2.361249e-05	0.000136657	0.001141114	-0.0001413714	7.601649e-05
	-5.137392e-05	-2.36125e-05	0.009156166	0.004326354	-1.862595e-05	-8.387753e-06	0.0003491323	0.001179715
	0.0001366181	0.001141139	-1.862595e-05	-8.387754e-06	0.008894554	0.00430045	-5.383729e-06	-8.166694e-06
	-0.0001413714	7.601649e-05	0.0003491648	0.001179704	-5.383731e-06	-8.166691e-06	0.009078707	0.004334161
2e+07	0.01133295	0.006987125	-2.760521e-05	-4.865108e-05	0.0003462839	0.002287091	-0.0001668785	6.598878e-05
	-2.760521e-05	-4.865108e-05	0.01168417	0.006555182	-1.469129e-05	-9.35279e-06	0.0004730371	0.002439506
	0.0003462909	0.002287109	-1.469129e-05	-9.35279e-06	0.01146284	0.006612594	-5.53762e-06	6.746453e-07
	-0.0001668785	6.598878e-05	0.0004730345	0.002439484	-5.53762e-06	6.746479e-07	0.011631	0.006602624
3e+07	0.01374283	0.00833799	-1.363039e-05	-5.682143e-05	0.0006927187	0.003374382	-0.0001866969	6.675997e-05
	-1.363039e-05	-5.682143e-05	0.01387795	0.007829576	-1.193739e-05	-9.984872e-06	0.0007530839	0.003567125
	0.0006927162	0.003374383	-1.193739e-05	-9.984872e-06	0.01369444	0.007915328	-6.574376e-06	-2.448092e-07
	-0.0001866969	6.675997e-05	0.0007530788	0.003567122	-6.574376e-06	-2.448088e-07	0.01384693	0.007893493
4e+07	0.01597717	0.00914867	-3.594449e-05	-5.192742e-05	0.001167879	0.00440166	-0.0002042983	6.869464e-05
	-3.594449e-05	-5.192742e-05	0.01592628	0.008632822	-9.722747e-06	-1.027226e-05	0.001187409	0.004616009
	0.001167875	0.004401663	-9.722747e-06	-1.027226e-05	0.01578133	0.008732221	-8.064995e-06	-1.780126e-06
	-0.0002042983	6.869464e-05	0.001187409	0.00461601	-8.064996e-06	-1.780126e-06	0.01591659	0.008704186
5e+07	0.01809525	0.009565086	-5.45122e-05	-4.206564e-05	0.001762313	0.005356215	-0.0002208636	7.124965e-05
	-5.45122e-05	-4.206564e-05	0.01788197	0.009084039	-7.810503e-06	-1.038287e-05	0.00184677	0.005551263
	0.001762312	0.005356217	-7.810503e-06	-1.038287e-05	0.01777688	0.009187923	-9.784422e-06	-2.772035e-06
	-0.0002208636	7.124965e-05	0.00184677	0.005551263	-9.784422e-06	-2.772035e-06	0.01789162	0.009157716
6e+07	0.02011406	0.009655729	-6.963781e-05	-2.844417e-05	0.002465377	0.006225312	-0.0002369946	7.43354e-05
	-6.963781e-05	-2.844417e-05	0.01976035	0.009241351	-6.064819e-06	-1.037765e-05	0.002599205	0.006390208
	0.002465378	0.00622531	-6.06482e-06	-1.037765e-05	0.01969586	0.009341547	-1.169077e-05	-3.309515e-06
	-0.0002369946	7.43354e-05	0.002599202	0.006390209	-1.169077e-05	-3.309515e-06	0.01978805	0.009313848
7e+07	0.02203392	0.009461787	-8.13228e-05	-1.171957e-05	0.003274117	0.006993007	-0.0002531164	7.781793e-05
	-8.13228e-05	-1.171957e-05	0.02156183	0.009140109	-5.476302e-06	-9.773008e-06	0.003433856	0.007124372
	0.003274117	0.006993002	-5.476302e-06	-9.773008e-06	0.02153797	0.009229013	-1.372001e-05	-3.408419e-06
	-0.0002531164	7.781793e-05	0.003433851	0.007124374	-1.372001e-05	-3.40842e-06	0.02160645	0.009207987
8e+07	0.02384733	0.009012539	-8.936744e-05	7.76237e-06	0.004167416	0.00765145	-0.0002697028	8.136796e-05
	-8.936744e-05	7.762371e-06	0.02328025	0.008806202	-7.31175e-06	-7.583031e-06	0.004338086	0.007745491
	0.004167415	0.007651444	-7.31175e-06	-7.583031e-06	0.02329631	0.008876566	-1.580932e-05	-3.076414e-06
	-0.0002697028	8.136796e-05	0.004338081	0.007745495	-1.580932e-05	-3.076415e-06	0.02334003	0.008865995
9e+07	0.02554254	0.008331084	-9.328031e-05	3.002558e-05	0.005129139	0.008193436	-0.0002876133	8.415375e-05
	-9.328031e-05	3.002558e-05	0.02490712	0.0082621	-8.56143e-06	-4.98934e-06	0.005297541	0.008245865
	0.005129138	0.008193432	-8.56143e-06	-4.98934e-06	0.02496148	0.008306789	-1.792076e-05	-2.3459e-06
	-0.0002876133	8.415375e-05	0.005297538	0.008245868	-1.792076e-05	-2.345901e-06	0.0249794	0.008310634
1e+08	0.02710214	0.007433168	-9.071548e-05	5.733652e-05	0.006146826	0.008615101	-0.0003105758	8.156164e-05
	-9.071548e-05	5.733652e-05	0.02644028	0.007537593	-8.882277e-06	-1.688745e-06	0.006293602	0.008615161
	0.006146826	0.008615101	-8.882277e-06	-1.688745e-06	0.02652962	0.007548518	-2.009746e-05	-1.316457e-06
	-0.0003105758	8.156164e-05	0.006293602	0.008615161	-2.009746e-05	-1.316457e-06	0.02652098	0.007571319
1.1e+08	0.02850045	0.006359714	-7.703468e-05	7.333817e-05	0.007212323	0.008895322	-0.0003166211	6.906185e-05
	-7.703468e-05	7.333817e-05	0.02789693	0.006582648	-7.418072e-06	3.033869e-07	0.007298115	0.008874487
	0.007212322	0.008895322	-7.418072e-06	3.033869e-07	0.02801525	0.006556839	-2.175787e-05	-2.297455e-07
	-0.0003166211	6.906185e-05	0.007298115	0.008874487	-2.175787e-05	-2.297454e-07	0.02798063	0.006604747
1.2e+08	0.02975415	0.005136415	-7.763706e-05	7.071996e-05	0.00829074	0.009035385	-0.0003182659	6.572469e-05
	-7.763706e-05	7.071996e-05	0.02919331	0.005442738	-6.385867e-06	1.62138e-06	0.00832506	0.00901632
	0.00829074	0.009035385	-6.385867e-06	1.62138e-06	0.02933834	0.005377465	-2.304827e-05	1.383986e-06
	-0.0003182659	6.572469e-05	0.00832506	0.00901632	-2.304827e-05	1.383986e-06	0.02928006	0.005454628
1.3e+08	0.0308495	0.003775066	-7.728346e-05	7.009658e-05	0.009367814	0.009038709	-0.0003185603	6.589528e-05
	-7.728346e-05	7.009658e-05	0.03032794	0.004151552	-5.44254e-06	2.60544e-06	0.009355368	0.009033408
	0.009367814	0.009038709	-5.44254e-06	2.60544e-06	0.03049625	0.004043305	-2.401348e-05	3.359301e-06
	-0.0003185603	6.589528e-05	0.009355368	0.009033408	-2.401348e-05	3.359301e-06	0.03041693	0.004153457
1.4e+08	0.03177657	0.002293371	-7.625468e-05	7.067358e-05	0.01042749	0.008907632	-0.0003179756	6.818344e-05
	-7.625468e-05	7.067358e-05	0.03129321	0.002731709	-4.545205e-06	3.366037e-06	0.01037271	0.008925298
	0.01042749	0.008907633	-4.545205e-06	3.366037e-06	0.0314809	0.002577272	-2.462059e-05	5.60863e-06
	-0.0003179756	6.818344e-05	0.01037271	0.008925298	-2.462059e-05	5.60863e-06	0.03138351	0.002723742
1.5e+08	0.03252677	0.000710364	-7.464348e-05	7.204164e-05	0.01145379	0.008646005	-0.000316693	7.184968e-05
	-7.464348e-05	7.204164e-05	0.03208163	0.001204547	-3.678311e-06	3.956067e-06	0.01136136	0.008694201
	0.01145379	0.008646005	-3.678311e-06	3.956067e-06	0.03228442	0.001001117	-2.483719e-05	8.051403e-06
	-0.000316693	7.184968e-05	0.01136136	0.008694201	-2.483719e-05	8.051403e-06	0.03217224	0.00118685
1.6e+08	0.033093	-0.0009540714	-7.248904e-05	7.393193e-05	0.01243119	0.008259426	-0.0003148183	7.641172e-05
	-7.248904e-05	7.393193e-05	0.03268672	-0.000408784	-2.835529e-06	4.406501e-06	0.01230622	0.008344479
	0.01243119	0.008259426	-2.835529e-06	4.406501e-06	0.03289996	-0.0006635497	-2.463984e-05	1.060718e-05
	-0.0003148183	7.641172e-05	0.01230622	0.008344479	-2.463984e-05	1.060718e-05	0.03277667	-0.000436017
1.7e+08	0.0334698	-0.002679416	-6.981539e-05	7.614368e-05	0.01334489	0.007755263	-0.0003124415	8.152329e-05
	-6.981539e-05	7.614368e-05	0.03310346	-0.002087041	-2.014708e-06	4.737556e-06	0.01319295	0.007882419
	0.01334489	0.007755263	-2.014709e-06	4.737556e-06	0.0333222	-0.002394959	-2.401694e-05	1.319503e-05
	-0.0003124415	8.152329e-05	0.01319295	0.007882419	-2.401694e-05	1.319503e-05	0.03319179	-0.002123545
1.8e+08	0.03365355	-0.004444681	-6.664525e-05	7.851553e-05	0.01418111	0.00714258	-0.0003096555	8.692521e-05
	-6.664525e-05	7.851553e-05	0.03332853	-0.003808855	-1.215758e-06	4.96353e-06	0.01400813	0.00731607
	0.01418111	0.00714258	-1.215758e-06	4.96353e-06	0.03354753	-0.004171151	-2.296993e-05	1.573464e-05
	-0.0003096555	8.692521e-05	0.01400813	0.00731607	-2.296993e-05	1.573464e-05	0.03341433	-0.003854281
1.9e+08	0.03364258	-0.00622862	-6.300526e-05	8.091608e-05	0.01492725	0.006432025	-0.0003065632	9.242231e-05
	-6.300526e-05	8.091608e-05	0.03336054	-0.005552811	-8.359378e-07	4.921927e-06	0.01473953	0.006655083
	0.01492725	0.006432025	-8.359378e-07	4.921927e-06	0.0335743	-0.005970057	-2.151213e-05	1.815221e-05
	-0.0003065632	9.242231e-05	0.01473953	0.006655083	-2.151213e-05	1.815221e-05	0.03344289	-0.005606731
2e+08	0.03343732	-0.008009943	-5.893095e-05	8.322786e-05	0.01557209	0.005635686	-0.0003032775	9.78716e-05
	-5.893095e-05	8.322786e-05	0.03320003	-0.007297623	-7.538628e-07	4.747943e-06	0.01537618	0.005910548
	0.01557209	0.005635686	-7.538628e-07	4.747943e-06	0.03340291	-0.007769677	-1.967078e-05	2.037279e-05
	-0.0003032775	9.78716e-05	0.01537618	0.005910548	-1.967078e-05	2.037279e-05	0.0332781	-0.007359512
2.1e+08	0.03304027	-0.009767543	-5.446871e-05	8.534822e-05	0.01610599	0.004766908	-0.0002999198	0.0001031761
	-5.446871e-05	8.534822e-05	0.03284961	-0.009022298	-6.662535e-07	4.591261e-06	0.01590859	0.005094813
	0.01610599	0.004766908	-6.662535e-07	4.591261e-06	0.03303589	-0.009548256	-1.748697e-05	2.232631e-05
	-0.0002999198	0.0001031761	0.01590859	0.005094813	-1.748697e-05	2.232631e-05	0.0329226	-0.009091548
2.2e+08	0.03245609	-0.01148072	-4.967294e-05	8.719315e-05	0.01652103	0.003840103	-0.000296616	0.0001082807
	-4.967294e-05	8.719315e-05	0.03231393	-0.01070634	-5.749571e-07	4.447385e-06	0.01632888	0.004221294
	0.01652103	0.003840103	-5.749571e-07	4.447385e-06	0.03247794	-0.0112845	-1.501194e-05	2.395448e-05
	-0.000296616	0.0001082807	0.01632888	0.004221294	-1.501194e-05	2.395448e-05	0.03238111	-0.01078225
2.3e+08	0.03169154	-0.01312943	-4.460587e-05	8.869365e-05	0.01681109	0.00287053	-0.0002934912	0.0001131685
	-4.460587e-05	8.869365e-05	0.03159967	-0.01232995	-4.816405e-07	4.312864e-06	0.01663086	0.003304265
	0.01681109	0.00287053	-4.816405e-07	4.312864e-06	0.03173587	-0.0129578	-1.230635e-05	2.52093e-05
	-0.0002934912	0.0001131685	0.01663086	0.003304266	-1.230635e-05	2.52093e-05	0.0316604	-0.01241174
2.4e+08	0.03075542	-0.01469449	-3.933679e-05	8.979582e-05	0.01697201	0.001874072	-0.0002906662	0.0001178593
	-3.933679e-05	8.979582e-05	0.03071544	-0.01387426	-3.880318e-07	4.185073e-06	0.01681017	0.002358645
	0.01697201	0.001874072	-3.880318e-07	4.185073e-06	0.03081858	-0.01454848	-9.438324e-06	2.605463e-05
	-0.0002906662	0.0001178593	0.01681017	0.002358645	-9.438324e-06	2.605463e-05	0.03076917	-0.01396105
2.5e+08	0.02965846	-0.01615781	-3.393958e-05	9.04609e-05	0.01700157	0.0008669919	-0.0002882513	0.0001224057
	-3.393958e-05	9.04609e-05	0.02967175	-0.01532146	-2.9567e-07	4.062105e-06	0.0168643	0.001399769
	0.01700157	0.0008669919	-2.9567e-07	4.062105e-06	0.02973698	-0.01603796	-6.481213e-06	2.64672e-05
	-0.0002882513	0.0001224057	0.0168643	0.001399769	-6.481213e-06	2.64672e-05	0.02971804	-0.01541233
2.6e+08	0.02841327	-0.01750262	-2.849108e-05	9.066535e-05	0.01689961	-0.000134312	-0.0002863419	0.00012689
	-2.849108e-05	9.066535e-05	0.02848087	-0.01665509	-2.060487e-07	3.942655e-06	0.01679264	0.0004431549
	0.01689961	-0.000134312	-2.060487e-07	3.942655e-06	0.02850381	-0.01740904	-3.511266e-06	2.643736e-05
	-0.0002863419	0.00012689	0.01679264	0.0004431549	-3.511266e-06	2.643736e-05	0.02851938	-0.01674904
2.7e+08	0.02703413	-0.01871364	-2.306857e-05	9.040055e-05	0.01666797	-0.001113552	-0.0002850139	0.0001314196
	-2.306857e-05	9.040055e-05	0.02715665	-0.01786014	-1.205016e-07	3.82593e-06	0.01659651	-0.0004957249
	0.01666797	-0.001113552	-1.205016e-07	3.82593e-06	0.02713357	-0.01864604	-6.051353e-07	2.596933e-05
	-0.0002850139	0.0001314196	0.01659651	-0.0004957249	-6.051353e-07	2.596933e-05	0.02718719	-0.01795615
2.8e+08	0.02553685	-0.01977726	-1.774796e-05	8.967258e-05	0.01631049	-0.0020548	-0.0002843196	0.0001361244
	-1.774796e-05	8.967258e-05	0.02571444	-0.01892324	-4.026661e-08	3.711602e-06	0.0162791	-0.001401682
	0.01631049	-0.0020548	-4.026661e-08	3.711602e-06	0.02564232	-0.01973501	2.162598e-06	2.508108e-05
	-0.0002843196	0.0001361244	0.0162791	-0.001401682	2.162598e-06	2.508108e-05	0.02573694	-0.01902025
2.9e+08	0.02393856	-0.0206817	-1.260126e-05	8.850125e-05	0.01583293	-0.00294273	-0.0002842845	0.0001411504
	-1.260126e-05	8.850125e-05	0.02417084	-0.01983281	3.360351e-08	3.599733e-06	0.01584543	-0.00226004
	0.01583293	-0.00294273	3.360351e-08	3.599733e-06	0.02404747	-0.02066387	4.721857e-06	2.380366e-05
	-0.0002842845	0.0001411504	0.01584543	-0.00226004	4.721857e-06	2.380366e-05	0.02418537	-0.01992974
3e+08	0.02225756	-0.02141717	-7.69443e-06	8.691896e-05	0.01524292	-0.00376285	-0.0002849045	0.0001466541
	-7.69443e-06	8.691896e-05	0.02254353	-0.02057916	1.002844e-07	3.490711e-06	0.01530232	-0.003056854
	0.01524292	-0.00376285	1.002844e-07	3.490711e-06	0.02236759	-0.02142256	7.009323e-06	2.218016e-05
	-0.0002849045	0.0001466541	0.01530232	-0.003056854	7.009324e-06	2.218016e-05	0.0225503	-0.02067498
3.1e+08	0.02051305	-0.02197593	-3.085688e-06	8.496953e-05	0.0145498	-0.004501725	-0.0002861444	0.000152799
	-3.085688e-06	8.496953e-05	0.02085108	-0.02115463	1.591637e-07	3.385219e-06	0.0146582	-0.003779124
	0.0145498	-0.004501725	1.591637e-07	3.385219e-06	0.02062217	-0.02200315	8.970531e-06	2.026439e-05
	-0.0002861444	0.000152799	0.0146582	-0.003779124	8.970531e-06	2.026439e-05	0.02085044	-0.02124829
3.2e+08	0.01872491	-0.02235244	1.176408e-06	8.270623e-05	0.0137645	-0.005147179	-0.0002879366	0.0001597474
	1.176408e-06	8.270623e-05	0.01911269	-0.02155364	2.099089e-07	3.284149e-06	0.01392308	-0.004414988
	0.0137645	-0.005147179	2.099089e-07	3.284149e-06	0.01883143	-0.02239991	1.056161e-05	1.8119e-05
	-0.0002879366	0.0001597474	0.01392308	-0.004414988	1.056161e-05	1.8119e-05	0.01910512	-0.02164417
3.3e+08	0.01691348	-0.02254339	5.054316e-06	8.018977e-05	0.0128994	-0.005688488	-0.000290182	0.0001676547
	5.054316e-06	8.018977e-05	0.017348	-0.02177275	2.524884e-07	3.188537e-06	0.01310832	-0.004953906
	0.0128994	-0.005688488	2.524884e-07	3.188537e-06	0.017016	-0.02260943	1.175066e-05	1.581333e-05
	-0.000290182	0.0001676547	0.01310832	-0.004953906	1.175066e-05	1.581333e-05	0.01733411	-0.02185923
3.4e+08	0.01509927	-0.02254772	8.522439e-06	7.748648e-05	0.01196807	-0.006116539	-0.0002927505	0.0001766659
	8.522439e-06	7.748648e-05	0.01557683	-0.02181071	2.871617e-07	3.099525e-06	0.0122265	-0.005386817
	0.01196807	-0.006116539	2.871617e-07	3.099525e-06	0.01519672	-0.02263058	1.251889e-05	1.342139e-05
	-0.0002927505	0.0001766659	0.0122265	-0.005386817	1.251889e-05	1.342139e-05	0.01555736	-0.0218923
3.5e+08	0.01330276	-0.02236665	1.156788e-05	7.466563e-05	0.01098513	-0.006423972	-0.0002954832	0.0001869075
	1.156788e-05	7.466563e-05	0.01381895	-0.02166842	3.145108e-07	3.018281e-06	0.0112912	-0.005706275
	0.01098513	-0.006423972	3.145108e-07	3.018281e-06	0.01339438	-0.02246456	1.286052e-05	1.101818e-05
	-0.0002954832	0.0001869075	0.0112912	-0.005706275	1.286052e-05	1.101818e-05	0.01379473	-0.02174439
3.6e+08	0.01154412	-0.02200368	1.41906e-05	7.179736e-05	0.009965989	-0.006605296	-0.0002981963	0.0001984805
	1.41906e-05	7.179736e-05	0.01209385	-0.02134898	3.343385e-07	2.941867e-06	0.01031684	-0.005906566
	0.009965989	-0.006605296	3.343385e-07	2.941867e-06	0.01162943	-0.02211486	1.29841e-05	8.980105e-06
	-0.0002981963	0.0001984805	0.01031684	-0.005906566	1.29841e-05	8.980105e-06	0.01206583	-0.0214187
3.7e+08	0.009842958	-0.02146448	1.640338e-05	6.895002e-05	0.008926624	-0.006656972	-0.0003006827	0.0002114659
	1.640338e-05	6.895002e-05	0.01042049	-0.02085756	3.48056e-07	2.874869e-06	0.009318401	-0.00598379
	0.008926624	-0.006656972	3.48056e-07	2.874869e-06	0.009921776	-0.02158722	1.278684e-05	7.108556e-06
	-0.0003006827	0.0002114659	0.009318401	-0.00598379	1.278684e-05	7.108556e-06	0.01038969	-0.02092053
3.8e+08	0.008218092	-0.02075687	1.82311e-05	6.618803e-05	0.007883325	-0.006577468	-0.0003027178	0.000225911
	1.82311e-05	6.618803e-05	0.008817111	-0.02020139	3.573545e-07	2.819011e-06	0.008311255	-0.005935926
	0.007883325	-0.006577468	3.573545e-07	2.819011e-06	0.00829049	-0.02088954	1.226417e-05	5.4061e-06
	-0.0003027178	0.000225911	0.008311255	-0.005935926	1.226417e-05	5.4061e-06	0.008784614	-0.02025725
3.9e+08	0.006687323	-0.01989071	1.970977e-05	6.356978e-05	0.00685245	-0.006367287	-0.0003040641	0.0002418284
	1.970977e-05	6.356978e-05	0.007300961	-0.01938965	3.640034e-07	2.774937e-06	0.007310889	-0.005762857
	0.00685245	-0.006367287	3.640034e-07	2.774937e-06	0.006753604	-0.02003179	1.145917e-05	3.930102e-06
	-0.0003040641	0.0002418284	0.007310889	-0.005762857	1.145917e-05	3.930102e-06	0.007267905	-0.01943816
4e+08	0.005267201	-0.01887773	2.088522e-05	6.114559e-05	0.005850169	-0.006028953	-0.0003044782	0.0002591941
	2.088522e-05	6.114559e-05	0.005888137	-0.01843331	3.699535e-07	2.742982e-06	0.006332685	-0.005466376
	0.005850169	-0.006028953	3.699535e-07	2.742982e-06	0.005327887	-0.01902587	1.042465e-05	2.728571e-06
	-0.0003044782	0.0002591941	0.006332685	-0.005466376	1.042465e-05	2.728571e-06	0.005855686	-0.01847441
4.1e+08	0.003972831	-0.01773143	2.181141e-05	5.895622e-05	0.004892217	-0.00556698	-0.0003037153	0.0002779468
	2.181141e-05	5.895622e-05	0.004593369	-0.01734504	3.77271e-07	2.723139e-06	0.005391687	-0.005050153
	0.004892217	-0.00556698	3.77271e-07	2.723139e-06	0.004028623	-0.01788542	9.22142e-06	1.838648e-06
	-0.0003037153	0.0002779468	0.005391687	-0.005050153	9.22142e-06	1.838648e-06	0.004562699	-0.0173788
4.2e+08	0.002817681	-0.01646687	2.254848e-05	5.703149e-05	0.003993648	-0.004987799	-0.0003015347	0.0002979883
	2.254848e-05	5.703149e-05	0.003429851	-0.01613901	3.880655e-07	2.715034e-06	0.004502371	-0.004519685
	0.003993648	-0.004987799	3.880655e-07	2.715034e-06	0.002869428	-0.01662571	7.916077e-06	1.28532e-06
	-0.0003015347	0.0002979883	0.004502371	-0.004519685	7.916077e-06	1.28532e-06	0.003402126	-0.01616566
4.3e+08	0.001813426	-0.01510051	2.31607e-05	5.538933e-05	0.003168605	-0.004299662	-0.0002977071	0.0003191829
	2.31607e-05	5.538933e-05	0.002409086	-0.01483073	4.044179e-07	2.717908e-06	0.003678422	-0.003882208
	0.003168605	-0.004299662	4.044179e-07	2.717908e-06	0.0018621	-0.01526338	6.57867e-06	1.080533e-06
	-0.0002977071	0.0003191829	0.003678422	-0.003882208	6.57867e-06	1.080533e-06	0.002385445	-0.01485064
4.4e+08	0.0009697961	-0.01364994	2.371409e-05	5.403524e-05	0.002430102	-0.003512511	-0.0002920204	0.0003413596
	2.371409e-05	5.403524e-05	0.001540753	-0.01343682	4.282974e-07	2.73062e-06	0.002932528	-0.003146585
	0.002430102	-0.003512511	4.282974e-07	2.73062e-06	0.001016453	-0.01381624	5.280262e-06	1.222811e-06
	-0.0002920204	0.0003413596	0.002932528	-0.003146585	5.280262e-06	1.222811e-06	0.001522284	-0.01345054
4.5e+08	0.0002944697	-0.01213371	2.427422e-05	5.296224e-05	0.001789818	-0.002637827	-0.0002842873	0.0003643133
	2.427422e-05	5.296224e-05	0.0008325934	-0.01197484	4.614878e-07	2.751672e-06	0.002276186	-0.002323173
	0.001789818	-0.002637827	4.614878e-07	2.751672e-06	0.0003402154	-0.01230306	4.090443e-06	1.697301e-06
	-0.0002842873	0.0003643133	0.002276186	-0.002323173	4.090443e-06	1.697301e-06	0.0008203188	-0.01198303
4.6e+08	-0.0002070253	-0.01057107	2.490451e-05	5.215161e-05	0.001257923	-0.001688456	-0.000274416	0.000387783
	2.490451e-05	5.215161e-05	0.0002903297	-0.01046302	5.055087e-07	2.779238e-06	0.001719528	-0.001423663
	0.001257923	-0.001688456	5.055087e-07	2.779238e-06	-0.0001610641	-0.01074329	3.075534e-06	2.476649e-06
	-0.000274416	0.000387783	0.001719528	-0.001423663	3.075534e-06	2.476649e-06	0.0002851847	-0.01046649
4.7e+08	-0.0005313422	-0.008981699	2.557782e-05	5.151992e-05	0.0008429129	-0.0006784058	-0.0002527465	0.0004148262
	2.557782e-05	5.151992e-05	-8.239914e-05	-0.008920077	5.63024e-07	2.812211e-06	0.00127117	-0.0004609013
	0.0008429129	-0.0006784058	5.63024e-07	2.812211e-06	-0.0004840784	-0.009156848	2.208029e-06	3.473226e-06
	-0.0002527465	0.0004148262	0.00127117	-0.0004609013	2.208029e-06	3.473226e-06	-7.955574e-05	-0.008919726
