!$
! Info: Touchstone file created by Circ.  Input file=Tx_6in_Rx_93ohms_TxVia_10mils_RxVia_20mils.circ
!$
# Hz S RI R 50
0	0.005599786	5.257335e-26	1.776808e-12	1.425772e-28	4.605335e-05	6.999406e-24	-4.737642e-09	5.801073e-25
	1.778423e-12	1.427652e-28	0.005602646	6.034483e-26	-2.411138e-12	2.754434e-28	4.348249e-05	7.925597e-24
	4.610148e-05	7.003496e-24	-2.46025e-12	2.814336e-28	0.005614709	5.272413e-26	-1.298684e-09	1.58991e-25
	-4.735494e-09	5.798441e-25	4.493983e-05	8.157341e-24	-1.29873e-09	1.589966e-25	0.005608268	5.757861e-26
1e+07	0.007734258	-0.0001796969	7.122678e-13	-2.846579e-12	0.0001521537	0.001076589	-9.058234e-09	1.639383e-08
	7.123313e-13	-2.846851e-12	0.008188994	-0.0002400475	-4.120814e-13	-4.15174e-12	0.0001556176	0.001166927
	0.0001521582	0.001076586	-4.121111e-13	-4.151486e-12	0.008317936	0.00011707	-6.572158e-09	1.588647e-08
	-9.058234e-09	1.639383e-08	0.00015565	0.001166915	-6.572158e-09	1.588647e-08	0.008037146	-0.0002502933
2e+07	0.009434535	-0.002183232	2.121978e-12	-4.117962e-12	0.0003940001	0.002175917	-6.746031e-09	1.371434e-08
	2.12182e-12	-4.118123e-12	0.009727852	-0.002448374	2.151938e-12	-5.565991e-12	0.0003308657	0.002340433
	0.0003939992	0.002175914	2.152063e-12	-5.565809e-12	0.01020083	-0.001915263	-8.018666e-09	1.235177e-08
	-6.746031e-09	1.371434e-08	0.0003308628	0.002340412	-8.018666e-09	1.235177e-08	0.009610557	-0.002409636
3e+07	0.01028713	-0.005048181	1.187941e-12	-6.553388e-12	0.0007631245	0.003233543	-4.430785e-09	1.227972e-08
	1.187902e-12	-6.553374e-12	0.01044413	-0.005375117	-7.300539e-13	-9.054219e-12	0.0006848445	0.003430103
	0.0007631245	0.003233542	-7.300129e-13	-9.054234e-12	0.01118974	-0.00484215	-4.612527e-09	1.280598e-08
	-4.430785e-09	1.227972e-08	0.0006848395	0.003430101	-4.612527e-09	1.280598e-08	0.0103535	-0.005326872
4e+07	0.01050485	-0.008191189	-1.426703e-13	-8.771816e-12	0.001256006	0.004235289	-2.680739e-09	1.134652e-08
	-1.426357e-13	-8.771811e-12	0.01053701	-0.008536463	-2.522709e-12	-1.137074e-11	0.001193947	0.004445713
	0.001256007	0.004235289	-2.522747e-12	-1.137074e-11	0.01151251	-0.008074932	-2.103983e-09	1.239817e-08
	-2.680739e-09	1.134652e-08	0.001193947	0.004445715	-2.103983e-09	1.239817e-08	0.01046807	-0.008490896
5e+07	0.01016982	-0.01143335	-1.512293e-12	-1.154455e-11	0.001864872	0.0051658	-1.331255e-09	1.100774e-08
	-1.512275e-12	-1.154456e-11	0.01008546	-0.01176859	-3.97665e-12	-1.432741e-11	0.001813225	0.005382899
	0.001864873	0.005165799	-3.976671e-12	-1.43274e-11	0.01125612	-0.01142716	-8.31976e-10	1.244213e-08
	-1.331255e-09	1.100774e-08	0.001813225	0.005382899	-8.31976e-10	1.244213e-08	0.01003265	-0.01173173
6e+07	0.00933192	-0.01466477	-4.402536e-12	-1.768342e-11	0.002579811	0.006011237	8.534724e-11	1.173293e-08
	-4.402547e-12	-1.768339e-11	0.009138845	-0.01496729	-3.121882e-12	-2.099057e-11	0.002533088	0.006230655
	0.002579812	0.006011237	-3.121863e-12	-2.09906e-11	0.01047219	-0.01478399	-1.721544e-09	1.403131e-08
	8.534728e-11	1.173293e-08	0.002533085	0.006230656	-1.721544e-09	1.403131e-08	0.009097745	-0.0149425
7e+07	0.008031594	-0.017803	-2.214555e-11	-3.629398e-11	0.00338929	0.006759372	3.91673e-09	1.596702e-08
	-2.214556e-11	-3.629385e-11	0.007738332	-0.01805291	2.658969e-11	-4.215995e-12	0.003342119	0.006978303
	0.003389291	0.006759372	2.65898e-11	-4.216054e-12	0.00920163	-0.01805964	-1.17827e-08	1.235592e-08
	3.916731e-09	1.596702e-08	0.003342114	0.006978305	-1.17827e-08	1.235592e-08	0.007704988	-0.01804286
8e+07	0.006307546	-0.02078063	-4.490557e-10	4.163587e-10	0.004280485	0.00739986	2.870382e-08	-2.068625e-08
	-4.490554e-10	4.163586e-10	0.005924121	-0.02095938	-3.542748e-11	-8.652146e-13	0.004227374	0.007616238
	0.004280486	0.00739986	-3.542742e-11	-8.652043e-13	0.007482572	-0.0211847	-6.770642e-09	-5.395824e-10
	2.870382e-08	-2.068625e-08	0.00422737	0.007616242	-6.770641e-09	-5.395826e-10	0.00589422	-0.02096636
9e+07	0.004199916	-0.02354012	-3.059241e-11	-8.155867e-11	0.005239885	0.00792491	3.810777e-10	-3.476514e-09
	-3.059235e-11	-8.155872e-11	0.003738943	-0.02362907	-2.395598e-11	-2.069378e-11	0.005174645	0.008136326
	0.005239886	0.00792491	-2.395599e-11	-2.069378e-11	0.005352835	-0.024102	-1.635332e-09	-4.955513e-10
	3.810778e-10	-3.476514e-09	0.005174642	0.00813633	-1.635332e-09	-4.955513e-10	0.003707509	-0.02365482
1e+08	0.00175409	-0.02602845	-2.293461e-11	-1.666563e-11	0.006257059	0.008334615	-1.405481e-11	-1.407116e-12
	-2.293461e-11	-1.666563e-11	0.001237111	-0.02600059	-2.119455e-11	-2.395886e-11	0.006168734	0.008531926
	0.006257059	0.008334615	-2.119455e-11	-2.395886e-11	0.00284385	-0.02677402	-2.671957e-11	-1.339457e-11
	-1.405481e-11	-1.407116e-12	0.006168734	0.008531926	-2.671957e-11	-1.339457e-11	0.001197509	-0.02604782
1.1e+08	-0.0009717813	-0.02823703	-2.593763e-11	-1.334071e-11	0.00728201	0.008629783	-1.557793e-11	7.084042e-13
	-2.593763e-11	-1.334071e-11	-0.001497835	-0.02811389	-2.376272e-11	-2.306461e-11	0.007192217	0.008799018
	0.00728201	0.008629783	-2.376272e-11	-2.306461e-11	-3.119466e-05	-0.02910103	-3.007184e-11	-9.404295e-12
	-1.557793e-11	7.084042e-13	0.007192217	0.008799018	-3.007184e-11	-9.404295e-12	-0.001555468	-0.0281744
1.2e+08	-0.003963565	-0.03011277	-2.797051e-11	-1.126528e-11	0.008318354	0.008778551	-1.679524e-11	2.893627e-12
	-2.797051e-11	-1.126528e-11	-0.004504803	-0.02990743	-2.57655e-11	-2.247763e-11	0.008230582	0.008936458
	0.008318354	0.008778551	-2.57655e-11	-2.247763e-11	-0.003155316	-0.03104873	-3.246059e-11	-6.516283e-12
	-1.679524e-11	2.893627e-12	0.008230582	0.008936457	-3.246059e-11	-6.516283e-12	-0.004579827	-0.02997542
1.3e+08	-0.007167388	-0.03162226	-2.94005e-11	-1.031474e-11	0.009353664	0.008788927	-1.777595e-11	4.597555e-12
	-2.94005e-11	-1.031474e-11	-0.007722721	-0.03133587	-2.712613e-11	-2.238213e-11	0.009267521	0.008943432
	0.009353664	0.008788927	-2.712613e-11	-2.238213e-11	-0.006485523	-0.03260646	-3.427466e-11	-4.478395e-12
	-1.777595e-11	4.597555e-12	0.009267521	0.008943432	-3.427466e-11	-4.478395e-12	-0.007815462	-0.03140778
1.4e+08	-0.01053102	-0.03274355	-3.06706e-11	-9.008993e-12	0.01037175	0.008664489	-1.861713e-11	6.499105e-12
	-3.06706e-11	-9.008993e-12	-0.01109729	-0.03237491	-2.832011e-11	-2.201264e-11	0.0102868	0.008821478
	0.01037175	0.008664489	-2.832011e-11	-2.201264e-11	-0.009970764	-0.03375766	-3.583939e-11	-1.98803e-12
	-1.861713e-11	6.499105e-12	0.0102868	0.008821478	-3.583939e-11	-1.98803e-12	-0.01120793	-0.03244756
1.5e+08	-0.01400202	-0.03346209	-3.172947e-11	-7.37342e-12	0.01135638	0.008409879	-1.927948e-11	8.62081e-12
	-3.172947e-11	-7.37342e-12	-0.0145747	-0.0330092	-2.932716e-11	-2.138251e-11	0.01127254	0.008574197
	0.01135638	0.008409879	-2.932716e-11	-2.138251e-11	-0.01355855	-0.03449067	-3.70553e-11	8.552323e-13
	-1.927948e-11	8.62081e-12	0.01127254	0.008574197	-3.70553e-11	8.552323e-13	-0.01470313	-0.03307961
1.6e+08	-0.01752804	-0.03377008	-3.252389e-11	-5.453839e-12	0.01229182	0.00803136	-1.972497e-11	1.092765e-11
	-3.252389e-11	-5.453839e-12	-0.01810149	-0.03323089	-3.010342e-11	-2.053265e-11	0.01220953	0.008207149
	0.01229182	0.00803136	-3.010342e-11	-2.053265e-11	-0.01719609	-0.03479971	-3.789424e-11	4.032917e-12
	-1.972497e-11	1.092765e-11	0.01220953	0.008207149	-3.789424e-11	4.032917e-12	-0.01824726	-0.03329623
1.7e+08	-0.02105723	-0.03366625	-3.300841e-11	-3.296154e-12	0.01316319	0.007536913	-1.992407e-11	1.338558e-11
	-3.300841e-11	-3.296154e-12	-0.02162487	-0.03303902	-3.061547e-11	-1.950586e-11	0.0130834	0.007727731
	0.01316319	0.007536913	-3.061547e-11	-1.950586e-11	-0.02083102	-0.03468511	-3.830173e-11	7.481394e-12
	-1.992407e-11	1.338558e-11	0.0130834	0.007727731	-3.830173e-11	7.481394e-12	-0.02178721	-0.03309663
1.8e+08	-0.02453884	-0.03315553	-3.314428e-11	-9.488276e-13	0.01395671	0.006936187	-1.985196e-11	1.595835e-11
	-3.314428e-11	-9.488276e-13	-0.02509334	-0.03243916	-3.083665e-11	-1.834716e-11	0.01388087	0.007145038
	0.01395671	0.006936187	-3.083665e-11	-1.834716e-11	-0.02441207	-0.03415319	-3.823256e-11	1.113329e-11
	-1.985196e-11	1.595835e-11	0.01388087	0.007145038	-3.823256e-11	1.113329e-11	-0.02527113	-0.03248658
1.9e+08	-0.02792377	-0.03224883	-3.289946e-11	1.536232e-12	0.01465991	0.006240431	-1.948873e-11	1.860733e-11
	-3.289946e-11	1.536232e-12	-0.02845716	-0.03144305	-3.074701e-11	-1.7104e-11	0.01458996	0.006469704
	0.01465991	0.006240431	-3.074701e-11	-1.7104e-11	-0.02788966	-0.0332161	-3.765101e-11	1.49169e-11
	-1.948873e-11	1.860733e-11	0.01458996	0.006469704	-3.765101e-11	1.49169e-11	-0.02864901	-0.03147802
2e+08	-0.03116588	-0.03096267	-3.224697e-11	4.103104e-12	0.01527354	0.005436313	-1.881874e-11	2.129072e-11
	-3.224697e-11	4.103104e-12	-0.03166902	-0.03006829	-3.033106e-11	-1.582632e-11	0.01520013	0.005713718
	0.01527354	0.005436313	-3.033106e-11	-1.582632e-11	-0.03121726	-0.03189156	-3.65304e-11	1.875595e-11
	-1.881874e-11	2.129072e-11	0.01520013	0.005713718	-3.65304e-11	1.875595e-11	-0.03187327	-0.0300888
2.1e+08	-0.03422042	-0.0293189	-3.117122e-11	6.693679e-12	0.01577368	0.004562604	-1.783381e-11	2.396684e-11
	-3.117122e-11	6.693679e-12	-0.03468458	-0.02833791	-2.958508e-11	-1.4565e-11	0.01570244	0.00489023
	0.01577368	0.004562604	-2.958508e-11	-1.4565e-11	-0.03434976	-0.0302025	-3.485617e-11	2.25719e-11
	-1.783381e-11	2.396684e-11	0.01570244	0.00489023	-3.485617e-11	2.25719e-11	-0.03489934	-0.0283422
2.2e+08	-0.03704658	-0.02734431	-2.966279e-11	9.247337e-12	0.01615235	0.00363594	-1.653005e-11	2.659185e-11
	-2.966279e-11	9.247337e-12	-0.03746303	-0.02627994	-2.851059e-11	-1.337154e-11	0.01608967	0.004013339
	0.01615235	0.00363594	-2.851059e-11	-1.337154e-11	-0.03724611	-0.02817679	-3.262388e-11	2.628387e-11
	-1.653005e-11	2.659185e-11	0.01608967	0.004013339	-3.262388e-11	2.628387e-11	-0.0376862	-0.02626656
2.3e+08	-0.03960737	-0.02507019	-2.772035e-11	1.170213e-11	0.01640431	0.002672096	-1.490948e-11	2.912151e-11
	-2.772035e-11	1.170213e-11	-0.03996756	-0.02392692	-2.711638e-11	-1.229713e-11	0.01635642	0.003097867
	0.01640431	0.002672096	-2.711638e-11	-1.229713e-11	-0.03986915	-0.02584676	-2.984017e-11	2.981018e-11
	-1.490948e-11	2.912151e-11	0.01635642	0.003097867	-2.984017e-11	2.981018e-11	-0.04019688	-0.02389471
2.4e+08	-0.04187011	-0.0225318	-2.535123e-11	1.399572e-11	0.01652631	0.001687304	-1.298004e-11	3.151167e-11
	-2.535123e-11	1.399572e-11	-0.04216584	-0.02131536	-2.541867e-11	-1.139171e-11	0.01649917	0.002159134
	0.01652631	0.001687304	-2.541867e-11	-1.139171e-11	-0.0421861	-0.02324864	-2.652321e-11	3.306977e-11
	-1.298004e-11	3.151167e-11	0.01649917	0.002159134	-2.652321e-11	3.306977e-11	-0.04239892	-0.02126348
2.5e+08	-0.04380674	-0.01976781	-2.257129e-11	1.606661e-11	0.01651713	0.0006980186	-1.075548e-11	3.371909e-11
	-2.257129e-11	1.606661e-11	-0.04403038	-0.01848518	-2.344088e-11	-1.070283e-11	0.0165163	0.001212723
	0.01651713	0.0006980186	-2.344088e-11	-1.070283e-11	-0.04416886	-0.02042207	-2.270248e-11	3.598379e-11
	-1.075548e-11	3.371909e-11	0.0165163	0.001212723	-2.270248e-11	3.598379e-11	-0.04426475	-0.01841311
2.6e+08	-0.04539418	-0.01681972	-1.940454e-11	1.784747e-11	0.01637759	-0.0002793374	-8.255442e-12	3.570209e-11
	-1.940454e-11	1.784747e-11	-0.04553889	-0.01547904	-2.122698e-11	-1.029451e-11	0.01640812	0.0002742478
	0.01637759	-0.0002793374	-2.122698e-11	-1.029451e-11	-0.04579442	-0.01740946	-1.841848e-11	3.847655e-11
	-8.255442e-12	3.570209e-11	0.01640812	0.0002742478	-1.841848e-11	3.847655e-11	-0.04577201	-0.01538661
2.7e+08	-0.04661456	-0.01373128	-1.588614e-11	1.928768e-11	0.01611051	-0.001228615	-5.50497e-12	3.742134e-11
	-1.588614e-11	1.928768e-11	-0.04667443	-0.01234176	-1.880728e-11	-1.018981e-11	0.01617684	-0.0006408813
	0.01611051	-0.001228615	-1.880728e-11	-1.018981e-11	-0.04704505	-0.01425544	-1.372273e-11	4.047854e-11
	-5.50497e-12	3.742134e-11	0.01617684	-0.0006408813	-1.372273e-11	4.047854e-11	-0.04690378	-0.01222913
2.8e+08	-0.04745546	-0.0105478	-1.20572e-11	2.033671e-11	0.01572067	-0.002134181	-2.534514e-12	3.884056e-11
	-1.20572e-11	2.033671e-11	-0.04742569	-0.009119624	-1.622288e-11	-1.041931e-11	0.01582653	-0.00151768
	0.01572067	-0.002134181	-1.622288e-11	-1.041931e-11	-0.04790851	-0.01100616	-8.676569e-12	4.192668e-11
	-2.534514e-12	3.884056e-11	0.01582653	-0.00151768	-8.676569e-12	4.192668e-11	-0.0476488	-0.008987288
2.9e+08	-0.04790996	-0.007315537	-7.965855e-12	2.094814e-11	0.01521471	-0.002981147	6.20527e-13	3.992719e-11
	-7.965855e-12	2.094814e-11	-0.04778703	-0.005859706	-1.352184e-11	-1.101074e-11	0.01536304	-0.002341809
	0.01521471	-0.002981147	-1.352184e-11	-1.101074e-11	-0.04837817	-0.007708684	-3.350412e-12	4.27659e-11
	6.20527e-13	3.992719e-11	0.01536304	-0.002341809	-3.350412e-12	4.27659e-11	-0.04800149	-0.005708485
3e+08	-0.04797674	-0.004081041	-3.666696e-12	2.108192e-11	0.01460105	-0.003755583	3.920274e-12	4.065299e-11
	-3.666696e-12	2.108192e-11	-0.04775852	-0.002609207	-1.075647e-11	-1.198494e-11	0.01479392	-0.003099778
	0.01460105	-0.003755583	-1.075647e-11	-1.198494e-11	-0.04845304	-0.004410297	2.177374e-12	4.295048e-11
	3.920274e-12	4.065299e-11	0.01479392	-0.003099778	2.177374e-12	4.295048e-11	-0.04796207	-0.002440229
3.1e+08	-0.04765999	-0.0008904845	7.800344e-13	2.070537e-11	0.01388972	-0.004444725	7.320885e-12	4.099478e-11
	7.800344e-13	2.070537e-11	-0.04734589	0.0005852393	-7.98239e-12	-1.335519e-11	0.01412829	-0.003779143
	0.01388972	-0.004444725	-7.98239e-12	-1.335519e-11	-0.04813771	-0.001157864	7.821649e-12	4.244529e-11
	7.320885e-12	4.099478e-11	0.01412829	-0.003779143	7.821649e-12	4.244529e-11	-0.0475364	0.0007705469
3.2e+08	-0.04696935	0.002210961	5.309524e-12	1.979375e-11	0.01309224	-0.005037156	1.07752e-11	4.093485e-11
	5.309524e-12	1.979375e-11	-0.04656035	0.003678201	-5.257385e-12	-1.51267e-11	0.01337669	-0.004368679
	0.01309224	-0.005037156	-5.257385e-12	-1.51267e-11	-0.04744227	0.00200281	1.349202e-11	4.122666e-11
	1.07752e-11	4.093485e-11	0.01337669	-0.004368679	1.349202e-11	4.122666e-11	-0.04673592	0.003878139
3.3e+08	-0.04591971	0.005179755	9.853484e-12	1.833095e-11	0.01222143	-0.005522975	1.423343e-11	4.046141e-11
	9.853484e-12	1.833095e-11	-0.04541845	0.006626091	-2.640258e-12	-1.729628e-11	0.01255095	-0.004858543
	0.01222143	-0.005522975	-2.640258e-12	-1.729628e-11	-0.04638211	0.00502761	1.909441e-11	3.928308e-11
	1.423343e-11	4.046141e-11	0.01255095	-0.004858543	1.909441e-11	3.928308e-11	-0.04557738	0.006838714
3.4e+08	-0.04453096	0.007974589	1.434133e-11	1.630999e-11	0.01129122	-0.005893938	1.764393e-11	3.956906e-11
	1.434133e-11	1.630999e-11	-0.04394176	0.009387783	-1.896506e-13	-1.985208e-11	0.01166398	-0.005240415
	0.01129122	-0.005893938	-1.896506e-13	-1.985208e-11	-0.04497768	0.007874728	2.453269e-11	3.661587e-11
	1.764393e-11	3.956906e-11	0.01166398	-0.005240415	2.453269e-11	3.661587e-11	-0.04408262	0.009610928
3.5e+08	-0.04282769	0.01055694	1.870144e-11	1.373319e-11	0.01031642	-0.00614358	2.095395e-11	3.825893e-11
	1.870144e-11	1.373319e-11	-0.04215652	0.01192516	2.037284e-12	-2.277364e-11	0.01072964	-0.005507618
	0.01031642	-0.00614358	2.037284e-12	-2.277364e-11	-0.04325416	0.0105052	2.971052e-11	3.323934e-11
	2.095395e-11	3.825893e-11	0.01072964	-0.005507618	2.971052e-11	3.323934e-11	-0.04227819	0.01215648
3.6e+08	-0.04083879	0.0128916	2.28624e-11	1.061232e-11	0.009312546	-0.006267313	2.411059e-11	3.653899e-11
	2.28624e-11	1.061232e-11	-0.04009328	0.01420364	3.986126e-12	-2.603204e-11	0.009762455	-0.005655211
	0.009312546	-0.006267313	3.986126e-12	-2.603204e-11	-0.04124106	0.01288347	3.453309e-11	2.918094e-11
	2.411059e-11	3.653899e-11	0.009762455	-0.005655211	3.453309e-11	2.918094e-11	-0.04019492	0.01444066
3.7e+08	-0.03859708	0.01494714	2.675429e-11	6.96853e-12	0.008295556	-0.006262494	2.706157e-11	3.442394e-11
	2.675429e-11	6.96853e-12	-0.03778639	0.01619267	5.606484e-12	-2.959026e-11	0.008777467	-0.005680071
	0.008295556	-0.006262494	5.606484e-12	-2.959026e-11	-0.03897183	0.01497781	3.890892e-11	2.448095e-11
	2.706157e-11	3.442394e-11	0.008777467	-0.005680071	3.890892e-11	2.448095e-11	-0.0378675	0.0164328
3.8e+08	-0.03613875	0.01669634	3.030989e-11	2.832031e-12	0.007281615	-0.006128467	2.975618e-11	3.193529e-11
	3.030989e-11	2.832031e-12	-0.03527351	0.01786611	6.853203e-12	-3.340377e-11	0.007789988	-0.005580935
	0.007281615	-0.006128467	6.853203e-12	-3.340377e-11	-0.03648333	0.01676079	4.275169e-11	1.919206e-11
	2.975618e-11	3.193529e-11	0.007789988	-0.005580935	4.275169e-11	1.919206e-11	-0.03533394	0.01810669
3.9e+08	-0.03350288	0.01811655	3.346589e-11	-1.75825e-12	0.006286859	-0.005866579	3.214613e-11	2.910111e-11
	3.346589e-11	-1.75825e-12	-0.03259507	0.01920257	7.6875e-12	-3.742131e-11	0.006815376	-0.005358422
	0.006286859	-0.005866579	7.6875e-12	-3.742131e-11	-0.03381531	0.01820965	4.598186e-11	1.337868e-11
	3.214613e-11	2.910111e-11	0.006815376	-0.005358422	4.598186e-11	1.337868e-11	-0.03263499	0.01944094
4e+08	-0.03073088	0.01919	3.616396e-11	-6.755269e-12	0.005327147	-0.005480165	3.418639e-11	2.595573e-11
	3.616396e-11	-6.755269e-12	-0.02979364	0.02018576	8.077991e-12	-4.158577e-11	0.005868811	-0.005015034
	0.005327147	-0.005480165	8.077991e-12	-4.158577e-11	-0.03100984	0.01930654	4.852827e-11	7.115942e-12
	3.418639e-11	2.595573e-11	0.005868811	-0.005015034	4.852827e-11	7.115942e-12	-0.02981359	0.02041928
4.1e+08	-0.02786588	0.01990399	3.835185e-11	-1.210454e-11	0.004417822	-0.004974505	3.583608e-11	2.253941e-11
	3.835185e-11	-1.210454e-11	-0.02691333	0.02080461	8.001565e-12	-4.583537e-11	0.004965064	-0.004555123
	0.004417822	-0.004974505	8.001565e-12	-4.583537e-11	-0.02811069	0.0200388	5.032968e-11	4.886184e-13
	3.583608e-11	2.253941e-11	0.004965064	-0.004555123	5.032968e-11	4.886184e-13	-0.02691419	0.02103072
4.2e+08	-0.0249521	0.02025111	3.998424e-11	-1.774499e-11	0.003573476	-0.004356752	3.705919e-11	1.889774e-11
	3.998424e-11	-1.774499e-11	-0.02399916	0.02105349	7.444095e-12	-5.010485e-11	0.004118276	-0.003984831
	0.003573476	-0.004356752	7.444095e-12	-5.010485e-11	-0.02516273	0.02039909	5.133596e-11	-6.410295e-12
	3.705919e-11	1.889774e-11	0.004118276	-0.003984831	5.133596e-11	-6.410295e-12	-0.02398215	0.02126975
4.3e+08	-0.02203423	0.02022926	4.10236e-11	-2.360987e-11	0.002807717	-0.003635827	3.782528e-11	1.508108e-11
	4.10236e-11	-2.360987e-11	-0.0210964	0.02093222	6.400944e-12	-5.432686e-11	0.003341741	-0.003312006
	0.002807717	-0.003635827	6.400944e-12	-5.432686e-11	-0.02221128	0.02038551	5.150927e-11	-1.34811e-11
	3.782528e-11	1.508108e-11	0.003341741	-0.003312006	5.150927e-11	-1.34811e-11	-0.02106303	0.02113633
4.4e+08	-0.01915684	0.01984173	4.14408e-11	-2.962781e-11	0.00213296	-0.002822299	3.811014e-11	1.114382e-11
	4.14408e-11	-2.962781e-11	-0.01824988	0.02044604	4.877257e-12	-5.843337e-11	0.002647697	-0.002546091
	0.00213296	-0.002822299	4.877257e-12	-5.843337e-11	-0.01930146	0.02000156	5.082485e-11	-2.061908e-11
	3.811014e-11	1.114382e-11	0.002647697	-0.002546091	5.082485e-11	-2.061908e-11	-0.01820198	0.02063593
4.5e+08	-0.01636363	0.01909707	4.121566e-11	-3.572388e-11	0.001560226	-0.001928221	3.789626e-11	7.143598e-12
	4.121566e-11	-3.572388e-11	-0.01550341	0.01960557	2.888025e-12	-6.235713e-11	0.00204714	-0.001697988
	0.001560226	-0.001928221	2.888025e-12	-6.235713e-11	-0.01647753	0.01925609	4.927173e-11	-2.77163e-11
	3.789626e-11	7.143598e-12	0.00204714	-0.001697988	4.927173e-11	-2.77163e-11	-0.01544307	0.01977939
4.6e+08	-0.01369694	0.01800901	4.033738e-11	-4.182076e-11	0.001098962	-0.000966954	3.717278e-11	3.14123e-12
	4.033738e-11	-4.182076e-11	-0.01289908	0.0184266	4.571159e-13	-6.603667e-11	0.001549643	-0.0007798975
	0.001098962	-0.000966954	4.571159e-13	-6.603667e-11	-0.0137823	0.0181632	4.684783e-11	-3.465663e-11
	3.717278e-11	3.14123e-12	0.001549643	-0.0007798975	4.684783e-11	-3.465663e-11	-0.0128286	0.0185828
4.7e+08	-0.01119703	0.01659619	3.880473e-11	-4.783969e-11	0.0007568845	4.703319e-05	3.593741e-11	-8.022381e-13
	3.880473e-11	-4.783969e-11	-0.0104767	0.01692982	-2.384889e-12	-6.94144e-11	0.001163203	0.0001948659
	0.0007568845	4.70332e-05	-2.384889e-12	-6.94144e-11	-0.01125647	0.01674195	4.356972e-11	-4.132888e-11
