!$
! Info: Touchstone file created by Circ.  Input file=Tx_6in_Rx_85ohms_TxVia_10mils_RxVia_20mils.circ
!$
# Hz S RI R 50
0	0.00492961	5.275422e-26	1.777001e-12	1.427262e-28	4.620025e-05	6.154406e-24	-4.74403e-09	5.80889e-25
	1.778617e-12	1.429146e-28	0.004932474	6.055593e-26	-2.417249e-12	2.76001e-28	4.362913e-05	6.967253e-24
	4.624846e-05	6.158002e-24	-2.466428e-12	2.819993e-28	0.004944554	5.290552e-26	-1.300434e-09	1.592049e-25
	-4.741879e-09	5.806255e-25	4.508672e-05	7.170977e-24	-1.300479e-09	1.592105e-25	0.004938103	5.777938e-26
1e+07	0.00658396	-0.005521645	-7.97101e-13	-3.43172e-12	0.0001136464	0.001161168	-9.030508e-09	1.644976e-08
	-7.970377e-13	-3.431992e-12	0.006571774	-0.005422319	-1.844221e-12	-4.3798e-12	0.0001579264	0.001158708
	0.0001136508	0.001161165	-1.844251e-12	-4.379546e-12	0.007401132	-0.005319697	-6.542164e-09	1.593041e-08
	-9.030508e-09	1.644976e-08	0.0001579587	0.001158697	-6.542164e-09	1.593041e-08	0.006567774	-0.005417963
2e+07	0.007150149	-0.01265179	-7.109367e-13	-5.605429e-12	0.0003390483	0.002304535	-6.680471e-09	1.377729e-08
	-7.11096e-13	-5.605589e-12	0.007220902	-0.01248441	-1.618877e-13	-7.76282e-12	0.0003982787	0.002263313
	0.0003390474	0.002304532	-1.617611e-13	-7.762638e-12	0.007988969	-0.01261463	-7.965921e-09	1.2418e-08
	-6.680471e-09	1.377729e-08	0.0003982755	0.002263292	-7.965921e-09	1.2418e-08	0.007220199	-0.01246958
3e+07	0.00626154	-0.02040973	-2.63354e-12	-7.059572e-12	0.0007366865	0.00336941	-4.332803e-09	1.233713e-08
	-2.633579e-12	-7.059558e-12	0.00638621	-0.02022514	-4.391844e-12	-1.08249e-11	0.0007670026	0.003318345
	0.0007366865	0.00336941	-4.391803e-12	-1.082492e-11	0.007112407	-0.02045102	-4.514175e-09	1.286646e-08
	-4.332803e-09	1.233713e-08	0.0007669975	0.003318342	-4.514175e-09	1.286646e-08	0.006388424	-0.02020313
4e+07	0.004151878	-0.02816516	-4.596574e-12	-7.523458e-12	0.001257987	0.004362856	-2.554811e-09	1.139138e-08
	-4.596539e-12	-7.523454e-12	0.004310557	-0.02797862	-7.015431e-12	-1.188383e-11	0.001258575	0.00431087
	0.001257987	0.004362855	-7.015469e-12	-1.188384e-11	0.005005734	-0.02827461	-1.969006e-09	1.244024e-08
	-2.554811e-09	1.139138e-08	0.001258575	0.004310871	-1.969006e-09	1.244024e-08	0.004315075	-0.02795223
5e+07	0.0009398959	-0.03567546	-6.202907e-12	-8.400946e-12	0.001893888	0.005272763	-1.176254e-09	1.103559e-08
	-6.202889e-12	-8.400951e-12	0.001116161	-0.0354938	-9.058894e-12	-1.373625e-11	0.001863806	0.005226643
	0.001893889	0.005272762	-9.058915e-12	-1.373624e-11	0.001788389	-0.03584998	-6.59128e-10	1.24679e-08
	-1.176254e-09	1.103559e-08	0.001863806	0.005226643	-6.591281e-10	1.24679e-08	0.001120989	-0.03546376
6e+07	-0.003277838	-0.04276888	-9.29582e-12	-1.226246e-11	0.002632725	0.006086512	2.829688e-10	1.173397e-08
	-9.295831e-12	-1.226243e-11	-0.003098285	-0.04259452	-9.663105e-12	-1.992017e-11	0.002571374	0.006052453
	0.002632727	0.006086512	-9.663086e-12	-1.99202e-11	-0.002442756	-0.04300697	-1.486774e-09	1.406928e-08
	2.829688e-10	1.173397e-08	0.002571371	0.006052454	-1.486774e-09	1.406928e-08	-0.003094274	-0.04256053
7e+07	-0.00840588	-0.04930646	-2.817375e-11	-2.592937e-11	0.003460925	0.006792572	4.223975e-09	1.587623e-08
	-2.817376e-11	-2.592925e-11	-0.008235735	-0.04913908	1.822036e-11	-8.668397e-12	0.003368252	0.006776611
	0.003460927	0.006792571	1.822047e-11	-8.668459e-12	-0.007592124	-0.04960696	-1.153684e-08	1.25916e-08
	4.223976e-09	1.587623e-08	0.003368247	0.006776614	-1.153684e-08	1.25916e-08	-0.008233252	-0.04910104
8e+07	-0.01434357	-0.0551713	-4.145318e-10	4.385435e-10	0.004363354	0.007381107	2.818576e-08	-2.130268e-08
	-4.145315e-10	4.385434e-10	-0.01419432	-0.05500896	-3.62482e-11	-5.584077e-12	0.004239994	0.007389325
	0.004363356	0.007381107	-3.624813e-11	-5.584068e-12	-0.01355911	-0.0555332	-6.755666e-09	-3.818641e-10
	2.818577e-08	-2.130268e-08	0.00423999	0.00738933	-6.755666e-09	-3.818643e-10	-0.01419436	-0.0549669
9e+07	-0.02098308	-0.06026441	-2.590119e-11	-7.791765e-11	0.005323679	0.007844382	2.916512e-10	-3.47795e-09
	-2.590114e-11	-7.79177e-11	-0.02086569	-0.06010498	-2.34665e-11	-2.306834e-11	0.005171161	0.007883095
	0.00532368	0.007844382	-2.346651e-11	-2.306834e-11	-0.02023647	-0.06068743	-1.642176e-09	-4.537137e-10
	2.916513e-10	-3.47795e-09	0.005171158	0.007883099	-1.642176e-09	-4.537137e-10	-0.02086962	-0.06005857
1e+08	-0.02820668	-0.0644994	-1.72239e-11	-1.26607e-11	0.006324956	0.008177248	-1.497711e-11	-3.373326e-13
	-1.72239e-11	-1.26607e-11	-0.02813629	-0.06434745	-2.077247e-11	-2.540402e-11	0.006146624	0.008254261
	0.006324956	0.008177248	-2.077247e-11	-2.540402e-11	-0.0275108	-0.06498925	-2.536967e-11	-1.127801e-11
	-1.497711e-11	-3.373326e-13	0.006146624	0.008254261	-2.536967e-11	-1.127801e-11	-0.02814564	-0.06429591
1.1e+08	-0.03587826	-0.06784833	-1.928333e-11	-1.040465e-11	0.007350616	0.00837516	-1.647044e-11	1.402207e-12
	-1.928333e-11	-1.040465e-11	-0.03589044	-0.06766958	-2.298078e-11	-2.526759e-11	0.007154512	0.008490598
	0.007350616	0.00837516	-2.298078e-11	-2.526759e-11	-0.03526192	-0.06838045	-2.826033e-11	-7.8588e-12
	-1.647044e-11	1.402207e-12	0.007154512	0.008490598	-2.826033e-11	-7.8588e-12	-0.0359053	-0.0676106
1.2e+08	-0.0439108	-0.07024498	-2.076257e-11	-9.546108e-12	0.008380626	0.008437644	-1.780417e-11	3.026642e-12
	-2.076257e-11	-9.546108e-12	-0.04399388	-0.07001293	-2.438254e-11	-2.582831e-11	0.008167749	0.008593142
	0.008380626	0.008437644	-2.438254e-11	-2.582831e-11	-0.04336804	-0.07080032	-3.039639e-11	-5.880787e-12
	-1.780417e-11	3.026642e-12	0.008167749	0.008593142	-3.039639e-11	-5.880787e-12	-0.04401425	-0.06994503
1.3e+08	-0.05217282	-0.07165127	-2.205462e-11	-8.721334e-12	0.009397842	0.008366903	-1.901746e-11	4.958378e-12
	-2.205462e-11	-8.721334e-12	-0.05231834	-0.07135001	-2.569735e-11	-2.620843e-11	0.009170752	0.008565529
	0.009397842	0.008366903	-2.569735e-11	-2.620843e-11	-0.05170087	-0.07221876	-3.228322e-11	-3.801689e-12
	-1.901746e-11	4.958378e-12	0.009170752	0.008565529	-3.228322e-11	-3.801689e-12	-0.05234407	-0.07127174
1.4e+08	-0.06053541	-0.07205107	-2.310642e-11	-7.695051e-12	0.0103855	0.008166973	-2.005233e-11	7.115435e-12
	-2.310642e-11	-7.695051e-12	-0.06073436	-0.07166779	-2.692569e-11	-2.630447e-11	0.01014755	0.008411723
	0.0103855	0.008166973	-2.692569e-11	-2.630447e-11	-0.06013155	-0.0726216	-3.381584e-11	-1.384911e-12
	-2.005233e-11	7.115435e-12	0.01014755	0.008411723	-3.381584e-11	-1.384911e-12	-0.06076501	-0.0715777
1.5e+08	-0.06887149	-0.07144501	-2.397689e-11	-6.405574e-12	0.01132767	0.007843892	-2.088338e-11	9.531762e-12
	-2.397689e-11	-6.405574e-12	-0.06911387	-0.0709691	-2.801521e-11	-2.615281e-11	0.01108286	0.008137417
	0.01132767	0.007843892	-2.801521e-11	-2.615281e-11	-0.06853264	-0.07201069	-3.504507e-11	1.425073e-12
	-2.088338e-11	9.531762e-12	0.01108286	0.008137417	-3.504507e-11	1.425073e-12	-0.06914871	-0.07086579
1.6e+08	-0.07705714	-0.06984941	-2.462256e-11	-4.886777e-12	0.01220953	0.007405562	-2.146809e-11	1.217358e-11
	-2.462256e-11	-4.886777e-12	-0.07733192	-0.06927219	-2.892748e-11	-2.578819e-11	0.01196239	0.007750021
	0.01220953	0.007405562	-2.892748e-11	-2.578819e-11	-0.07677978	-0.07040332	-3.590533e-11	4.571348e-12
	-2.146809e-11	1.217358e-11	0.01196239	0.007750021	-3.590533e-11	4.571348e-12	-0.07736989	-0.06915436
1.7e+08	-0.08497307	-0.06729534	-2.500495e-11	-3.174358e-12	0.01301757	0.006861559	-2.176865e-11	1.500427e-11
	-2.500495e-11	-3.174358e-12	-0.08526826	-0.06661004	-2.96312e-11	-2.524601e-11	0.01277309	0.00725851
	0.01301757	0.006861559	-2.96312e-11	-2.524601e-11	-0.08475327	-0.06783139	-3.633989e-11	7.994e-12
	-2.176865e-11	1.500427e-11	0.01277309	0.00725851	-3.633989e-11	7.994e-12	-0.08530808	-0.06647656
1.8e+08	-0.09250607	-0.06382768	-2.509039e-11	-1.307426e-12	0.01373975	0.006222916	-2.175208e-11	1.798334e-11
	-2.509039e-11	-1.307426e-12	-0.09280889	-0.06302944	-3.010105e-11	-2.456354e-11	0.01350327	0.006673234
	0.01373975	0.006222916	-3.010105e-11	-2.456354e-11	-0.09233957	-0.0643406	-3.630045e-11	1.162808e-11
	-2.175208e-11	1.798334e-11	0.01350327	0.006673234	-3.630045e-11	1.162808e-11	-0.09284903	-0.0628794
1.9e+08	-0.09955035	-0.05950407	-2.485038e-11	6.709718e-13	0.01436566	0.005501902	-2.139072e-11	2.106623e-11
	-2.485038e-11	6.709718e-13	-0.09984745	-0.05859006	-3.031734e-11	-2.378009e-11	0.01414278	0.006005708
	0.01436566	0.005501902	-3.031734e-11	-2.378009e-11	-0.09943261	-0.05998933	-3.574761e-11	1.540309e-11
	-2.139072e-11	2.106623e-11	0.01414278	0.006005708	-3.574761e-11	1.540309e-11	-0.0998862	-0.05842279
2e+08	-0.1060088	-0.05439379	-2.426215e-11	2.713985e-12	0.01488659	0.004711784	-2.066278e-11	2.42046e-11
	-2.426215e-11	2.713985e-12	-0.1062865	-0.05336321	-3.026607e-11	-2.293685e-11	0.01468304	0.005268396
	0.01488659	0.004711784	-3.026607e-11	-2.293685e-11	-0.1059351	-0.05484762	-3.465164e-11	1.924336e-11
	-2.066278e-11	2.42046e-11	0.01468304	0.005268396	-3.465164e-11	1.924336e-11	-0.106322	-0.05317833
2.1e+08	-0.1117941	-0.04857655	-2.330937e-11	4.771396e-12	0.01529561	0.003866599	-1.955299e-11	2.734685e-11
	-2.330937e-11	4.771396e-12	-0.1120386	-0.04743071	-2.993907e-11	-2.207643e-11	0.01511714	0.0044745
	0.01529561	0.003866599	-2.993907e-11	-2.207643e-11	-0.1117596	-0.04899585	-3.299329e-11	2.30689e-11
	-1.955299e-11	2.734685e-11	0.01511714	0.0044745	-3.299329e-11	2.30689e-11	-0.1120689	-0.04722811
2.2e+08	-0.1168297	-0.04214115	-2.19826e-11	6.790351e-12	0.01558758	0.002980928	-1.80531e-11	3.04389e-11
	-2.19826e-11	6.790351e-12	-0.1170273	-0.04088342	-2.933416e-11	-2.124226e-11	0.01543983	0.003637753
	0.01558758	0.002980928	-2.933416e-11	-2.124226e-11	-0.1168294	-0.0425235	-3.07645e-11	2.679659e-11
	-1.80531e-11	3.04389e-11	0.01543983	0.003637753	-3.07645e-11	2.679659e-11	-0.1170505	-0.04066332
2.3e+08	-0.1210505	-0.0351841	-2.027981e-11	8.716219e-12	0.01575919	0.002069678	-1.616223e-11	3.342501e-11
	-2.027981e-11	8.716219e-12	-0.1211882	-0.03381992	-2.845517e-11	-2.047792e-11	0.01564757	0.002772222
	0.01575919	0.002069678	-2.845517e-11	-2.047792e-11	-0.1210795	-0.03552773	-2.796889e-11	3.034157e-11
	-1.616223e-11	3.342501e-11	0.01564757	0.002772222	-2.796889e-11	3.034157e-11	-0.1212022	-0.03358285
2.4e+08	-0.1244037	-0.02780824	-1.820679e-11	1.049359e-11	0.01580891	0.001147883	-1.388739e-11	3.624888e-11
	-1.820679e-11	1.049359e-11	-0.124469	-0.02634505	-2.731213e-11	-1.982654e-11	0.01573847	0.00189212
	0.01580891	0.001147883	-2.731213e-11	-1.982654e-11	-0.124457	-0.02811199	-2.462231e-11	3.361878e-11
	-1.388739e-11	3.624888e-11	0.01573847	0.00189212	-2.462231e-11	3.361878e-11	-0.1244719	-0.02609184
2.5e+08	-0.1268492	-0.02012124	-1.577725e-11	1.206736e-11	0.01573698	0.0002305045	-1.124351e-11	3.885474e-11
	-1.577725e-11	1.206736e-11	-0.1268307	-0.01856836	-2.592113e-11	-1.932994e-11	0.0157123	0.001011637
	0.01573698	0.0002305045	-2.592113e-11	-1.932994e-11	-0.1269221	-0.02038451	-2.07528e-11	3.654465e-11
	-1.124351e-11	3.885474e-11	0.0157123	0.001011637	-2.07528e-11	3.654465e-11	-0.1268206	-0.01830014
2.6e+08	-0.1283597	-0.01223414	-1.301289e-11	1.338377e-11	0.01554535	-0.0006677436	-8.253121e-12	4.118768e-11
	-1.301289e-11	1.338377e-11	-0.1282474	-0.01060262	-2.430434e-11	-1.902792e-11	0.0155704	0.0001447718
	0.01554535	-0.0006677436	-2.430434e-11	-1.902792e-11	-0.1284476	-0.01245688	-1.640063e-11	3.903881e-11
	-8.253121e-12	4.118768e-11	0.0155704	0.0001447718	-1.640063e-11	3.903881e-11	-0.1282226	-0.01032082
2.7e+08	-0.1289215	-0.004259832	-9.943243e-12	1.439163e-11	0.01523764	-0.001532566	-4.946767e-12	4.319563e-11
	-9.943243e-12	1.439163e-11	-0.1287068	-0.002562306	-2.248976e-11	-1.895741e-11	0.01531569	-0.0006948164
	0.01523764	-0.001532566	-2.248976e-11	-1.895741e-11	-0.1290199	-0.004442515	-1.161782e-11	4.10258e-11
	-4.946767e-12	4.319563e-11	0.01531569	-0.0006948164	-1.161782e-11	4.10258e-11	-0.1286658	-0.002268648
2.8e+08	-0.1285339	0.003688388	-6.605381e-12	1.504353e-11	0.01481904	-0.002350244	-1.362579e-12	4.483022e-11
	-6.605381e-12	1.504353e-11	-0.12821	0.005437924	-2.051108e-11	-1.915173e-11	0.01495255	-0.001493952
	0.01481904	-0.002350244	-2.051108e-11	-1.915173e-11	-0.1286386	0.00354482	-6.467719e-12	4.243684e-11
	-1.362579e-12	4.483022e-11	0.01495255	-0.001493952	-6.467719e-12	4.243684e-11	-0.1281514	0.005741488
2.9e+08	-0.1272095	0.01149831	-3.043415e-12	1.529681e-11	0.01429625	-0.003107785	2.454233e-12	4.604777e-11
	-3.043415e-12	1.529681e-11	-0.1267714	0.01328473	-1.840724e-11	-1.963968e-11	0.01448681	-0.00224008
	0.01429625	-0.003107785	-1.840724e-11	-1.963968e-11	-0.1273165	0.01139247	-1.023997e-12	4.321143e-11
	2.454233e-12	4.604777e-11	0.01448681	-0.00224008	-1.023997e-12	4.321143e-11	-0.1266942	0.01359602
3e+08	-0.1249736	0.01906023	6.921822e-13	1.511462e-11	0.0136774	-0.003793064	6.451966e-12	4.681034e-11
	6.921822e-13	1.511462e-11	-0.1244187	0.02086757	-1.622194e-11	-2.044468e-11	0.01392564	-0.002921393
	0.0136774	-0.003793064	-1.622194e-11	-2.044468e-11	-0.1250793	0.01899036	4.630409e-12	4.329887e-11
	6.451966e-12	4.681034e-11	0.01392564	-0.002921393	4.630409e-12	4.329887e-11	-0.1243221	0.02118421
3.1e+08	-0.1218642	0.02626841	4.54363e-12	1.446401e-11	0.01297195	-0.004394961	1.057314e-11	4.708673e-11
	4.54363e-12	1.446401e-11	-0.1211919	0.0280801	-1.401332e-11	-2.159006e-11	0.01327749	-0.003526961
	0.01297195	-0.004394961	-1.401332e-11	-2.159006e-11	-0.1219654	0.02623236	1.040461e-11	4.265966e-11
	1.057314e-11	4.708673e-11	0.01327749	-0.003526961	1.040461e-11	4.265966e-11	-0.1210754	0.02839957
3.2e+08	-0.1179313	0.03302237	8.446911e-12	1.332012e-11	0.01219057	-0.00490349	1.475543e-11	4.685331e-11
	8.446911e-12	1.332012e-11	-0.1171434	0.0348216	-1.184616e-11	-2.308975e-11	0.01255201	-0.004046853
	0.01219057	-0.00490349	-1.184616e-11	-2.308975e-11	-0.1180251	0.03301769	1.62013e-11	4.126673e-11
	1.475543e-11	4.685331e-11	0.01255201	-0.004046853	1.62013e-11	4.126673e-11	-0.1170069	0.03514125
3.3e+08	-0.113236	0.03922821	1.234048e-11	1.167528e-11	0.01134508	-0.00530993	1.893262e-11	4.609452e-11
	1.234048e-11	1.167528e-11	-0.1123368	0.04099821	-9.754715e-12	-2.493213e-11	0.01175993	-0.004472258
	0.01134508	-0.00530993	-9.754715e-12	-2.493213e-11	-0.1133199	0.03925221	2.191844e-11	3.910654e-11
	1.893262e-11	4.609452e-11	0.01175993	-0.004472258	2.191844e-11	3.910654e-11	-0.1121805	0.04131535
3.4e+08	-0.1078502	0.04479988	1.615757e-11	9.524384e-12	0.01044825	-0.005606943	2.303511e-11	4.480357e-11
	1.615757e-11	9.524384e-12	-0.1068462	0.04652424	-7.786049e-12	-2.71122e-11	0.01091298	-0.004795605
	0.01044825	-0.005606943	-7.786049e-12	-2.71122e-11	-0.1079222	0.04484968	2.744404e-11	3.617475e-11
	2.303511e-11	4.480357e-11	0.01091298	-0.004795605	2.744404e-11	3.617475e-11	-0.1066708	0.0468362
3.5e+08	-0.1018551	0.0496603	1.983057e-11	6.871763e-12	0.009513747	-0.005788691	2.69928e-11	4.298362e-11
	1.983057e-11	6.871763e-12	-0.1007553	0.05132331	-5.997342e-12	-2.961662e-11	0.01002378	-0.005010678
	0.009513747	-0.005788691	-5.997342e-12	-2.961662e-11	-0.1019137	0.04973283	3.267445e-11	3.249079e-11
	2.69928e-11	4.298362e-11	0.01002378	-0.005010678	3.267445e-11	3.249079e-11	-0.1005618	0.05162743
3.6e+08	-0.09534071	0.05374241	2.329227e-11	3.731082e-12	0.008555903	-0.005850945	3.073506e-11	4.064714e-11
	2.329227e-11	3.731082e-12	-0.09415639	0.05532941	-4.446904e-12	-3.242076e-11	0.009105672	-0.005112724
	0.008555903	-0.005850945	-4.446904e-12	-3.242076e-11	-0.09538465	0.05383451	3.750878e-11	2.808841e-11
	3.073506e-11	4.064714e-11	0.009105672	-0.005112724	3.750878e-11	2.808841e-11	-0.09394612	0.05562313
3.7e+08	-0.08840428	0.05699016	2.647676e-11	1.251139e-13	0.007589599	-0.005791184	3.419221e-11	3.781623e-11
	2.647676e-11	1.251139e-13	-0.08714883	0.05848783	-3.184908e-12	-3.549143e-11	0.008172599	-0.005098562
	0.007589599	-0.005791184	-3.184908e-12	-3.549143e-11	-0.08843292	0.05709862	4.184672e-11	2.301297e-11
	3.419221e-11	3.781623e-11	0.008172599	-0.005098562	4.184672e-11	2.301297e-11	-0.08692357	0.05876873
3.8e+08	-0.08114917	0.0593593	2.932093e-11	-3.914272e-12	0.006630053	-0.00560868	3.729703e-11	3.452263e-11
	2.932093e-11	-3.914272e-12	-0.07983803	0.060756	-2.256761e-12	-3.878684e-11	0.007238923	-0.004966667
	0.006630053	-0.00560868	-2.256761e-12	-3.878684e-11	-0.08116229	0.05948092	4.559357e-11	1.732409e-11
	3.729703e-11	3.452263e-11	0.007238923	-0.004966667	4.559357e-11	1.732409e-11	-0.07959987	0.06102186
3.9e+08	-0.07368346	0.0608181	3.176569e-11	-8.346482e-12	0.005692622	-0.005304564	3.998609e-11	3.08074e-11
	3.176569e-11	-8.346482e-12	-0.07233386	0.06210414	-1.701537e-12	-4.225728e-11	0.006319242	-0.004717255
	0.005692622	-0.005304564	-1.701537e-12	-4.225728e-11	-0.07368131	0.06094976	4.866241e-11	1.109496e-11
	3.998609e-11	3.08074e-11	0.006319242	-0.004717255	4.866241e-11	1.109496e-11	-0.07208525	0.06235299
4e+08	-0.06611847	0.06134792	3.375726e-11	-1.312276e-11	0.004792577	-0.004881876	4.220108e-11	2.672048e-11
	3.375726e-11	-1.312276e-11	-0.06474921	0.06251581	-1.550501e-12	-4.584616e-11	0.005428184	-0.004352337
	0.004792577	-0.004881876	-1.550501e-12	-4.584616e-11	-0.06610173	0.06148661	5.0976e-11	4.411305e-12
	4.220108e-11	2.672048e-11	0.005428184	-0.004352337	5.0976e-11	4.411305e-12	-0.06449289	0.06274599
4.1e+08	-0.0585672	0.0609435	3.524828e-11	-1.818691e-11	0.003944867	-0.004345579	4.38901e-11	2.231998e-11
	3.524828e-11	-1.818691e-11	-0.05719834	0.06198825	-1.825821e-12	-4.949125e-11	0.004580184	-0.003875753
	0.003944867	-0.004345579	-1.825821e-12	-4.949125e-11	-0.05853698	0.06108641	5.246871e-11	-2.630011e-12
	4.38901e-11	2.231998e-11	0.004580184	-0.003875753	5.246871e-11	-2.630011e-12	-0.05693732	0.06219842
4.2e+08	-0.05114274	0.05961327	3.619886e-11	-2.347619e-11	0.003163868	-0.003702553	4.500885e-11	1.767135e-11
	3.619886e-11	-2.347619e-11	-0.0497953	0.06053249	-2.539507e-12	-5.312629e-11	0.003789249	-0.003293181
	0.003163868	-0.003702553	-2.539507e-12	-5.312629e-11	-0.05110054	0.05975782	5.308817e-11	-9.922596e-12
	4.500885e-11	1.767135e-11	0.003789249	-0.003293181	5.308817e-11	-9.922596e-12	-0.04953282	0.06072172
4.3e+08	-0.04395662	0.05737925	3.657753e-11	-2.892235e-11	0.002463125	-0.002961549	4.552164e-11	1.28463e-11
	3.657753e-11	-2.892235e-11	-0.04265221	0.05817339	-3.692656e-12	-5.668275e-11	0.003068713	-0.002612106
	0.002463125	-0.002961549	-3.692656e-12	-5.668275e-11	-0.0439043	0.05752315	5.279664e-11	-1.735245e-11
	4.552164e-11	1.28463e-11	0.003068713	-0.002612106	5.279664e-11	-1.735245e-11	-0.04239167	0.05834115
4.4e+08	-0.03711713	0.05427694	3.636193e-11	-3.445286e-11	0.001855097	-0.002133103	4.540233e-11	7.921621e-12
	3.636193e-11	-3.445286e-11	-0.03587759	0.05494935	-5.275048e-12	-6.00918e-11	0.002430988	-0.001841762
	0.001855097	-0.002133103	-5.275048e-12	-6.00918e-11	-0.03705686	0.05441823	5.157215e-11	-2.480008e-11
	4.540233e-11	7.921621e-12	0.002430988	-0.001841762	5.157215e-11	-2.480008e-11	-0.03562252	0.05509558
4.5e+08	-0.03072769	0.05035483	3.553945e-11	-3.999212e-11	0.001350895	-0.001229416	4.463502e-11	2.977832e-12
	3.553945e-11	-3.999212e-11	-0.02957469	0.05091185	-7.265129e-12	-6.328627e-11	0.00188731	-0.000993026
	0.001350895	-0.001229416	-7.265129e-12	-6.328627e-11	-0.03066192	0.05049194	4.940934e-11	-3.214281e-11
	4.463502e-11	2.977832e-12	0.00188731	-0.000993026	4.940934e-11	-3.214281e-11	-0.02932868	0.05103694
4.6e+08	-0.02488524	0.04567384	3.410765e-11	-4.546291e-11	0.0009600444	-0.000264186	4.321467e-11	-1.902263e-12
	3.410765e-11	-4.546291e-11	-0.02383988	0.0461248	-9.630368e-12	-6.620264e-11	0.001447509	-7.827615e-05
	0.0009600444	-0.000264186	-9.630368e-12	-6.620264e-11	-0.02481663	0.04580561	4.631991e-11	-3.925721e-11
	4.321467e-11	-1.902263e-12	0.001447509	-7.827615e-05	4.631991e-11	-3.925721e-11	-0.02360652	0.04622964
4.7e+08	-0.0196787	0.04030649	3.207439e-11	-5.078776e-11	0.0006902564	0.0007475981	4.114727e-11	-6.635082e-12
	3.207439e-11	-5.078776e-11	-0.01876111	0.04066363	-1.232799e-11	-6.878289e-11	0.001119774	0.0008887891
	0.0006902564	0.0007475981	-1.232799e-11	-6.878289e-11	-0.01961009	0.04043218	4.233263e-11	-4.602159e-11
