!$
! Info: Touchstone file created by Circ.  Input file=Tx_6in_Rx_93ohms_TxVia_10mils_RxVia_20mils.circ
!$
# Hz S RI R 50
0	0.005599786	5.257335e-26	-3.255846e-05	-4.489276e-26	4.605335e-05	6.999406e-24	-3.25717e-05	1.572718e-24
	-3.255846e-05	-4.428436e-26	0.005602646	6.034483e-26	-3.255815e-05	-3.48288e-26	4.348249e-05	7.925597e-24
	4.610148e-05	7.003496e-24	-3.255814e-05	-3.546094e-26	0.005614709	5.272413e-26	-3.255977e-05	1.7393e-25
	-3.257169e-05	1.572063e-24	4.493983e-05	8.157341e-24	-3.255976e-05	1.731702e-25	0.005608268	5.757861e-26
1e+07	0.007734258	-0.0001796969	-1.06513e-06	-1.211749e-05	0.0001521537	0.001076589	-1.080057e-06	-1.242887e-05
	-1.06513e-06	-1.211749e-05	0.008188994	-0.0002400475	-3.833732e-06	-2.374905e-06	0.0001556176	0.001166927
	0.0001521582	0.001076586	-3.833733e-06	-2.374905e-06	0.008317936	0.00011707	-1.294353e-05	-3.306346e-06
	-1.080057e-06	-1.242887e-05	0.00015565	0.001166915	-1.294354e-05	-3.306346e-06	0.008037146	-0.0002502933
2e+07	0.009434535	-0.002183232	-3.9901e-06	-8.254192e-06	0.0003940001	0.002175917	-4.342782e-06	-8.755197e-06
	-3.9901e-06	-8.254192e-06	0.009727852	-0.002448374	-1.469056e-05	-1.322576e-05	0.0003308657	0.002340433
	0.0003939992	0.002175914	-1.469056e-05	-1.322576e-05	0.01020083	-0.001915263	-1.392324e-05	1.761828e-06
	-4.342782e-06	-8.755197e-06	0.0003308628	0.002340412	-1.392324e-05	1.761828e-06	0.009610557	-0.002409636
3e+07	0.01028713	-0.005048181	-6.334045e-06	-7.000785e-06	0.0007631245	0.003233543	-6.94641e-06	-7.501795e-06
	-6.334045e-06	-7.000785e-06	0.01044413	-0.005375117	-2.303417e-05	-1.439904e-05	0.0006848445	0.003430103
	0.0007631245	0.003233542	-2.303417e-05	-1.439904e-05	0.01118974	-0.00484215	-1.495969e-05	1.943508e-06
	-6.94641e-06	-7.501795e-06	0.0006848395	0.003430101	-1.495969e-05	1.943508e-06	0.0103535	-0.005326872
4e+07	0.01050485	-0.008191189	-8.265309e-06	-5.767879e-06	0.001256006	0.004235289	-9.091516e-06	-6.200355e-06
	-8.265309e-06	-5.767879e-06	0.01053701	-0.008536463	-2.990453e-05	-1.276382e-05	0.001193947	0.004445713
	0.001256007	0.004235289	-2.990453e-05	-1.276382e-05	0.01151251	-0.008074932	-1.57021e-05	2.841018e-06
	-9.091516e-06	-6.200355e-06	0.001193947	0.004445715	-1.57021e-05	2.841017e-06	0.01046807	-0.008490896
5e+07	0.01016982	-0.01143335	-9.857024e-06	-4.364436e-06	0.001864872	0.0051658	-1.086298e-05	-4.683574e-06
	-9.857025e-06	-4.364436e-06	0.01008546	-0.01176859	-3.55975e-05	-9.448339e-06	0.001813225	0.005382899
	0.001864873	0.005165799	-3.55975e-05	-9.448339e-06	0.01125612	-0.01142716	-1.619629e-05	4.089252e-06
	-1.086298e-05	-4.683574e-06	0.001813225	0.005382899	-1.619629e-05	4.089252e-06	0.01003265	-0.01173173
6e+07	0.00933192	-0.01466477	-1.113513e-05	-2.764529e-06	0.002579811	0.006011237	-1.229146e-05	-2.93473e-06
	-1.113513e-05	-2.764529e-06	0.009138845	-0.01496729	-4.02217e-05	-4.90458e-06	0.002533088	0.006230655
	0.002579812	0.006011237	-4.02217e-05	-4.90458e-06	0.01047219	-0.01478399	-1.645661e-05	5.557991e-06
	-1.229146e-05	-2.93473e-06	0.002533085	0.006230656	-1.645661e-05	5.557991e-06	0.009097745	-0.0149425
7e+07	0.008031594	-0.017803	-1.210236e-05	-9.713912e-07	0.00338929	0.006759372	-1.338126e-05	-9.605748e-07
	-1.210236e-05	-9.713912e-07	0.007738332	-0.01805291	-4.379154e-05	6.374296e-07	0.003342119	0.006978303
	0.003389291	0.006759372	-4.379154e-05	6.374296e-07	0.00920163	-0.01805964	-1.64853e-05	7.181696e-06
	-1.338126e-05	-9.605747e-07	0.003342114	0.006978305	-1.64853e-05	7.181696e-06	0.007704988	-0.01804286
8e+07	0.006307546	-0.02078063	-1.274315e-05	1.013663e-06	0.004280485	0.00739986	-1.411562e-05	1.236318e-06
	-1.274315e-05	1.013664e-06	0.005924121	-0.02095938	-4.625372e-05	7.072483e-06	0.004227374	0.007616238
	0.004280486	0.00739986	-4.625372e-05	7.072483e-06	0.007482572	-0.0211847	-1.633972e-05	8.76584e-06
	-1.411562e-05	1.236318e-06	0.00422737	0.007616242	-1.633972e-05	8.76584e-06	0.00589422	-0.02096636
9e+07	0.004199916	-0.02354012	-1.301195e-05	3.214784e-06	0.005239885	0.00792491	-1.443928e-05	3.690922e-06
	-1.301195e-05	3.214784e-06	0.003738943	-0.02362907	-4.744989e-05	1.444518e-05	0.005174645	0.008136326
	0.005239886	0.00792491	-4.744989e-05	1.444518e-05	0.005352835	-0.024102	-1.658321e-05	9.383877e-06
	-1.443928e-05	3.690922e-06	0.005174642	0.00813633	-1.658321e-05	9.383877e-06	0.003707509	-0.02365482
1e+08	0.00175409	-0.02602845	-1.267779e-05	5.87115e-06	0.006257059	0.008334615	-1.409688e-05	6.691371e-06
	-1.267779e-05	5.87115e-06	0.001237111	-0.02600059	-4.656642e-05	2.360383e-05	0.006168734	0.008531926
	0.006257059	0.008334615	-4.656642e-05	2.360383e-05	0.00284385	-0.02677402	-1.700668e-05	9.666717e-06
	-1.409688e-05	6.691371e-06	0.006168734	0.008531926	-1.700668e-05	9.666717e-06	0.001197509	-0.02604782
1.1e+08	-0.0009717813	-0.02823703	-1.107191e-05	7.622339e-06	0.00728201	0.008629783	-1.229613e-05	8.693031e-06
	-1.107191e-05	7.622339e-06	-0.001497835	-0.02811389	-4.111688e-05	2.975864e-05	0.007192217	0.008799018
	0.00728201	0.008629783	-4.111688e-05	2.975864e-05	-3.119466e-05	-0.02910103	-1.673553e-05	9.449441e-06
	-1.229613e-05	8.693031e-06	0.007192217	0.008799018	-1.673553e-05	9.449441e-06	-0.001555468	-0.0281744
1.2e+08	-0.003963565	-0.03011277	-9.721516e-06	8.78868e-06	0.008318354	0.008778551	-1.122317e-05	9.468169e-06
	-9.721516e-06	8.78868e-06	-0.004504803	-0.02990743	-3.836415e-05	3.16314e-05	0.008230582	0.008936458
	0.008318354	0.008778551	-3.836415e-05	3.16314e-05	-0.003155316	-0.03104873	-1.630481e-05	9.600303e-06
	-1.122317e-05	9.468169e-06	0.008230582	0.008936457	-1.630481e-05	9.600303e-06	-0.004579827	-0.02997542
1.3e+08	-0.007167388	-0.03162226	-9.397927e-06	8.716579e-06	0.009353664	0.008788927	-1.100145e-05	9.258214e-06
	-9.397927e-06	8.716579e-06	-0.007722721	-0.03133587	-3.741521e-05	3.142883e-05	0.009267521	0.008943432
	0.009353664	0.008788927	-3.741521e-05	3.142883e-05	-0.006485523	-0.03260646	-1.58329e-05	9.886539e-06
	-1.100145e-05	9.258214e-06	0.009267521	0.008943432	-1.58329e-05	9.886539e-06	-0.007815462	-0.03140778
1.4e+08	-0.01053102	-0.03274355	-9.130288e-06	8.641857e-06	0.01037175	0.008664489	-1.074224e-05	9.170885e-06
	-9.130288e-06	8.641857e-06	-0.01109729	-0.03237491	-3.632708e-05	3.156167e-05	0.0102868	0.008821478
	0.01037175	0.008664489	-3.632708e-05	3.156167e-05	-0.009970764	-0.03375766	-1.532728e-05	1.022727e-05
	-1.074224e-05	9.170885e-06	0.0102868	0.008821478	-1.532728e-05	1.022727e-05	-0.01120793	-0.03244756
1.5e+08	-0.01400202	-0.03346209	-8.839302e-06	8.633025e-06	0.01135638	0.008409879	-1.045796e-05	9.163249e-06
	-8.839302e-06	8.633025e-06	-0.0145747	-0.0330092	-3.514028e-05	3.190435e-05	0.01127254	0.008574197
	0.01135638	0.008409879	-3.514028e-05	3.190435e-05	-0.01355855	-0.03449067	-1.479596e-05	1.060222e-05
	-1.045796e-05	9.163249e-06	0.01127254	0.008574197	-1.479596e-05	1.060222e-05	-0.01470313	-0.03307961
1.6e+08	-0.01752804	-0.03377008	-8.530936e-06	8.668851e-06	0.01229182	0.00803136	-1.015489e-05	9.210943e-06
	-8.530936e-06	8.668851e-06	-0.01810149	-0.03323089	-3.387439e-05	3.238375e-05	0.01220953	0.008207149
	0.01229182	0.00803136	-3.387439e-05	3.238375e-05	-0.01719609	-0.03479971	-1.424204e-05	1.099026e-05
	-1.015489e-05	9.210943e-06	0.01220953	0.008207149	-1.424204e-05	1.099026e-05	-0.01824726	-0.03329623
1.7e+08	-0.02105723	-0.03366625	-8.208558e-06	8.735455e-06	0.01316319	0.007536913	-9.83624e-06	9.29815e-06
	-8.208558e-06	8.735455e-06	-0.02162487	-0.03303902	-3.25403e-05	3.295174e-05	0.0130834	0.007727731
	0.01316319	0.007536913	-3.25403e-05	3.295174e-05	-0.02083102	-0.03468511	-1.366784e-05	1.138176e-05
	-9.83624e-06	9.29815e-06	0.0130834	0.007727731	-1.366784e-05	1.138176e-05	-0.02178721	-0.03309663
1.8e+08	-0.02453884	-0.03315553	-7.874198e-06	8.823174e-06	0.01395671	0.006936187	-9.503815e-06	9.413808e-06
	-7.874198e-06	8.823174e-06	-0.02509334	-0.03243916	-3.114464e-05	3.35743e-05	0.01388087	0.007145038
	0.01395671	0.006936187	-3.114464e-05	3.35743e-05	-0.02441207	-0.03415319	-1.307482e-05	1.17698e-05
	-9.503815e-06	9.413808e-06	0.01388087	0.007145038	-1.307482e-05	1.17698e-05	-0.02527113	-0.03248658
1.9e+08	-0.02792377	-0.03224883	-7.529212e-06	8.924939e-06	0.01465991	0.006240431	-9.158675e-06	9.549765e-06
	-7.529212e-06	8.924939e-06	-0.02845716	-0.03144305	-2.969204e-05	3.4226e-05	0.01458996	0.006469704
	0.01465991	0.006240431	-2.969204e-05	3.4226e-05	-0.02788966	-0.0332161	-1.246411e-05	1.214915e-05
	-9.158675e-06	9.549765e-06	0.01458996	0.006469704	-1.246411e-05	1.214915e-05	-0.02864901	-0.03147802
2e+08	-0.03116588	-0.03096267	-7.174027e-06	9.034049e-06	0.01527354	0.005436313	-8.801235e-06	9.699278e-06
	-7.174027e-06	9.034049e-06	-0.03166902	-0.03006829	-2.818597e-05	3.48867e-05	0.01520013	0.005713718
	0.01527354	0.005436313	-2.818597e-05	3.48867e-05	-0.03121726	-0.03189156	-1.183651e-05	1.25153e-05
	-8.801235e-06	9.699278e-06	0.01520013	0.005713718	-1.183651e-05	1.25153e-05	-0.03187327	-0.0300888
2.1e+08	-0.03422042	-0.0293189	-6.810046e-06	9.147601e-06	0.01577368	0.004562604	-8.432245e-06	9.857867e-06
	-6.810046e-06	9.147601e-06	-0.03468458	-0.02833791	-2.662983e-05	3.554074e-05	0.01570244	0.00489023
	0.01577368	0.004562604	-2.662983e-05	3.554074e-05	-0.03434976	-0.0302025	-1.119313e-05	1.286523e-05
	-8.432245e-06	9.857867e-06	0.01570244	0.00489023	-1.119313e-05	1.286523e-05	-0.03489934	-0.0283422
2.2e+08	-0.03704658	-0.02734431	-6.43791e-06	9.262318e-06	0.01615235	0.00363594	-8.052065e-06	1.002154e-05
	-6.43791e-06	9.262318e-06	-0.03746303	-0.02627994	-2.50267e-05	3.617497e-05	0.01608967	0.004013339
	0.01615235	0.00363594	-2.50267e-05	3.617497e-05	-0.03724611	-0.02817679	-1.053492e-05	1.319612e-05
	-8.052065e-06	1.002154e-05	0.01608967	0.004013339	-1.053492e-05	1.319612e-05	-0.0376862	-0.02626656
2.3e+08	-0.03960737	-0.02507019	-6.058129e-06	9.375447e-06	0.01640431	0.002672096	-7.660964e-06	1.018693e-05
	-6.058129e-06	9.375447e-06	-0.03996756	-0.02392692	-2.337972e-05	3.677827e-05	0.01635642	0.003097867
	0.01640431	0.002672096	-2.337972e-05	3.677827e-05	-0.03986915	-0.02584676	-9.862856e-06	1.350552e-05
	-7.660964e-06	1.018693e-05	0.01635642	0.003097867	-9.862856e-06	1.350552e-05	-0.04019688	-0.02389471
2.4e+08	-0.04187011	-0.0225318	-5.67123e-06	9.484698e-06	0.01652631	0.001687304	-7.259265e-06	1.035119e-05
	-5.67123e-06	9.484698e-06	-0.04216584	-0.02131536	-2.169233e-05	3.734114e-05	0.01649917	0.002159134
	0.01652631	0.001687304	-2.169233e-05	3.734114e-05	-0.0421861	-0.02324864	-9.178019e-06	1.379132e-05
	-7.259265e-06	1.035119e-05	0.01649917	0.002159134	-9.178019e-06	1.379132e-05	-0.04239892	-0.02126348
2.5e+08	-0.04380674	-0.01976781	-5.277697e-06	9.588125e-06	0.01651713	0.0006980186	-6.847281e-06	1.051184e-05
	-5.277697e-06	9.588125e-06	-0.04403038	-0.01848518	-1.996815e-05	3.785542e-05	0.0165163	0.001212723
	0.01651713	0.0006980186	-1.996815e-05	3.785542e-05	-0.04416886	-0.02042207	-8.481566e-06	1.405165e-05
	-6.847281e-06	1.051184e-05	0.0165163	0.001212723	-8.481566e-06	1.405165e-05	-0.04426475	-0.01841311
2.6e+08	-0.04539418	-0.01681972	-4.878061e-06	9.683945e-06	0.01637759	-0.0002793374	-6.425388e-06	1.066673e-05
	-4.878061e-06	9.683945e-06	-0.04553889	-0.01547904	-1.821088e-05	3.831276e-05	0.01640812	0.0002742478
	0.01637759	-0.0002793374	-1.821088e-05	3.831276e-05	-0.04579442	-0.01740946	-7.77477e-06	1.428489e-05
	-6.425388e-06	1.066673e-05	0.01640812	0.0002742478	-7.77477e-06	1.428489e-05	-0.04577201	-0.01538661
2.7e+08	-0.04661456	-0.01373128	-4.472828e-06	9.770806e-06	0.01611051	-0.001228615	-5.993988e-06	1.08139e-05
	-4.472828e-06	9.770806e-06	-0.04667443	-0.01234176	-1.642509e-05	3.870814e-05	0.01617684	-0.0006408813
	0.01611051	-0.001228615	-1.642509e-05	3.870814e-05	-0.04704505	-0.01425544	-7.058961e-06	1.448958e-05
	-5.993988e-06	1.08139e-05	0.01617684	-0.0006408813	-7.058961e-06	1.448958e-05	-0.04690378	-0.01222913
2.8e+08	-0.04745546	-0.0105478	-4.062556e-06	9.847471e-06	0.01572067	-0.002134181	-5.553578e-06	1.095165e-05
	-4.062556e-06	9.847471e-06	-0.04742569	-0.009119624	-1.461532e-05	3.903658e-05	0.01582653	-0.00151768
	0.01572067	-0.002134181	-1.461532e-05	3.903658e-05	-0.04790851	-0.01100616	-6.335592e-06	1.466447e-05
	-5.553578e-06	1.095165e-05	0.01582653	-0.00151768	-6.335592e-06	1.466447e-05	-0.0476488	-0.008987288
2.9e+08	-0.04790996	-0.007315537	-3.647833e-06	9.912825e-06	0.01521471	-0.002981147	-5.104713e-06	1.107843e-05
	-3.647833e-06	9.912825e-06	-0.04778703	-0.005859706	-1.278631e-05	3.929363e-05	0.01536304	-0.002341809
	0.01521471	-0.002981147	-1.278631e-05	3.929363e-05	-0.04837817	-0.007708684	-5.606201e-06	1.480847e-05
	-5.104713e-06	1.107843e-05	0.01536304	-0.002341809	-5.606201e-06	1.480847e-05	-0.04800149	-0.005708485
3e+08	-0.04797674	-0.004081041	-3.229271e-06	9.965871e-06	0.01460105	-0.003755583	-4.648002e-06	1.119281e-05
	-3.229271e-06	9.965871e-06	-0.04775852	-0.002609207	-1.094296e-05	3.947556e-05	0.01479392	-0.003099778
	0.01460105	-0.003755583	-1.094296e-05	3.947556e-05	-0.04845304	-0.004410297	-4.872405e-06	1.492065e-05
	-4.648002e-06	1.119281e-05	0.01479392	-0.003099778	-4.872405e-06	1.492065e-05	-0.04796207	-0.002440229
3.1e+08	-0.04765999	-0.0008904845	-2.807537e-06	1.000576e-05	0.01388972	-0.004444725	-4.184144e-06	1.129355e-05
	-2.807537e-06	1.000576e-05	-0.04734589	0.0005852393	-9.090416e-06	3.95794e-05	0.01412829	-0.003779143
	0.01388972	-0.004444725	-9.090416e-06	3.95794e-05	-0.04813771	-0.001157864	-4.135904e-06	1.500027e-05
	-4.184144e-06	1.129355e-05	0.01412829	-0.003779143	-4.135904e-06	1.500027e-05	-0.0475364	0.0007705469
3.2e+08	-0.04696935	0.002210961	-2.383326e-06	1.003172e-05	0.01309224	-0.005037156	-3.713893e-06	1.137952e-05
	-2.383326e-06	1.003172e-05	-0.04656035	0.003678201	-7.233911e-06	3.96028e-05	0.01337669	-0.004368679
	0.01309224	-0.005037156	-7.233911e-06	3.96028e-05	-0.04744227	0.00200281	-3.398456e-06	1.504673e-05
	-3.713893e-06	1.137952e-05	0.01337669	-0.004368679	-3.398456e-06	1.504673e-05	-0.04673592	0.003878139
3.3e+08	-0.04591971	0.005179755	-1.957366e-06	1.004307e-05	0.01222143	-0.005522975	-3.238065e-06	1.144967e-05
	-1.957366e-06	1.004307e-05	-0.04541845	0.006626091	-5.378769e-06	3.954398e-05	0.01255095	-0.004858543
	0.01222143	-0.005522975	-5.378769e-06	3.954398e-05	-0.04638211	0.00502761	-2.661869e-06	1.505959e-05
	-3.238065e-06	1.144967e-05	0.01255095	-0.004858543	-2.661869e-06	1.505959e-05	-0.04557738	0.006838714
3.4e+08	-0.04453096	0.007974589	-1.530428e-06	1.003926e-05	0.01129122	-0.005893938	-2.757541e-06	1.150311e-05
	-1.530428e-06	1.003926e-05	-0.04394176	0.009387783	-3.530383e-06	3.940185e-05	0.01166398	-0.005240415
	0.01129122	-0.005893938	-3.530383e-06	3.940185e-05	-0.04497768	0.007874728	-1.927996e-06	1.50386e-05
	-2.757541e-06	1.150311e-05	0.01166398	-0.005240415	-1.927996e-06	1.50386e-05	-0.04408262	0.009610928
3.5e+08	-0.04282769	0.01055694	-1.103311e-06	1.001978e-05	0.01031642	-0.00614358	-2.273256e-06	1.153905e-05
	-1.103311e-06	1.001978e-05	-0.04215652	0.01192516	-1.694139e-06	3.917583e-05	0.01072964	-0.005507618
	0.01031642	-0.00614358	-1.694139e-06	3.917583e-05	-0.04325416	0.0105052	-1.198717e-06	1.498363e-05
	-2.273256e-06	1.153905e-05	0.01072964	-0.005507618	-1.198717e-06	1.498363e-05	-0.04227819	0.01215648
3.6e+08	-0.04083879	0.0128916	-6.768455e-07	9.984256e-06	0.009312546	-0.006267313	-1.786195e-06	1.15568e-05
	-6.768455e-07	9.984256e-06	-0.04009328	0.01420364	1.246104e-07	3.886592e-05	0.009762455	-0.005655211
	0.009312546	-0.006267313	1.246104e-07	3.886592e-05	-0.04124106	0.01288347	-4.759219e-07	1.489476e-05
	-1.786195e-06	1.15568e-05	0.009762455	-0.005655211	-4.759219e-07	1.489476e-05	-0.04019492	0.01444066
3.7e+08	-0.03859708	0.01494714	-2.518828e-07	9.932356e-06	0.008295556	-0.006262494	-1.297382e-06	1.155579e-05
	-2.518828e-07	9.932356e-06	-0.03778639	0.01619267	1.920595e-06	3.847261e-05	0.008777467	-0.005680071
	0.008295556	-0.006262494	1.920595e-06	3.847261e-05	-0.03897183	0.01497781	2.384983e-07	1.477219e-05
	-1.297382e-06	1.155579e-05	0.008777467	-0.005680071	2.384983e-07	1.477219e-05	-0.0378675	0.0164328
3.8e+08	-0.03613875	0.01669634	1.707037e-07	9.863846e-06	0.007281615	-0.006128467	-8.078771e-07	1.153553e-05
	1.707037e-07	9.863846e-06	-0.03527351	0.01786611	3.688661e-06	3.799687e-05	0.007789988	-0.005580935
	0.007281615	-0.006128467	3.688661e-06	3.799687e-05	-0.03648333	0.01676079	9.426658e-07	1.461627e-05
	-8.078771e-07	1.153553e-05	0.007789988	-0.005580935	9.426658e-07	1.461627e-05	-0.03533394	0.01810669
3.9e+08	-0.03350288	0.01811655	5.900251e-07	9.778569e-06	0.006286859	-0.005866579	-3.187697e-07	1.149567e-05
	5.900251e-07	9.778569e-06	-0.03259507	0.01920257	5.4238e-06	3.744013e-05	0.006815376	-0.005358422
	0.006286859	-0.005866579	5.4238e-06	3.744013e-05	-0.03381531	0.01820965	1.634731e-06	1.442753e-05
	-3.187697e-07	1.149567e-05	0.006815376	-0.005358422	1.634731e-06	1.442753e-05	-0.03263499	0.01944094
4e+08	-0.03073088	0.01919	1.00518e-06	9.676439e-06	0.005327147	-0.005480165	1.688302e-07	1.143594e-05
	1.00518e-06	9.676439e-06	-0.02979364	0.02018576	7.121182e-06	3.680423e-05	0.005868811	-0.005015034
	0.005327147	-0.005480165	7.121182e-06	3.680423e-05	-0.03100984	0.01930654	2.312879e-06	1.420661e-05
	1.688302e-07	1.143594e-05	0.005868811	-0.005015034	2.312879e-06	1.420661e-05	-0.02981359	0.02041928
4.1e+08	-0.02786588	0.01990399	1.415263e-06	9.557457e-06	0.004417822	-0.004974505	6.538022e-07	1.135617e-05
	1.415263e-06	9.557457e-06	-0.02691333	0.02080461	8.776191e-06	3.60914e-05	0.004965064	-0.004555123
	0.004417822	-0.004974505	8.776191e-06	3.60914e-05	-0.02811069	0.0200388	2.975352e-06	1.395431e-05
	6.538022e-07	1.135617e-05	0.004965064	-0.004555123	2.975352e-06	1.395431e-05	-0.02691419	0.02103072
4.2e+08	-0.0249521	0.02025111	1.81937e-06	9.421695e-06	0.003573476	-0.004356752	1.135024e-06	1.125631e-05
	1.81937e-06	9.421695e-06	-0.02399916	0.02105349	1.038444e-05	3.530426e-05	0.004118276	-0.003984831
	0.003573476	-0.004356752	1.038444e-05	3.530426e-05	-0.02516273	0.02039909	3.620454e-06	1.367156e-05
	1.135024e-06	1.125631e-05	0.004118276	-0.003984831	3.620454e-06	1.367156e-05	-0.02398215	0.02126975
4.3e+08	-0.02203423	0.02022926	2.216599e-06	9.269304e-06	0.002807717	-0.003635827	1.611378e-06	1.11364e-05
	2.216599e-06	9.269304e-06	-0.0210964	0.02093222	1.194182e-05	3.444572e-05	0.003341741	-0.003312006
	0.002807717	-0.003635827	1.194182e-05	3.444572e-05	-0.02221128	0.02038551	4.246562e-06	1.335939e-05
	1.611378e-06	1.11364e-05	0.003341741	-0.003312006	4.246562e-06	1.335939e-05	-0.02106303	0.02113633
4.4e+08	-0.01915684	0.01984173	2.60606e-06	9.100494e-06	0.00213296	-0.002822299	2.081755e-06	1.099655e-05
	2.60606e-06	9.100494e-06	-0.01824988	0.02044604	1.344447e-05	3.351897e-05	0.002647697	-0.002546091
	0.00213296	-0.002822299	1.344447e-05	3.351897e-05	-0.01930146	0.02000156	4.852134e-06	1.301898e-05
	2.081755e-06	1.099655e-05	0.002647697	-0.002546091	4.852134e-06	1.301898e-05	-0.01820198	0.02063593
4.5e+08	-0.01636363	0.01909707	2.986873e-06	8.915551e-06	0.001560226	-0.001928221	2.545068e-06	1.083698e-05
	2.986873e-06	8.915551e-06	-0.01550341	0.01960557	1.488882e-05	3.252749e-05	0.00204714	-0.001697988
	0.001560226	-0.001928221	1.488882e-05	3.252749e-05	-0.01647753	0.01925609	5.435719e-06	1.265156e-05
	2.545068e-06	1.083698e-05	0.00204714	-0.001697988	5.435719e-06	1.265156e-05	-0.01544307	0.01977939
4.6e+08	-0.01369694	0.01800901	3.358186e-06	8.714831e-06	0.001098962	-0.000966954	3.000201e-06	1.065795e-05
	3.358186e-06	8.714831e-06	-0.01289908	0.0184266	1.627159e-05	3.147498e-05	0.001549643	-0.0007798975
	0.001098962	-0.000966954	1.627159e-05	3.147498e-05	-0.0137823	0.0181632	5.995744e-06	1.22583e-05
	3.000201e-06	1.065795e-05	0.001549643	-0.0007798975	5.995744e-06	1.22583e-05	-0.0128286	0.0185828
4.7e+08	-0.01119703	0.01659619	3.71916e-06	8.498742e-06	0.0007568845	4.703319e-05	3.446172e-06	1.045989e-05
	3.71916e-06	8.498742e-06	-0.0104767	0.01692982	1.758977e-05	3.03653e-05	0.001163203	0.0001948659
	0.0007568845	4.703319e-05	1.758977e-05	3.03653e-05	-0.01125647	0.01674195	6.530954e-06	1.184069e-05
