!$
! Info: Touchstone file created by Circ.  Input file=Tx_6in_Rx_100ohms_TxVia_10mils_RxVia_20mils.circ
!$
# Hz S RI R 50
0	0.006322853	5.258122e-26	1.772589e-12	1.42656e-28	4.605577e-05	7.911095e-24	-4.730753e-09	5.792636e-25
	1.774204e-12	1.428438e-28	0.00632571	6.035488e-26	-2.409493e-12	2.75352e-28	4.348519e-05	8.959574e-24
	4.610382e-05	7.915719e-24	-2.458534e-12	2.813335e-28	0.006337754	5.273192e-26	-1.296795e-09	1.587597e-25
	-4.728608e-09	5.790008e-25	4.494226e-05	9.22155e-24	-1.29684e-09	1.587653e-25	0.006331324	5.758854e-26
1e+07	0.008878213	0.004294453	3.894128e-12	-5.029433e-12	0.0001369869	0.001146295	-9.068829e-09	1.635399e-08
	3.894192e-12	-5.029704e-12	0.009156166	0.004326354	2.536253e-12	-6.193908e-12	0.0003491323	0.001179715
	0.0001369913	0.001146292	2.536223e-12	-6.193655e-12	0.008551379	0.004462406	-6.596582e-09	1.586556e-08
	-9.068829e-09	1.635399e-08	0.0003491648	0.001179704	-6.596582e-09	1.586556e-08	0.009078707	0.004334161
2e+07	0.01144338	0.006602065	6.312543e-12	-3.811654e-12	0.0003473905	0.002297231	-6.778681e-09	1.366896e-08
	6.312386e-12	-3.811814e-12	0.01168417	0.006555182	7.021678e-12	-5.296689e-12	0.0004730371	0.002439506
	0.0003473897	0.002297228	7.021803e-12	-5.296508e-12	0.01135785	0.006996553	-8.051692e-09	1.231713e-08
	-6.778681e-09	1.366896e-08	0.0004730345	0.002439484	-8.051692e-09	1.231713e-08	0.011631	0.006602624
3e+07	0.01367066	0.007901161	5.550735e-12	-5.024593e-12	0.0006952087	0.003389235	-4.483598e-09	1.22345e-08
	5.550695e-12	-5.024578e-12	0.01387795	0.007829576	5.156717e-12	-8.98828e-12	0.0007530839	0.003567125
	0.0006952087	0.003389235	5.156758e-12	-8.988294e-12	0.01377542	0.008346044	-4.671167e-09	1.277276e-08
	-4.483598e-09	1.22345e-08	0.0007530788	0.003567122	-4.671167e-09	1.277276e-08	0.01384693	0.007893493
4e+07	0.01575217	0.008715508	4.495323e-12	-6.452243e-12	0.001172359	0.004420943	-2.752371e-09	1.130505e-08
	4.495358e-12	-6.452239e-12	0.01592628	0.008632822	4.047103e-12	-1.20987e-11	0.001187409	0.004616009
	0.00117236	0.004420943	4.047065e-12	-1.20987e-11	0.01601712	0.009153171	-2.184696e-09	1.23724e-08
	-2.752371e-09	1.130505e-08	0.001187409	0.00461601	-2.184696e-09	1.23724e-08	0.01591659	0.008704186
5e+07	0.01774154	0.009169926	3.85527e-12	-9.988734e-12	0.001769281	0.005379597	-1.423636e-09	1.097226e-08
	3.855288e-12	-9.988738e-12	0.01788197	0.009084039	3.372342e-12	-1.744045e-11	0.00184677	0.005551263
	0.001769282	0.005379596	3.372321e-12	-1.744044e-11	0.01814217	0.009564203	-9.371087e-10	1.242183e-08
	-1.423636e-09	1.097226e-08	0.00184677	0.005551263	-9.371087e-10	1.242183e-08	0.01789162	0.009157716
6e+07	0.01965385	0.009323571	2.027793e-12	-1.726485e-11	0.002475281	0.006252444	-3.833024e-11	1.170835e-08
	2.027782e-12	-1.726482e-11	0.01976035	0.009241351	5.615943e-12	-2.586991e-11	0.002599205	0.006390208
	0.002475283	0.006252444	5.615962e-12	-2.586995e-11	0.02016737	0.009647818	-1.865902e-09	1.399617e-08
	-3.83302e-11	1.170835e-08	0.002599202	0.006390209	-1.865902e-09	1.399617e-08	0.01978805	0.009313848
7e+07	0.02148904	0.009212334	-1.331445e-11	-3.985193e-11	0.003289077	0.007022694	3.707372e-09	1.598782e-08
	-1.331446e-11	-3.98518e-11	0.02156183	0.009140109	3.69364e-11	-4.670451e-12	0.003433856	0.007124372
	0.003289078	0.007022694	3.693651e-11	-4.670508e-12	0.02209278	0.009445376	-1.191803e-08	1.218766e-08
	3.707373e-09	1.598782e-08	0.003433851	0.007124374	-1.191803e-08	1.218766e-08	0.02160645	0.009207987
8e+07	0.02324044	0.008862451	-4.764577e-10	4.038974e-10	0.004186241	0.007683836	2.895305e-08	-2.021811e-08
	-4.764574e-10	4.038973e-10	0.02328025	0.008806202	-3.427356e-11	-1.579038e-12	0.004338086	0.007745491
	0.004186242	0.007683835	-3.42735e-11	-1.579027e-12	0.02391072	0.008986344	-6.76852e-09	-6.49826e-10
	2.895305e-08	-2.021811e-08	0.004338081	0.007745495	-6.76852e-09	-6.498262e-10	0.02334003	0.008865995
9e+07	0.02489882	0.008296449	-2.974694e-11	-7.579976e-11	0.005152128	0.008227967	4.3437e-10	-3.465557e-09
	-2.974689e-11	-7.579981e-11	0.02490712	0.0082621	-2.637483e-11	-2.477015e-11	0.005297541	0.008245865
	0.005152129	0.008227967	-2.637484e-11	-2.477015e-11	0.0256092	0.008293923	-1.628255e-09	-5.205552e-10
	4.343701e-10	-3.465557e-09	0.005297538	0.008245868	-1.628255e-09	-5.205552e-10	0.0249794	0.008310634
1e+08	0.02646051	0.007543098	-1.979519e-11	-1.198026e-11	0.006174178	0.008651135	-2.003931e-11	-3.032811e-12
	-1.979519e-11	-1.198026e-11	0.02644028	0.007537593	-2.649012e-11	-2.862132e-11	0.006293602	0.008615161
	0.006174178	0.008651135	-2.649012e-11	-2.862132e-11	0.02717028	0.007383595	-2.781642e-11	-1.210243e-11
	-2.003931e-11	-3.032811e-12	0.006293602	0.008615161	-2.781642e-11	-1.210243e-11	0.02652098	0.007571319
1.1e+08	0.02793928	0.006557336	-2.190111e-11	-8.984426e-12	0.007244121	0.008932474	-2.221071e-11	1.307661e-12
	-2.190111e-11	-8.984426e-12	0.02789693	0.006582648	-3.084082e-11	-2.60798e-11	0.007298115	0.008874487
	0.007244121	0.008932474	-3.084082e-11	-2.60798e-11	0.02856814	0.006298643	-3.11421e-11	-7.153917e-12
	-2.221071e-11	1.307661e-12	0.007298115	0.008874487	-3.11421e-11	-7.153917e-12	0.02798063	0.006604747
1.2e+08	0.02925667	0.005385184	-2.331307e-11	-6.407021e-12	0.008327094	0.009073127	-2.366905e-11	4.292436e-12
	-2.331307e-11	-6.407021e-12	0.02919331	0.005442738	-3.344253e-11	-2.464137e-11	0.00832506	0.00901632
	0.008327094	0.009073127	-3.344253e-11	-2.464137e-11	0.02982045	0.005064222	-3.336243e-11	-2.926508e-12
	-2.366905e-11	4.292436e-12	0.00832506	0.00901632	-3.336243e-11	-2.926508e-12	0.02928006	0.005454628
1.3e+08	0.03041007	0.004059075	-2.44334e-11	-5.293049e-12	0.00940875	0.009076492	-2.490621e-11	6.427018e-12
	-2.44334e-11	-5.293049e-12	0.03032794	0.004151552	-3.491472e-11	-2.449141e-11	0.009355368	0.009033408
	0.00940875	0.009076492	-3.491472e-11	-2.449141e-11	0.0309132	0.003692014	-3.498976e-11	-6.800187e-13
	-2.490621e-11	6.427018e-12	0.009355368	0.009033408	-3.498976e-11	-6.800187e-13	0.03041693	0.004153457
1.4e+08	0.03139135	0.00260159	-2.53705e-11	-3.870694e-12	0.01047298	0.008944908	-2.594995e-11	8.913127e-12
	-2.53705e-11	-3.870694e-12	0.03129321	0.002731709	-3.624987e-11	-2.396104e-11	0.01037271	0.008925298
	0.01047298	0.008944908	-3.624987e-11	-2.396104e-11	0.03183653	0.002199906	-3.634296e-11	2.023665e-12
	-2.594995e-11	8.913127e-12	0.01037271	0.008925298	-3.634296e-11	2.023665e-12	0.03138351	0.002723742
1.5e+08	0.03219255	0.001034253	-2.60758e-11	-2.193963e-12	0.01150373	0.008682233	-2.674442e-11	1.169339e-11
	-2.60758e-11	-2.193963e-12	0.03208163	0.001204547	-3.737905e-11	-2.311461e-11	0.01136136	0.008694201
	0.01150373	0.008682233	-3.737905e-11	-2.311461e-11	0.03258203	0.0006070761	-3.734792e-11	5.10313e-12
	-2.674442e-11	1.169339e-11	0.01136136	0.008694201	-3.734792e-11	5.10313e-12	0.03217224	0.00118685
1.6e+08	0.03280674	-0.0006214808	-2.650992e-11	-3.089543e-13	0.01248541	0.008294079	-2.724395e-11	1.471798e-11
	-2.650992e-11	-3.089543e-13	0.03268672	-0.000408784	-3.825237e-11	-2.200673e-11	0.01230622	0.008344479
	0.01248541	0.008294079	-3.825237e-11	-2.200673e-11	0.03314275	-0.001066502	-3.794556e-11	8.487641e-12
	-2.724395e-11	1.471798e-11	0.01230622	0.008344479	-3.794556e-11	8.487641e-12	0.03277667	-0.000436017
1.7e+08	0.03322852	-0.002343953	-2.66406e-11	1.738801e-12	0.01340318	0.007787833	-2.74107e-11	1.793773e-11
	-2.66406e-11	1.738801e-12	0.03310346	-0.002087041	-3.883156e-11	-2.069026e-11	0.01319295	0.007882419
	0.01340318	0.007787833	-3.883156e-11	-2.069026e-11	0.03351333	-0.002800256	-3.808823e-11	1.210718e-11
	-2.74107e-11	1.793773e-11	0.01319295	0.007882419	-3.808823e-11	1.210718e-11	0.03319179	-0.002123545
1.8e+08	0.03345424	-0.004111292	-2.644197e-11	3.902687e-12	0.01424318	0.007172589	-2.72139e-11	2.130233e-11
	-2.644197e-11	3.902687e-12	0.03332853	-0.003808855	-3.90876e-11	-1.92184e-11	0.01400813	0.00731607
	0.01424318	0.007172589	-3.90876e-11	-1.92184e-11	0.03369028	-0.00457316	-3.773852e-11	1.589012e-11
	-2.72139e-11	2.130233e-11	0.01400813	0.00731607	-3.773852e-11	1.589012e-11	0.03341433	-0.003854281
1.9e+08	0.03348221	-0.005901514	-2.589309e-11	6.130239e-12	0.01499275	0.006459034	-2.662936e-11	2.476027e-11
	-2.589309e-11	6.130239e-12	0.03336054	-0.005552811	-3.900003e-11	-1.76452e-11	0.01473953	0.006655083
	0.01499275	0.006459034	-3.900003e-11	-1.76452e-11	0.03367201	-0.006363935	-3.686904e-11	1.976262e-11
	-2.662936e-11	2.476027e-11	0.01473953	0.006655083	-3.686904e-11	1.976262e-11	0.03344289	-0.005606731
2e+08	0.03331279	-0.007692693	-2.49817e-11	8.372368e-12	0.01564063	0.005659297	-2.56391e-11	2.825673e-11
	-2.49817e-11	8.372368e-12	0.03320003	-0.007297623	-3.855602e-11	-1.602565e-11	0.01537618	0.005910548
	0.01564063	0.005659297	-3.855602e-11	-1.602565e-11	0.03345903	-0.008151257	-3.54624e-11	2.364899e-11
	-2.56391e-11	2.825673e-11	0.01537618	0.005910548	-3.54624e-11	2.364899e-11	0.0332781	-0.007359512
2.1e+08	0.03294848	-0.009463157	-2.370265e-11	1.058213e-11	0.01617714	0.004786775	-2.423353e-11	3.173596e-11
	-2.370265e-11	1.058213e-11	0.03284961	-0.009022298	-3.77503e-11	-1.441525e-11	0.01590859	0.005094813
	0.01617714	0.004786775	-3.77503e-11	-1.441525e-11	0.03305394	-0.00991399	-3.351134e-11	2.747239e-11
	-2.423353e-11	3.173596e-11	0.01590859	0.005094813	-3.351134e-11	2.747239e-11	0.0329226	-0.009091548
2.2e+08	0.03239392	-0.0111917	-2.205587e-11	1.270852e-11	0.01659431	0.003855935	-2.240959e-11	3.514176e-11
	-2.205587e-11	1.270852e-11	0.03231393	-0.01070634	-3.65855e-11	-1.286896e-11	0.01632888	0.004221294
	0.01659431	0.003855935	-3.65855e-11	-1.286896e-11	0.03246148	-0.0116314	-3.101868e-11	3.115581e-11
	-2.240959e-11	3.514176e-11	0.01632888	0.004221294	-3.101868e-11	3.115581e-11	0.03238111	-0.01078225
2.3e+08	0.03165588	-0.0128578	-2.004783e-11	1.470081e-11	0.01688598	0.002882099	-2.017118e-11	3.841791e-11
	-2.004783e-11	1.470081e-11	0.03159967	-0.01232995	-3.507167e-11	-1.144053e-11	0.01663086	0.003304265
	0.01688598	0.002882099	-3.507167e-11	-1.144053e-11	0.03168849	-0.01328341	-2.799719e-11	3.462313e-11
	-2.017118e-11	3.841791e-11	0.01663086	0.003304266	-2.799719e-11	3.462313e-11	0.0316604	-0.01241174
2.4e+08	0.0307432	-0.01444185	-1.769156e-11	1.650924e-11	0.01704797	0.001881214	-1.752936e-11	4.150883e-11
	-1.769156e-11	1.650924e-11	0.03071544	-0.01387426	-3.32262e-11	-1.018182e-11	0.01681017	0.002358645
	0.01704797	0.001881214	-3.32262e-11	-1.018182e-11	0.03074386	-0.0148508	-2.446963e-11	3.780012e-11
	-1.752936e-11	4.150883e-11	0.01681017	0.002358645	-2.446963e-11	3.780012e-11	0.03076917	-0.01396105
2.5e+08	0.02966669	-0.01592536	-1.500638e-11	1.808579e-11	0.01707806	0.0008696084	-1.450195e-11	4.436038e-11
	-1.500638e-11	1.808579e-11	0.02967175	-0.01532146	-3.107335e-11	-9.141809e-12	0.0168643	0.001399769
	0.01707806	0.0008696084	-3.107335e-11	-9.141809e-12	0.02963845	-0.01631548	-2.046823e-11	4.061563e-11
	-1.450195e-11	4.436038e-11	0.0168643	0.001399769	-2.046823e-11	4.061563e-11	0.02971804	-0.01541233
2.6e+08	0.02843902	-0.01729119	-1.201776e-11	1.938484e-11	0.01697607	-0.0001362482	-1.111355e-11	4.692053e-11
	-1.201776e-11	1.938484e-11	0.02848087	-0.01665509	-2.864397e-11	-8.365843e-12	0.01679264	0.0004431549
	0.01697607	-0.0001362482	-2.864397e-11	-8.365843e-12	0.02838495	-0.01766065	-1.603443e-11	4.30026e-11
	-1.111355e-11	4.692053e-11	0.01679264	0.0004431549	-1.603443e-11	4.30026e-11	0.02851938	-0.01674904
2.7e+08	0.0270746	-0.01852373	-8.756968e-12	2.036388e-11	0.01674383	-0.00112	-7.395168e-12	4.914008e-11
	-8.756968e-12	2.036388e-11	0.02715665	-0.01786014	-2.597486e-11	-7.89482e-12	0.01659651	-0.0004957249
	0.01674383	-0.00112	-2.597486e-11	-7.89482e-12	0.02699778	-0.01887103	-1.12183e-11	4.48991e-11
	-7.395168e-12	4.914008e-11	0.01659651	-0.0004957249	-1.12183e-11	4.48991e-11	0.02718719	-0.01795615
2.8e+08	0.02558935	-0.01960906	-5.260746e-12	2.098424e-11	0.0163852	-0.00206565	-3.383987e-12	5.097344e-11
	-5.260746e-12	2.098424e-11	0.02571444	-0.01892324	-2.310836e-11	-7.764505e-12	0.0162791	-0.001401682
	0.0163852	-0.00206565	-2.310836e-11	-7.764505e-12	0.02549287	-0.01993304	-6.078041e-12	4.624944e-11
	-3.383987e-12	5.097344e-11	0.0162791	-0.001401682	-6.078041e-12	4.624944e-11	0.02573694	-0.01902025
2.9e+08	0.02400058	-0.02053512	-1.57083e-12	2.121166e-11	0.01590596	-0.002957806	8.770459e-13	5.237926e-11
	-1.57083e-12	2.121166e-11	0.02417084	-0.01983281	-2.009154e-11	-8.004818e-12	0.01584543	-0.00226004
	0.01590596	-0.002957806	-2.009154e-11	-8.004818e-12	0.02388749	-0.02083493	-6.791536e-13	4.700503e-11
	8.770459e-13	5.237926e-11	0.01584543	-0.00226004	-6.791536e-13	4.700503e-11	0.02418537	-0.01992974
3e+08	0.02232673	-0.02129187	2.266589e-12	2.101692e-11	0.01531376	-0.003781912	5.339695e-12	5.332104e-11
	2.266589e-12	2.101692e-11	0.02254353	-0.02057916	-1.697546e-11	-8.63924e-12	0.01530232	-0.003056854
	0.01531376	-0.003781912	-1.697546e-11	-8.63924e-12	0.02220003	-0.02156696	4.906356e-12	4.712524e-11
	5.339695e-12	5.332104e-11	0.01530232	-0.003056854	4.906356e-12	4.712524e-11	0.0225503	-0.02067498
3.1e+08	0.02058718	-0.02187137	6.201409e-12	2.037639e-11	0.01461798	-0.004524471	9.950905e-12	5.376789e-11
	6.201409e-12	2.037639e-11	0.02085108	-0.02115463	-1.381441e-11	-9.684326e-12	0.0146582	-0.003779124
	0.01461798	-0.004524471	-1.381441e-11	-9.684326e-12	0.02044984	-0.02212147	1.060086e-11	4.657838e-11
	9.950905e-12	5.376789e-11	0.0146582	-0.003779124	1.060086e-11	4.657838e-11	0.02085044	-0.02124829
3.2e+08	0.01880203	-0.02226787	1.01803e-11	1.927247e-11	0.0138296	-0.005173255	1.465343e-11	5.3695e-11
	1.01803e-11	1.927247e-11	0.01911269	-0.02155364	-1.066495e-11	-1.114928e-11	0.01392308	-0.004414988
	0.0138296	-0.005173255	-1.066495e-11	-1.114928e-11	0.01865689	-0.02249299	1.63222e-11	4.534223e-11
	1.465343e-11	5.3695e-11	0.01392308	-0.004414988	1.63222e-11	4.534223e-11	0.01910512	-0.02164417
3.3e+08	0.01699178	-0.02247789	1.414743e-11	1.769399e-11	0.01296102	-0.005717488	1.938648e-11	5.308418e-11
	1.414743e-11	1.769399e-11	0.017348	-0.02177275	-7.584899e-12	-1.303566e-11	0.01310832	-0.004953906
	0.01296102	-0.005717488	-7.584899e-12	-1.303566e-11	0.01684163	-0.02267832	2.198477e-11	4.340472e-11
	1.938648e-11	5.308418e-11	0.01310832	-0.004953906	2.198477e-11	4.340472e-11	0.01733411	-0.02185923
3.4e+08	0.01517718	-0.02250026	1.804516e-11	1.563663e-11	0.01202588	-0.006148012	2.408644e-11	5.192444e-11
	1.804516e-11	1.563663e-11	0.01557683	-0.02181071	-4.6325e-12	-1.533719e-11	0.0122265	-0.005386817
	0.01202588	-0.006148012	-4.6325e-12	-1.533719e-11	0.01502466	-0.02267651	2.750076e-11	4.076453e-11
	2.408644e-11	5.192444e-11	0.0122265	-0.005386817	2.750076e-11	4.076453e-11	0.01555736	-0.0218923
3.5e+08	0.01337889	-0.0223361	2.181493e-11	1.310307e-11	0.01103886	-0.006457432	2.86877e-11	5.021231e-11
	2.181493e-11	1.310307e-11	0.01381895	-0.02166842	-1.86525e-12	-1.803972e-11	0.0112912	-0.005706275
	0.01103886	-0.006457432	-1.86525e-12	-1.803972e-11	0.01322653	-0.02248893	3.278142e-11	3.74313e-11
	2.86877e-11	5.021231e-11	0.0112912	-0.005706275	3.278142e-11	3.74313e-11	0.01379473	-0.02174439
3.6e+08	0.0116173	-0.02198882	2.539834e-11	1.010297e-11	0.01001542	-0.006640226	3.312311e-11	4.795202e-11
	2.539834e-11	1.010297e-11	0.01209385	-0.02134898	6.610583e-13	-2.112126e-11	0.01031684	-0.005906566
	0.01001542	-0.006640226	6.610583e-13	-2.112126e-11	0.01146747	-0.02211919	3.773827e-11	3.342597e-11
	3.312311e-11	4.795202e-11	0.01031684	-0.005906566	3.773827e-11	3.342597e-11	0.01206583	-0.0214187
3.7e+08	0.009912234	-0.02146404	2.873716e-11	6.653613e-12	0.00897161	-0.006692833	3.7326e-11	4.515641e-11
	2.873716e-11	6.653613e-12	0.01042049	-0.02085756	2.893422e-12	-2.455219e-11	0.009318401	-0.00598379
	0.00897161	-0.006692833	2.893422e-12	-2.455219e-11	0.00976713	-0.02157313	4.228501e-11	2.878086e-11
	3.7326e-11	4.515641e-11	0.009318401	-0.00598379	4.228501e-11	2.878086e-11	0.01038969	-0.02092053
3.8e+08	0.008282696	-0.02076957	3.177507e-11	2.779345e-12	0.007923784	-0.006613709	4.123022e-11	4.184631e-11
	3.177507e-11	2.779345e-12	0.008817111	-0.02020139	4.782632e-12	-2.829563e-11	0.008311255	-0.005935926
	0.007923784	-0.006613709	4.782632e-12	-2.829563e-11	0.00814435	-0.02085872	4.633853e-11	2.353944e-11
	4.123022e-11	4.184631e-11	0.008311255	-0.005935926	4.633853e-11	2.353944e-11	0.008784614	-0.02025725
3.9e+08	0.006746684	-0.01991526	3.445826e-11	-1.488427e-12	0.006888369	-0.006403348	4.477136e-11	3.805082e-11
	3.445826e-11	-1.488427e-12	0.007300961	-0.01938965	6.28425e-12	-3.230789e-11	0.007310889	-0.005762857
	0.006888369	-0.006403347	6.28425e-12	-3.230789e-11	0.00661693	-0.01998598	4.982046e-11	1.775603e-11
	4.477136e-11	3.805082e-11	0.007310889	-0.005762857	4.982046e-11	1.775603e-11	0.007267905	-0.01943816
4e+08	0.005320927	-0.01891286	3.673636e-11	-6.111498e-12	0.005881604	-0.006064279	4.788783e-11	3.38072e-11
	3.673636e-11	-6.111498e-12	0.005888137	-0.01843331	7.35955e-12	-3.653906e-11	0.006332685	-0.005466376
	0.005881604	-0.006064279	7.35955e-12	-3.653906e-11	0.005201399	-0.01896679	5.265861e-11	1.149538e-11
	4.788783e-11	3.38072e-11	0.006332685	-0.005466376	5.265861e-11	1.149538e-11	0.005855686	-0.01847441
4.1e+08	0.004020706	-0.01777592	3.856323e-11	-1.10452e-11	0.00491929	-0.005601027	5.052196e-11	2.916068e-11
	3.856323e-11	-1.10452e-11	0.004593369	-0.01734504	7.976359e-12	-4.093379e-11	0.005391687	-0.005050153
	0.00491929	-0.005601027	7.976359e-12	-4.093379e-11	0.003912825	-0.01781483	5.47884e-11	4.8319e-12
	5.052196e-11	2.916068e-11	0.005391687	-0.005050153	5.47884e-11	4.8319e-12	0.004562699	-0.0173788
4.2e+08	0.00285964	-0.01651955	3.989783e-11	-1.62389e-11	0.004016547	-0.005020042	5.2621e-11	2.416399e-11
	3.989783e-11	-1.62389e-11	0.003429851	-0.01613901	8.109831e-12	-4.543209e-11	0.004502371	-0.004519685
	0.004016547	-0.005020042	8.109831e-12	-4.543209e-11	0.002764615	-0.01654529	5.61542e-11	-2.151151e-12
	5.2621e-11	2.416399e-11	0.004502371	-0.004519685	5.61542e-11	-2.151151e-12	0.003402126	-0.01616566
4.3e+08	0.00184955	-0.01516028	4.0705e-11	-2.163655e-11	0.003187581	-0.004329603	5.413816e-11	1.887689e-11
	4.0705e-11	-2.163655e-11	0.002409086	-0.01483073	7.743111e-12	-4.997031e-11	0.003678422	-0.003882208
	0.003187581	-0.004329603	7.743111e-12	-4.997031e-11	0.001768363	-0.01517478	5.671056e-11	-9.362824e-12
	5.413816e-11	1.887689e-11	0.003678422	-0.003882208	5.671056e-11	-9.362824e-12	0.002385445	-0.01485064
4.4e+08	0.001000289	-0.0137158	4.095608e-11	-2.717739e-11	0.002445464	-0.003539685	5.503353e-11	1.336547e-11
	4.095608e-11	-2.717739e-11	0.001540753	-0.01343682	6.867873e-12	-5.448223e-11	0.002932528	-0.003146585
	0.002445464	-0.003539685	6.867873e-12	-5.448223e-11	0.0009337046	-0.01372103	5.642324e-11	-1.670571e-11
	5.503353e-11	1.336547e-11	0.002932528	-0.003146585	5.642324e-11	-1.670571e-11	0.001522284	-0.01345054
4.5e+08	0.0003196464	-0.01220476	4.062966e-11	-3.279672e-11	0.001801931	-0.002661813	5.527502e-11	7.701336e-12
	4.062966e-11	-3.279672e-11	0.0008325934	-0.01197484	5.484709e-12	-5.890012e-11	0.002276186	-0.002323173
	0.001801931	-0.002661813	5.484709e-12	-5.890012e-11	0.0002682007	-0.01220273	5.527026e-11	-2.40774e-11
	5.527502e-11	7.701336e-12	0.002276186	-0.002323173	5.527026e-11	-2.40774e-11	0.0008203188	-0.01198303
4.6e+08	-0.0001867609	-0.01064651	3.971208e-11	-3.842663e-11	0.001267198	-0.001708879	5.483915e-11	1.960651e-12
	3.971208e-11	-3.842663e-11	0.0002903297	-0.01046302	3.60291e-12	-6.315811e-11	0.001719528	-0.001423663
	0.001267198	-0.001708879	3.60291e-12	-6.315811e-11	-0.0002227472	-0.01063921	5.32404e-11	-3.137045e-11
	5.483915e-11	1.960651e-12	0.001719528	-0.001423663	5.32404e-11	-3.137045e-11	0.0002851847	-0.01046649
4.7e+08	-0.0005155404	-0.009060859	3.819795e-11	-4.399682e-11	0.0008498066	-0.0006949436	5.371139e-11	-3.776191e-12
	3.819795e-11	-4.399682e-11	-8.239914e-05	-0.008920077	1.238044e-12	-6.719612e-11	0.00127117	-0.0004609013
	0.0008498066	-0.0006949436	1.238044e-12	-6.719612e-11	-0.0005359442	-0.009050265	5.032991e-11	-3.84656e-11
	5.371139e-11	-3.776191e-12	0.00127117	-0.0004609013	5.032991e-11	-3.84656e-11	-7.955574e-05	-0.008919726
