!$
! Info: Touchstone file created by Circ.  Input file=Tx_8in_Rx_85ohms_TxVia_10mils_RxVia_20mils.circ
!$
# Hz S RI R 50
0	0.006522123	6.003727e-26	0.9933468	-6.21645e-26	5.489954e-05	6.632045e-24	-5.333574e-05	1.227245e-21
	0.9933468	-6.27069e-26	0.006521727	7.639495e-26	-5.320439e-05	1.211293e-21	5.433803e-05	9.23979e-24
	5.717307e-05	6.647387e-24	-5.315217e-05	1.204936e-21	0.0065147	5.240885e-26	0.9933168	-5.554419e-26
	-5.374551e-05	1.277464e-21	5.579502e-05	9.509961e-24	0.9933168	-5.810153e-26	0.006527339	7.286897e-26
1e+07	0.008530007	-0.007422709	0.9867094	-0.08654598	0.0002375209	0.001488762	-8.57204e-05	4.652726e-05
	0.9867094	-0.08654598	0.008524085	-0.007423081	-8.574205e-05	4.655079e-05	0.0002348057	0.001489469
	0.0002375689	0.001488735	-8.570451e-05	4.652868e-05	0.008519444	-0.00741722	0.9867123	-0.08664084
	-8.568286e-05	4.650515e-05	0.0002348381	0.001489457	0.9867123	-0.08664084	0.008513594	-0.007417684
2e+07	0.008826806	-0.01699493	0.9728724	-0.169694	0.0006444426	0.002884022	-5.541422e-05	0.0001214833
	0.9728724	-0.169694	0.008803581	-0.01699307	-5.540323e-05	0.0001215084	0.0006339502	0.002887015
	0.0006444342	0.002883997	-5.540512e-05	0.00012148	0.008820842	-0.01697606	0.972843	-0.1698887
	-5.540717e-05	0.0001214476	0.0006339471	0.002886994	0.972843	-0.1698887	0.008798105	-0.01697414
3e+07	0.006728979	-0.02728535	0.952841	-0.2501499	0.001269486	0.004175123	2.229966e-05	0.0001825356
	0.952841	-0.2501499	0.006677543	-0.02727571	2.230287e-05	0.000182538	0.001246792	0.004183085
	0.001269487	0.004175119	2.229997e-05	0.000182534	0.006725918	-0.02725787	0.9527666	-0.250432
	2.229716e-05	0.0001825295	0.001246786	0.004183082	0.9527666	-0.250432	0.006676294	-0.02724834
4e+07	0.002610807	-0.03728149	0.9265231	-0.3280906	0.002093421	0.005330483	0.0001367348	0.0002119057
	0.9265231	-0.3280906	0.002521873	-0.03725576	0.0001367328	0.000211908	0.002054838	0.005347155
	0.002093425	0.005330479	0.0001367358	0.0002119086	0.002609563	-0.037248	0.9263906	-0.3284526
	0.000136739	0.0002119098	0.002054838	0.005347156	0.9263906	-0.3284526	0.002523668	-0.03722318
5e+07	-0.003286296	-0.04653986	0.894062	-0.4031483	0.003089049	0.006319869	0.0002754786	0.0001972814
	0.894062	-0.4031483	-0.003419831	-0.04648753	0.0002754827	0.0001972729	0.00303189	0.006349855
	0.003089051	0.006319867	0.0002754843	0.0001972727	-0.003288134	-0.04650102	0.8938582	-0.4035813
	0.0002754818	0.0001972832	0.00303189	0.006349856	0.8938582	-0.4035813	-0.003417347	-0.04645035
6e+07	-0.01072813	-0.05473781	0.8556997	-0.4748884	0.004223997	0.007118179	0.0004235674	0.0001309183
	0.8556997	-0.4748884	-0.01091075	-0.05464675	0.0004235672	0.0001308841	0.004146729	0.007166686
	0.004223997	0.00711818	0.0004235641	0.0001308854	-0.01073232	-0.05469286	0.8554127	-0.4753818
	0.0004235619	0.000130918	0.004146726	0.007166687	0.8554127	-0.4753818	-0.01090883	-0.05460444
7e+07	-0.01946424	-0.06162315	0.8117425	-0.5428747	0.005462198	0.007706512	0.0005647925	9.740922e-06
	0.8117425	-0.5428747	-0.01969752	-0.0614802	0.0005647704	9.681746e-06	0.005364526	0.007779085
	0.005462199	0.007706517	0.000564764	9.686437e-06	-0.01947176	-0.06157097	0.8113619	-0.5434164
	0.0005647781	9.742584e-06	0.005364521	0.007779088	0.8113619	-0.5434164	-0.01969699	-0.06143241
8e+07	-0.02922499	-0.0670016	0.7625463	-0.6066924	0.006765272	0.008072822	0.0006827915	-0.0001649221
	0.7625463	-0.6066924	-0.02950745	-0.06679328	0.0006827389	-0.0001649927	0.006648171	0.008175087
	0.006765274	0.008072827	0.0006827322	-0.0001649853	-0.02923642	-0.06694113	0.7620633	-0.6072695
	0.0006827737	-0.0001649168	0.006648167	0.008175092	0.7620633	-0.6072695	-0.02950934	-0.06673955
9e+07	-0.03972513	-0.07073335	0.708506	-0.6659597	0.008094049	0.00821234	0.0007618465	-0.0003877879
	0.708506	-0.6659597	-0.04005228	-0.07044644	0.0007617702	-0.0003878546	0.007959767	0.008349755
	0.008094051	0.008212343	0.0007617661	-0.0003878481	-0.03974093	-0.0706635	0.7079134	-0.6665583
	0.0007618334	-0.0003877817	0.007959764	0.008349759	0.7079134	-0.6665583	-0.04005777	-0.07038577
1e+08	-0.05067159	-0.0727334	0.65005	-0.7203322	0.009411439	0.008129034	0.0007859869	-0.0006517267
	0.65005	-0.7203322	-0.05103602	-0.0723556	0.0007859072	-0.0006517832	0.009263458	0.008306631
	0.009411439	0.008129034	0.0007859073	-0.0006517835	-0.05069223	-0.07265316	0.6493423	-0.7209372
	0.000785987	-0.0006517269	0.009263458	0.008306631	0.6493423	-0.7209372	-0.05104616	-0.07228645
1.1e+08	-0.06176974	-0.07296197	0.5876341	-0.7695291	0.01068483	0.00781932	0.0007389126	-0.0009291568
	0.5876341	-0.7695291	-0.06216192	-0.07248102	0.0007387736	-0.0009292096	0.01052721	0.008041088
	0.01068483	0.00781932	0.0007387736	-0.0009292098	-0.06179451	-0.07286824	0.5868068	-0.770126
	0.0007389127	-0.000929157	0.01052721	0.008041087	0.5868068	-0.770126	-0.06217597	-0.07240082
1.2e+08	-0.07271452	-0.07142311	0.5217028	-0.8132887	0.01186574	0.007301963	0.0006289035	-0.001209973
	0.5217028	-0.8132887	-0.07312101	-0.07083048	0.000628716	-0.001210003	0.01170435	0.007571634
	0.01186574	0.007301963	0.000628716	-0.001210003	-0.07274251	-0.07131392	0.5207536	-0.8138613
	0.0006289035	-0.001209973	0.01170435	0.007571634	0.5207536	-0.8138613	-0.07313783	-0.07073742
1.3e+08	-0.08322289	-0.0681823	0.4527335	-0.8513946	0.01292492	0.006600044	0.0004508233	-0.0014808
	0.4527335	-0.8513946	-0.08362853	-0.06747209	0.0004505967	-0.001480796	0.01276641	0.006920013
	0.01292493	0.006600044	0.0004505967	-0.001480797	-0.08325264	-0.06805583	0.4516621	-0.8519266
	0.0004508233	-0.001480801	0.01276641	0.006920013	0.4516621	-0.8519266	-0.08364674	-0.06736473
1.4e+08	-0.09302886	-0.06334643	0.3812071	-0.8836755	0.01383599	0.005738803	0.0002054356	-0.001725515
	0.3812071	-0.8836755	-0.09341723	-0.06251572	0.0002051772	-0.001725469	0.01368749	0.006110072
	0.01383599	0.005738803	0.0002051771	-0.001725469	-0.09305831	-0.0632012	0.380015	-0.8841506
	0.0002054356	-0.001725515	0.01368749	0.006110072	0.380015	-0.8841506	-0.09343505	-0.06239289
1.5e+08	-0.1018908	-0.05706147	0.3076057	-0.9100004	0.01457715	0.004746579	-0.0001022062	-0.001928268
	0.3076057	-0.9100004	-0.1022447	-0.0561105	-0.0001024905	-0.001928173	0.01444607	0.005168708
	0.01457715	0.004746578	-0.0001024905	-0.001928173	-0.1019174	-0.05689646	0.3062961	-0.9104025
	-0.0001022062	-0.001928268	0.01444607	0.005168708	0.3062961	-0.9104025	-0.10226	-0.05597144
1.6e+08	-0.1095964	-0.04950762	0.2324094	-0.9302761	0.01513164	0.003654118	-0.0004632226	-0.00207464
	0.2324094	-0.9302761	-0.1098986	-0.04843994	-0.0004635264	-0.002074487	0.01502538	0.004125194
	0.01513164	0.003654118	-0.0004635264	-0.002074487	-0.1096172	-0.04932243	0.2309872	-0.9305892
	-0.0004632227	-0.00207464	0.01502538	0.004125194	0.2309872	-0.9305892	-0.1099091	-0.04828436
1.7e+08	-0.1159671	-0.04089385	0.1560939	-0.9444444	0.01548791	0.002493769	-0.0008654622	-0.00215253
	0.1560939	-0.9444444	-0.1162007	-0.03971641	-0.0008657775	-0.002152312	0.01541359	0.003010409
	0.01548791	0.002493769	-0.0008657776	-0.002152312	-0.1159791	-0.04068876	0.1545658	-0.9446531
	-0.0008654623	-0.00215253	0.01541359	0.003010409	0.1545658	-0.9446531	-0.1162039	-0.03954454
1.8e+08	-0.1208611	-0.03145207	0.07912926	-0.9524795	0.01563964	0.00129869	-0.001294188	-0.002152848
	0.07912926	-0.9524795	-0.1210102	-0.03017515	-0.001294505	-0.002152558	0.01560386	0.001856086
	0.01563964	0.00129869	-0.001294505	-0.002152558	-0.1208611	-0.03122809	0.07750354	-0.9525689
	-0.001294188	-0.002152848	0.01560386	0.001856086	0.07750354	-0.9525689	-0.1210036	-0.02998776
1.9e+08	-0.1241754	-0.02143111	0.001978527	-0.9543857	0.01558567	0.0001020968	-0.001732874	-0.002070013
	0.001978527	-0.9543857	-0.124226	-0.02006813	-0.00173318	-0.002069643	0.0155942	0.0006941122
	0.01558567	0.0001020968	-0.00173318	-0.002069643	-0.1241607	-0.02118992	0.0002651792	-0.9543416
	-0.001732874	-0.002070013	0.0155942	0.0006941122	0.0002651792	-0.9543416	-0.1242072	-0.01986655
2e+08	-0.1258481	-0.01109056	-0.0749024	-0.9501958	0.01532982	-0.001063417	-0.002164071	-0.001902244
	-0.0749024	-0.9501958	-0.1257882	-0.009657829	-0.002164351	-0.001901792	0.01538737	-0.0004441068
	0.01532982	-0.001063417	-0.002164351	-0.001901792	-0.125816	-0.01083446	-0.07669183	-0.9500048
	-0.002164071	-0.001902244	0.01538737	-0.0004441068	-0.07669183	-0.9500048	-0.1257551	-0.009443881
2.1e+08	-0.1258583	-0.0006945828	-0.151065	-0.939969	0.01488064	-0.002166514	-0.002570301	-0.001651656
	-0.151065	-0.939969	-0.1256789	0.0007891322	-0.00257054	-0.001651121	0.01499065	-0.001528233
	0.01488064	-0.002166514	-0.00257054	-0.001651121	-0.1258065	-0.000426449	-0.1529174	-0.9396188
	-0.002570301	-0.001651656	0.01499065	-0.001528233	-0.1529174	-0.9396188	-0.1256297	0.001013144
2.2e+08	-0.124226	0.009494209	-0.2260677	-0.9237904	0.01425119	-0.003177694	-0.002934937	-0.00132414
	-0.2260677	-0.9237904	-0.1239215	0.01100815	-0.002935118	-0.001323525	0.01441559	-0.00252953
	0.01425119	-0.003177694	-0.002935118	-0.001323525	-0.124153	0.009771034	-0.2279686	-0.9232699
	-0.002934937	-0.00132414	0.01441559	-0.00252953	-0.2279686	-0.9232699	-0.1238547	0.01123952
2.3e+08	-0.1210117	0.01922071	-0.2994763	-0.9017707	0.01345869	-0.004069827	-0.003243022	-0.0009290673
	-0.2994763	-0.9017707	-0.1205801	0.02074274	-0.003243128	-0.000928378	0.01367778	-0.003421368
	0.01345869	-0.004069827	-0.003243128	-0.000928378	-0.1209164	0.01950251	-0.3014097	-0.9010698
	-0.003243022	-0.0009290673	0.01367778	-0.003421368	-0.3014097	-0.9010698	-0.1204948	0.02097843
2.4e+08	-0.1163139	0.02824307	-0.3708629	-0.8740457	0.0125242	-0.004818671	-0.003482002	-0.0004788079
	-0.3708629	-0.8740457	-0.1157574	0.02975034	-0.003482017	-0.0004780544	0.01279652	-0.004179704
	0.0125242	-0.004818671	-0.003482017	-0.0004780544	-0.1161961	0.0285259	-0.3728117	-0.8731561
	-0.003482002	-0.0004788079	0.01279652	-0.004179704	-0.3728117	-0.8731561	-0.1156533	0.02998709
2.5e+08	-0.1102675	0.03633824	-0.4398067	-0.8407775	0.01147219	-0.005403354	-0.00364233	1.188864e-05
	-0.4398067	-0.8407775	-0.1095921	0.0378079	-0.003642241	1.269339e-05	0.01179449	-0.004783548
	0.01147219	-0.005403354	-0.003642241	1.269339e-05	-0.1101274	0.03661799	-0.4417527	-0.8396923
	-0.00364233	1.188863e-05	0.01179449	-0.004783548	-0.4417527	-0.8396923	-0.1094695	0.03804231
2.6e+08	-0.1030397	0.04330702	-0.5058944	-0.8021551	0.01033018	-0.005806845	-0.003717913	0.000526637
	-0.5058944	-0.8021551	-0.1022561	0.044717	-0.003717708	0.000527477	0.0106974	-0.005215421
	0.01033018	-0.005806845	-0.003717708	0.000527477	-0.1028786	0.04357962	-0.5078182	-0.8008691
	-0.003717913	0.000526637	0.0106974	-0.005215421	-0.5078182	-0.8008691	-0.1021158	0.04494565
2.7e+08	-0.09482693	0.04897879	-0.5687209	-0.7583957	0.009128153	-0.0060164	-0.003706384	0.001048241
	-0.5687209	-0.7583957	-0.09394961	0.05030856	-0.003706055	0.001049098	0.009533525	-0.0054618
	0.009128153	-0.0060164	-0.003706055	0.001049098	-0.09464663	0.0492403	-0.5706025	-0.7569056
	-0.003706384	0.001048241	0.009533525	-0.0054618	-0.5706025	-0.7569056	-0.09379317	0.05052815
2.8e+08	-0.08584975	0.05321564	-0.627891	-0.7097462	0.007898027	-0.00602397	-0.00360918	0.001559562
	-0.627891	-0.7097462	-0.08489731	0.054447	-0.003608723	0.001560416	0.008333163	-0.005513539
	0.007898027	-0.00602397	-0.003608723	0.001560416	-0.08565297	0.05346241	-0.6297095	-0.7080507
	-0.00360918	0.001559562	0.008333163	-0.005513539	-0.6297095	-0.7080507	-0.08472691	0.05465444
2.9e+08	-0.07634804	0.05591591	-0.6830217	-0.6564843	0.006672971	-0.005826559	-0.003431421	0.002044387
	-0.6830217	-0.6564843	-0.07534254	0.0570337	-0.003430835	0.00204522	0.007128064	-0.005366248
	0.006672971	-0.005826559	-0.003430835	0.00204522	-0.07613812	0.0561447	-0.6847557	-0.654584
	-0.003431421	0.002044387	0.007128064	-0.005366248	-0.6847557	-0.654584	-0.07516097	0.05722623
3e+08	-0.0665751	0.05701693	-0.7337447	-0.5989198	0.005486647	-0.005426507	-0.003181583	0.002488256
	-0.7337447	-0.5989198	-0.06554165	0.05800971	-0.003180872	0.002489046	0.005950702	-0.005020599
	0.005486647	-0.005426507	-0.003180872	0.002489046	-0.06635605	0.05722505	-0.7353725	-0.5968176
	-0.003181583	0.002488256	0.005950702	-0.005020599	-0.7353725	-0.5968176	-0.06535222	0.05818505
3.1e+08	-0.05679156	0.05649699	-0.7797098	-0.5373955	0.004372362	-0.004831661	-0.00287099	0.002879184
	-0.7797098	-0.5373955	-0.05575766	0.05735764	-0.00287016	0.002879914	0.004833487	-0.004482549
	0.004372362	-0.004831661	-0.00287016	0.002879914	-0.05656793	0.05668242	-0.7812097	-0.5350962
	-0.00287099	0.002879184	0.004833487	-0.004482549	-0.7812097	-0.5350962	-0.05556417	0.05751403
3.2e+08	-0.04725882	0.05437631	-0.820589	-0.472287	0.003362148	-0.004055414	-0.002513136	0.003208261
	-0.820589	-0.472287	-0.04625361	0.05510247	-0.002512197	0.003208916	0.003807882	-0.003763422
	0.003362148	-0.004055414	-0.002512197	0.003208916	-0.0470356	0.05453777	-0.8219392	-0.469798
	-0.002513136	0.003208261	0.003807882	-0.003763422	-0.8219392	-0.469798	-0.04606025	0.05523882
3.3e+08	-0.03823236	0.0507169	-0.8560807	-0.4040028	0.002485793	-0.003116577	-0.002122878	0.003470068
	-0.8560807	-0.4040028	-0.03728577	0.05131136	-0.002121844	0.003470634	0.002903467	-0.002879841
	0.002485793	-0.003116577	-0.002121844	0.003470634	-0.03801482	0.05085402	-0.8572597	-0.4013337
	-0.002122878	0.003470068	0.002903467	-0.002879841	-0.8572597	-0.4013337	-0.03709697	0.05142733
3.4e+08	-0.02995491	0.0456215	-0.8859143	-0.3329829	0.001769857	-0.00203906	-0.001715548	0.003662886
	-0.8859143	-0.3329829	-0.02909676	0.04609239	-0.001714432	0.003663352	0.00214698	-0.001853472
	0.001769857	-0.00203906	-0.001714432	0.003663352	-0.02974846	0.04573486	-0.8869013	-0.3301456
	-0.001715548	0.003662886	0.00214698	-0.001853472	-0.8869013	-0.3301456	-0.02891707	0.04618845
3.5e+08	-0.02264989	0.03923125	-0.9098546	-0.2596967	0.001236709	-0.0008513501	-0.001306024	0.003788676
	-0.9098546	-0.2596967	-0.02190893	0.03959202	-0.001304841	0.003789036	0.00156137	-0.0007105734
	0.001236709	-0.0008513501	-0.001304841	0.003789036	-0.02245992	0.03932237	-0.9106298	-0.2567052
	-0.001306024	0.003788676	0.00156137	-0.0007105734	-0.9106298	-0.2567052	-0.02174289	0.03966943
3.6e+08	-0.01651513	0.03172219	-0.927707	-0.1846397	0.0009036574	0.0004142162	-0.0009078335	0.003852832
	-0.927707	-0.1846397	-0.01591805	0.03199154	-0.0009065986	0.003853083	0.001164922	0.0005186649
	0.0009036574	0.0004142162	-0.0009065986	0.003853083	-0.01634684	0.03179357	-0.9282513	-0.1815105
	-0.0009078335	0.003852832	0.001164922	0.0005186649	-0.9282513	-0.1815105	-0.01577006	0.0320524
3.7e+08	-0.01171723	0.02330081	-0.9393211	-0.1083301	0.0007822018	0.001722381	-0.000532344	0.003863706
	-0.9393211	-0.1083301	-0.01128776	0.0235023	-0.0005310705	0.003863848	0.0009704976	0.001800974
	0.0007822018	0.001722381	-0.0005310705	0.003863848	-0.01157547	0.02335587	-0.9396169	-0.1050817
	-0.000532344	0.003863706	0.0009704976	0.001800974	-0.9396169	-0.1050817	-0.01116188	0.02354949
3.8e+08	-0.008386754	0.01419846	-0.9445946	-0.03130333	0.0008774698	0.00303606	-0.0001880965	0.003831937
	-0.9445946	-0.03130333	-0.008144696	0.01436003	-0.0001867961	0.003831973	0.0009849464	0.003101032
	0.0008774698	0.00303606	-0.0001867961	0.003831973	-0.008275812	0.01424152	-0.9446258	-0.02795627
	-0.0001880965	0.003831937	0.0009849464	0.003101032	-0.9446258	-0.02795627	-0.008044559	0.01439721
3.9e+08	-0.006614315	0.004664998	-0.9434762	0.04589299	0.001187884	0.004317556	0.0001196667	0.003769631
	-0.9434762	0.04589299	-0.006574796	0.004818337	0.0001209849	0.003769565	0.001208734	0.004382614
	0.001187884	0.004317556	0.0001209849	0.003769565	-0.006537783	0.004701204	-0.9432286	0.04931626
	0.0001196667	0.003769631	0.001208734	0.004382614	-0.9432286	0.04931626	-0.006503414	0.004849839
4e+08	-0.006447953	-0.005038156	-0.9359675	0.1227056	0.001705084	0.005529861	0.0003892433	0.003689438
	-0.9359675	0.1227056	-0.00662071	-0.004858483	0.0003905733	0.003689275	0.001635814	0.005609835
	0.001705084	0.005529861	0.0003905733	0.003689275	-0.006408564	-0.005003001	-0.9354289	0.1261809
	0.0003892433	0.003689438	0.001635814	0.005609835	-0.9354289	0.1261809	-0.006580374	-0.004827755
4.1e+08	-0.00789172	-0.01464549	-0.9221243	0.1985819	0.002414131	0.00663795	0.0006224634	0.003603599
	-0.9221243	0.1985819	-0.008280566	-0.01440296	0.0006238024	0.003603346	0.002253771	0.006748392
	0.002414131	0.00663795	0.0006238024	0.003603346	-0.007891223	-0.01460504	-0.9212846	0.2020836
	0.0006224634	0.003603599	0.002253771	0.006748392	-0.9212846	0.2020836	-0.008272729	-0.01436764
4.2e+08	-0.01090565	-0.02389492	-0.9020559	0.2729768	0.00329398	0.007610025	0.0008244296	0.003523034
	-0.9020559	0.2729768	-0.01150811	-0.0235521	0.0008257777	0.003522693	0.003044219	0.007766772
	0.00329398	0.007610025	0.0008257777	0.003522693	-0.01094471	-0.02384247	-0.9009075	0.2764779
	0.0008244296	0.003523034	0.003044219	0.007766772	-0.9009075	0.2764779	-0.0115333	-0.02350653
4.3e+08	-0.01540706	-0.03253526	-0.875924	0.3453592	0.004318212	0.008418632	0.001003026	0.003456521
	-0.875924	0.3453592	-0.01621419	-0.03205489	0.001004386	0.003456097	0.003983465	0.008637344
	0.004318212	0.008418632	0.001004386	0.003456097	-0.01548519	-0.03246392	-0.8744619	0.3488318
	0.001003026	0.003456521	0.003983465	0.008637344	-0.8744619	0.3488318	-0.01627196	-0.03199327
4.4e+08	-0.02127324	-0.04033322	-0.8439407	0.4152186	0.005455986	0.009041597	0.00116823	0.003410052
	-0.8439407	0.4152186	-0.02226965	-0.03967942	0.001169606	0.003409543	0.005043366	0.009337284
	0.005455986	0.009041597	0.001169606	0.003409543	-0.02138875	-0.04023616	-0.8421624	0.4186337
	0.00116823	0.003410052	0.005043366	0.009337284	-0.8421624	0.4186337	-0.02235854	-0.03959597
4.5e+08	-0.02834519	-0.04707991	-0.8063645	0.4820701	0.006673153	0.009462735	0.001331282	0.00338638
	-0.8063645	0.4820701	-0.02950928	-0.04621922	0.00133268	0.003385781	0.006192371	0.009849281
	0.006673153	0.009462735	0.00133268	0.003385781	-0.02849523	-0.04695051	-0.8042704	0.4853986
	0.001331282	0.00338638	0.006192371	0.009849281	-0.8042704	0.4853986	-0.02962683	-0.04610838
4.6e+08	-0.03643258	-0.05259635	-0.7634966	0.5454602	0.007933483	0.009672296	0.001503774	0.003384816
	-0.7634966	0.5454602	-0.03773697	-0.05149888	0.001505198	0.003384119	0.007396657	0.01016201
	0.007933483	0.009672296	0.001505198	0.003384119	-0.03661314	-0.05242846	-0.7610897	0.5486726
	0.001503774	0.003384816	0.007396657	0.01016201	-0.7610897	0.5486726	-0.03787975	-0.05135548
4.7e+08	-0.04531942	-0.05673806	-0.7156758	0.6049703	0.009199927	0.009667153	0.001696718	0.003401262
	-0.7156758	0.6049703	-0.04673155	-0.05537846	0.001698172	0.003400456	0.008621315	0.01027035
	0.009199927	0.009667153	0.001698172	0.003400456	-0.04552541	-0.05652619	-0.712962	0.6080371
	0.001696718	0.003401262	0.008621315	0.01027035	-0.712962	0.6080371	-0.04689522	-0.05519789
4.8e+08	-0.05477038	-0.05939853	-0.6632734	0.6602201	0.01043586	0.009450714	0.001919668	0.003428492
	-0.6632734	0.6602201	-0.05625333	-0.05775688	0.001921153	0.003427562	0.009831524	0.01017535
	0.01043586	0.009450714	0.001921153	0.003427562	-0.05499578	-0.059138	-0.6602615	0.6631123
	0.001919668	0.003428492	0.009831524	0.01017535	-0.6602615	0.6631123	-0.05643276	-0.05753525
4.9e+08	-0.06453752	-0.06051145	-0.6066878	0.71087	0.01160625	0.009032608	0.002179955	0.00345664
	-0.6066878	0.71087	-0.06605093	-0.05857398	0.002181467	0.003455566	0.01099364	0.009883964
	0.01160625	0.009032608	0.002181467	0.003455566	-0.06477548	-0.06019859	-0.6033891	0.7135589
	0.002179955	0.00345664	0.01099364	0.009883964	-0.6033891	0.7135589	-0.06624029	-0.05830825
5e+08	-0.07436717	-0.06005173	-0.5463389	0.7566215	0.01267869	0.008428153	0.002482068	0.00347386
	-0.5463389	0.7566215	-0.0758683	-0.05781144	0.0024836	0.003472623	0.01207621	0.009408588
	0.01267869	0.008428153	0.0024836	0.003472623	-0.07461022	-0.05968401	-0.5427675	0.7590796
	0.002482068	0.00347386	0.01207621	0.009408588	-0.5427675	0.7590796	-0.07606123	-0.05749954
5.1e+08	-0.08400669	-0.05803543	-0.4826629	0.7972184	0.01362428	0.007657669	0.002827243	0.003467116
