!$
! Info: Touchstone file created by Circ.  Input file=Tx_8in_Rx_100ohms_TxVia_10mils_RxVia_20mils.circ
!$
# Hz S RI R 50
0	0.008372987	5.978588e-26	0.9914959	-6.187633e-26	5.466362e-05	8.528952e-24	-5.310203e-05	1.224959e-21
	0.9914959	-6.241653e-26	0.008372588	7.606876e-26	-5.297092e-05	1.209036e-21	5.410677e-05	1.188651e-23
	5.693701e-05	8.54863e-24	-5.291872e-05	1.202691e-21	0.008365456	5.21915e-26	0.991466	-5.528588e-26
	-5.351094e-05	1.275084e-21	5.556307e-05	1.223407e-23	0.991466	-5.7832e-26	0.008378179	7.255937e-26
1e+07	0.01222541	0.005469647	0.9844551	-0.08338966	0.0004895614	0.001509858	-0.0003772212	-0.000146847
	0.9844551	-0.08338965	0.01222343	0.005468027	-0.0003772431	-0.0001468229	0.0004872464	0.001510424
	0.0004896099	0.001509832	-0.0003772056	-0.0001468449	0.01211771	0.005481886	0.9845568	-0.08348921
	-0.0003771837	-0.000146869	0.0004872791	0.001510412	0.9845568	-0.08348921	0.01211577	0.005480197
2e+07	0.01576478	0.008017235	0.9715332	-0.1631303	0.0007455329	0.003111328	-0.0003087068	-0.0004265627
	0.9715332	-0.1631303	0.01575661	0.008014421	-0.0003086955	-0.0004265363	0.0007366714	0.003113847
	0.0007455255	0.003111303	-0.0003086972	-0.0004265646	0.01569154	0.008082095	0.9715779	-0.1633679
	-0.0003086997	-0.0004265982	0.000736669	0.003113826	0.9715779	-0.1633679	0.0156838	0.008079418
3e+07	0.01886315	0.00918108	0.9530551	-0.2404474	0.00125545	0.004505423	-0.0002911506	-0.0005720383
	0.9530551	-0.2404474	0.01884436	0.00917877	-0.000291145	-0.0005720347	0.001236248	0.004512154
	0.001255451	0.00450542	-0.0002911479	-0.0005720386	0.01882012	0.009266301	0.9530352	-0.2407847
	-0.0002911531	-0.0005720444	0.001236243	0.004512151	0.9530352	-0.2407847	0.01880306	0.009264005
4e+07	0.02173744	0.009609828	0.9288901	-0.3155626	0.002006728	0.00574712	-0.0003262154	-0.0006698539
	0.9288901	-0.3155626	0.02170408	0.009610885	-0.0003262139	-0.0006698513	0.001973979	0.005761167
	0.002006732	0.005747116	-0.000326211	-0.0006698507	0.02172291	0.009703479	0.9287957	-0.3159851
	-0.0003262113	-0.0006698497	0.001973979	0.005761168	0.9287957	-0.3159851	0.02169243	0.009703792
5e+07	0.02442745	0.009470568	0.8991207	-0.3882032	0.003073394	0.006767434	-0.0005104276	-0.0006793574
	0.8991207	-0.3882032	0.02437633	0.0094788	-0.0005104198	-0.0006793665	0.003024626	0.00679247
	0.003073395	0.006767431	-0.0005104182	-0.0006793666	0.0244383	0.009565108	0.8989412	-0.3886979
	-0.0005104245	-0.0006793557	0.003024626	0.00679247	0.8989412	-0.3886979	0.02439122	0.009571954
6e+07	0.02692739	0.008852779	0.8639079	-0.4580217	0.004268826	0.007592068	-0.0006801455	-0.0006521497
	0.8639079	-0.4580217	0.02685626	0.008872724	-0.0006801412	-0.0006521849	0.004202516	0.007632428
	0.004268826	0.007592069	-0.0006801442	-0.0006521836	0.02696064	0.008943059	0.8636339	-0.4585755
	-0.0006801509	-0.0006521501	0.004202513	0.007632429	0.8636339	-0.4585755	0.02689517	0.008960781
7e+07	0.02921482	0.007818984	0.8234627	-0.5246515	0.005562106	0.008205952	-0.0008325055	-0.0005942292
	0.8234627	-0.5246515	0.02912249	0.007855656	-0.0008325224	-0.0005942904	0.005477725	0.008266305
	0.005562106	0.008205956	-0.0008325289	-0.0005942858	0.02926758	0.007900755	0.8230861	-0.5252506
	-0.0008325199	-0.0005942279	0.00547772	0.008266307	0.8230861	-0.5252506	0.02918272	0.007933689
8e+07	0.03126204	0.006422463	0.7780345	-0.587728	0.00691915	0.008597708	-0.0009643969	-0.0005105172
	0.7780345	-0.587728	0.03114846	0.006481088	-0.0009644441	-0.000510591	0.006817204	0.008682859
	0.006919152	0.008597712	-0.000964451	-0.0005105837	0.03133103	0.00649191	0.7775489	-0.5883582
	-0.0009644147	-0.0005105123	0.006817199	0.008682862	0.7775489	-0.5883582	0.03122629	0.006544671
9e+07	0.03304214	0.004714642	0.7279046	-0.6469001	0.008303344	0.008760373	-0.001072355	-0.0004051212
	0.7279046	-0.6469001	0.03290836	0.004800434	-0.001072427	-0.0004051917	0.008185389	0.008875066
	0.008303345	0.008760375	-0.001072431	-0.0004051853	0.03312334	0.004768346	0.7273052	-0.6475464
	-0.001072368	-0.0004051154	0.008185386	0.008875069	0.7273052	-0.6475464	0.03299903	0.004846044
1e+08	0.03454221	0.002756171	0.6733707	-0.701845	0.009672202	0.008688271	-0.001147814	-0.0002773627
	0.6733707	-0.701845	0.03439041	0.002874108	-0.001147891	-0.0002774218	0.009540818	0.008837004
	0.009672202	0.008688271	-0.00114789	-0.0002774221	0.03462964	0.002790323	0.6726559	-0.702491
	-0.001147814	-0.000277363	0.009540818	0.008837004	0.6726559	-0.702491	0.0344873	0.002898414
1.1e+08	0.03575911	0.000506169	0.614753	-0.7521594	0.01098083	0.008420911	-0.001179696	-0.0001705382
	0.614753	-0.7521594	0.03559171	0.0006620736	-0.001179832	-0.0001705974	0.01083915	0.008607368
	0.01098083	0.008420911	-0.001179832	-0.0001705976	0.03584563	0.0005267912	0.6139239	-0.7527967
	-0.001179696	-0.0001705384	0.01083915	0.008607368	0.6139239	-0.7527967	0.03568792	0.000670374
1.2e+08	0.03658697	-0.001930751	0.5525075	-0.7975945	0.01222942	0.007953424	-0.001207756	-7.361633e-05
	0.5525075	-0.7975945	0.03640885	-0.001732996	-0.001207942	-7.36553e-05	0.0120822	0.008181174
	0.01222942	0.007953424	-0.001207942	-7.365548e-05	0.03667244	-0.001921425	0.5515594	-0.7982103
	-0.001207756	-7.36165e-05	0.0120822	0.008181174	0.5515594	-0.7982103	0.03650431	-0.001738505
1.3e+08	0.03702925	-0.004481918	0.4870085	-0.8379111	0.01337945	0.007293039	-0.001227288	1.864822e-05
	0.4870085	-0.8379111	0.03684593	-0.004239391	-0.001227514	1.864133e-05	0.01323215	0.007564594
	0.01337945	0.007293038	-0.001227514	1.86412e-05	0.0371124	-0.004482709	0.4859397	-0.8384907
	-0.001227288	1.864808e-05	0.01323215	0.007564594	0.4859397	-0.8384907	0.03693931	-0.004257731
1.4e+08	0.03708467	-0.007087369	0.4186615	-0.8728858	0.01439963	0.006457492	-0.001238915	0.0001060652
	0.4186615	-0.8728858	0.03690219	-0.006798154	-0.001239174	0.0001060983	0.0142582	0.006774257
	0.01439963	0.006457492	-0.001239174	0.0001060982	0.03716428	-0.007097094	0.4174721	-0.8734142
	-0.001238915	0.0001060651	0.0142582	0.006774257	0.4174721	-0.8734142	0.03699204	-0.006828383
1.5e+08	0.03675696	-0.009689709	0.34789	-0.9023248	0.01526278	0.005469956	-0.001244231	0.0001881042
	0.34789	-0.9023248	0.03658173	-0.00935298	-0.001244517	0.0001881842	0.0151335	0.005832164
	0.01526278	0.005469956	-0.001244517	0.0001881841	0.03683203	-0.009707126	0.3465819	-0.9027865
	-0.001244231	0.0001881041	0.0151335	0.005832164	0.3465819	-0.9027865	0.03666668	-0.009394052
1.6e+08	0.03605607	-0.01223362	0.2751323	-0.926066	0.01594618	0.004357887	-0.001245237	0.0002645205
	0.2751323	-0.926066	0.03589473	-0.01184972	-0.001245544	0.0002646545	0.01583544	0.004764561
	0.01594618	0.004357887	-0.001245544	0.0002646544	0.03612581	-0.01225746	0.273709	-0.9264457
	-0.001245237	0.0002645205	0.01583544	0.004764561	0.273709	-0.9264457	0.03597354	-0.01190047
1.7e+08	0.03499849	-0.01466627	0.2008383	-0.9439811	0.01643199	0.003152133	-0.001244065	0.0003355607
	0.2008383	-0.9439811	0.03485771	-0.01423677	-0.001244387	0.0003357561	0.0163461	0.003601063
	0.01643199	0.003152133	-0.001244387	0.000335756	0.03506232	-0.01469527	0.1993051	-0.9442634
	-0.001244065	0.0003355606	0.0163461	0.003601063	0.1993051	-0.9442634	0.03492929	-0.0142959
1.8e+08	0.0336072	-0.01693802	0.1254668	-0.9559762	0.01670771	0.001886047	-0.001242772	0.0004020264
	0.1254668	-0.9559762	0.03349346	-0.01646577	-0.0012431	0.0004022908	0.01665266	0.0023738
	0.01670771	0.001886046	-0.0012431	0.0004022907	0.03366474	-0.01697091	0.1238307	-0.9561462
	-0.001242772	0.0004020263	0.01665266	0.0023738	0.1238307	-0.9561462	0.03355693	-0.01653187
1.9e+08	0.03191142	-0.01900324	0.04948265	-0.961993	0.01676644	0.0005945705	-0.001243158	0.0004652633
	0.04948265	-0.961993	0.0318308	-0.01849231	-0.001243482	0.0004656034	0.0167477	0.001116541
	0.01676644	0.0005945704	-0.001243482	0.0004656034	0.03196248	-0.01903878	0.04775227	-0.9620362
	-0.001243158	0.0004652632	0.0167477	0.001116541	0.04775227	-0.9620362	0.03188546	-0.01856387
2e+08	0.02994611	-0.02082108	-0.02664602	-0.9620089	0.0166071	-0.0006867039	-0.001246617	0.0005270956
	-0.02664602	-0.9620089	0.02990402	-0.02027677	-0.001246924	0.0005275166	0.01662935	-0.0001362097
	0.0166071	-0.0006867039	-0.001246924	0.0005275166	0.02999066	-0.02085807	-0.02846036	-0.9619117
	-0.001246617	0.0005270956	0.01662935	-0.0001362097	-0.02846036	-0.9619117	0.02994944	-0.0203522
2.1e+08	0.02775134	-0.02235626	-0.1024506	-0.9560378	0.01623437	-0.001922487	-0.001254012	0.0005897212
	-0.1024506	-0.9560378	0.02775233	-0.02178496	-0.001254287	0.0005902256	0.01630137	-0.001350119
	0.01623437	-0.001922487	-0.001254287	0.0005902256	0.02778953	-0.02239353	-0.104337	-0.9557871
	-0.001254012	0.0005897211	0.01630137	-0.001350119	-0.104337	-0.9557871	0.02778828	-0.02186262
2.2e+08	0.02537153	-0.02357974	-0.177465	-0.9441294	0.01565864	-0.003078733	-0.001265579	0.0006555756
	-0.177465	-0.9441294	0.02541902	-0.02298876	-0.001265805	0.0006561631	0.01577297	-0.002491931
	0.01565864	-0.003078733	-0.001265805	0.0006561631	0.02540365	-0.02361618	-0.17941	-0.9437135
	-0.001265579	0.0006555756	0.01577297	-0.002491931	-0.17941	-0.9437135	0.02544557	-0.02306701
2.3e+08	0.02285452	-0.02446924	-0.2512282	-0.9263699	0.01489568	-0.004123542	-0.001280875	0.0007271771
	-0.2512282	-0.9263699	0.02295068	-0.02386668	-0.001281036	0.0007278439	0.01505864	-0.003530335
	0.01489568	-0.004123542	-0.001281036	0.0007278439	0.02288105	-0.02450381	-0.2532169	-0.925778
	-0.001280875	0.0007271771	0.01505864	-0.003530335	-0.2532169	-0.925778	0.02296814	-0.02394389
2.4e+08	0.02025062	-0.02500971	-0.3232873	-0.9028808	0.01396622	-0.00502801	-0.001298759	0.0008069585
	-0.3232873	-0.9028808	0.02039615	-0.02440417	-0.001298839	0.0008076972	0.01417767	-0.004436784
	0.01396622	-0.00502801	-0.001298839	0.0008076972	0.02027217	-0.02504146	-0.3253035	-0.9021037
	-0.001298759	0.0008069585	0.01417767	-0.004436784	-0.3253035	-0.9021037	0.0204051	-0.02447878
2.5e+08	0.01761154	-0.02519359	-0.3932003	-0.8738187	0.01289541	-0.005766994	-0.00131742	0.0008971004
	-0.3932003	-0.8738187	0.01780562	-0.02459393	-0.001317403	0.0008979001	0.01315375	-0.005186242
	0.01289541	-0.005766994	-0.001317403	0.0008979001	0.01762889	-0.02522169	-0.3952267	-0.8728485
	-0.00131742	0.0008971004	0.01315375	-0.005186242	-0.3952267	-0.8728485	0.01780688	-0.02466449
2.6e+08	0.01498932	-0.0250209	-0.4605389	-0.8393743	0.01171216	-0.006319786	-0.001334437	0.0009993709
	-0.4605389	-0.8393743	0.0152295	-0.02443598	-0.001334312	0.001000218	0.01201422	-0.005757838
	0.01171216	-0.006319786	-0.001334312	0.001000218	0.01500334	-0.02504467	-0.462557	-0.8382049
	-0.001334437	0.0009993709	0.01201422	-0.005757838	-0.462557	-0.8382049	0.01522414	-0.0245012
2.7e+08	0.01243522	-0.02449926	-0.524891	-0.7997711	0.01044833	-0.006670658	-0.001346887	0.001114985
	-0.524891	-0.7997711	0.01271741	-0.02393763	-0.001346642	0.001115863	0.01078947	-0.006135405
	0.01044833	-0.006670658	-0.001346642	0.001115863	0.01244691	-0.02451817	-0.5268815	-0.798398
	-0.001346887	0.001114985	0.01078947	-0.006135405	-0.5268815	-0.798398	0.01270671	-0.0239964
2.8e+08	0.009998608	-0.02364363	-0.5858633	-0.7552644	0.009137928	-0.006809283	-0.001351466	0.001244489
	-0.5858633	-0.7552644	0.01031718	-0.02311322	-0.001351095	0.001245379	0.009512019	-0.006307908
	0.009137928	-0.006809283	-0.001351095	0.001245379	0.01000904	-0.02365734	-0.5878061	-0.7536852
	-0.001351466	0.001244489	0.009512019	-0.006307908	-0.5878061	-0.7536852	0.0103026	-0.02316466
2.9e+08	0.007725965	-0.02247598	-0.6430842	-0.7061395	0.007816156	-0.006731006	-0.001344656	0.001387674
	-0.6430842	-0.7061395	0.008073769	-0.02198384	-0.001344155	0.001388558	0.008215762	-0.00626972
	0.007816156	-0.006731006	-0.001344155	0.001388558	0.007736267	-0.02248434	-0.6449588	-0.7043535
	-0.001344656	0.001387674	0.008215762	-0.00626972	-0.6449588	-0.7043535	0.008056908	-0.02202733
3e+08	0.005659846	-0.02102476	-0.6962057	-0.6527101	0.006518499	-0.006436965	-0.00132289	0.001543535
	-0.6962057	-0.6527101	0.006028417	-0.02057676	-0.00132226	0.001544393	0.006935003	-0.006020764
	0.006518499	-0.006436965	-0.00132226	0.001544393	0.00567115	-0.02102782	-0.697991	-0.6507187
	-0.00132289	0.001543535	0.006935003	-0.006020764	-0.697991	-0.6507187	0.006010968	-0.02061195
3.1e+08	0.003838008	-0.01932425	-0.7449058	-0.5953161	0.005279766	-0.005934058	-0.001282735	0.001710261
	-0.7449058	-0.5953161	0.004217739	-0.01892485	-0.00128198	0.001711074	0.005703582	-0.00556651
	0.005279766	-0.005934058	-0.00128198	0.001711074	0.003851427	-0.01932226	-0.7465808	-0.5931227
	-0.001282735	0.001710261	0.005703582	-0.00556651	-0.7465808	-0.5931227	0.004201447	-0.0189517
3.2e+08	0.002292599	-0.01741375	-0.7888907	-0.5343216	0.004133162	-0.005234753	-0.001221072	0.00188527
	-0.7888907	-0.5343216	0.002672991	-0.01706578	-0.001220199	0.00188602	0.004553975	-0.004917817
	0.004133162	-0.005234753	-0.001220199	0.00188602	0.00230919	-0.01740718	-0.7904342	-0.5319318
	-0.001221072	0.00188527	0.004553975	-0.004917817	-0.7904342	-0.5319318	0.0026596	-0.01708454
3.3e+08	0.001049503	-0.01533672	-0.8278963	-0.4701125	0.0031094	-0.004356747	-0.001135259	0.002065284
	-0.8278963	-0.4701125	0.001419443	-0.01504123	-0.001134278	0.002065956	0.003516447	-0.004090635
	0.0031094	-0.004356747	-0.001134278	0.002065956	0.001070225	-0.01532621	-0.8292874	-0.467534
	-0.001135259	0.002065284	0.003516447	-0.004090635	-0.8292874	-0.467534	0.001410639	-0.01505246
3.4e+08	0.0001278047	-0.01313977	-0.8616903	-0.4030942	0.00223589	-0.00332249	-0.001023281	0.002246438
	-0.8616903	-0.4030942	0.0004758786	-0.0128959	-0.001022205	0.00224702	0.00261825	-0.003105579
	0.00223589	-0.00332249	-0.001022205	0.00224702	0.0001534942	-0.01312613	-0.8629086	-0.4003367
	-0.001023281	0.002246438	0.00261825	-0.003105579	-0.8629086	-0.4003367	0.0004732482	-0.01290042
3.5e+08	-0.0004605822	-0.01087161	-0.8900734	-0.3336886	0.001536006	-0.002158577	-0.0008838675	0.002424423
	-0.8900734	-0.3336886	-0.0001457607	-0.01067651	-0.0008827101	0.002424905	0.001882921	-0.001987367
	0.001536006	-0.002158577	-0.0008827101	0.002424905	-0.0004292469	-0.0108558	-0.8910991	-0.3307639
	-0.0008838675	0.002424423	0.001882921	-0.001987367	-0.8910991	-0.3307639	-0.0001407842	-0.01067545
3.6e+08	-0.0007111237	-0.008581962	-0.9128803	-0.2623316	0.00102847	-0.0008950319	-0.0007165793	0.002594644
	-0.9128803	-0.2623316	-0.0004405675	-0.008430814	-0.0007153549	0.00259502	0.001329667	-0.0007641681
	0.00102847	-0.0008950319	-0.0007153549	0.00259502	-0.0006736432	-0.008565059	-0.9136945	-0.2592536
	-0.0007165793	0.002594644	0.001329667	-0.0007641681	-0.9136945	-0.2592536	-0.0004267476	-0.00842552
3.7e+08	-0.0006267099	-0.006320434	-0.9299813	-0.1894704	0.0007268648	0.0004354977	-0.0005218554	0.002752405
	-0.9299813	-0.1894704	-0.0004107147	-0.006206492	-0.0005205782	0.002752672	0.000972873	0.000533158
	0.0007268648	0.0004354977	-0.0005205782	0.002752672	-0.0005827835	-0.006303595	-0.930566	-0.1862548
	-0.0005218554	0.002752405	0.000972873	0.000533158	-0.930566	-0.1862548	-0.0003870511	-0.006198521
3.8e+08	-0.0002175278	-0.004135428	-0.9412823	-0.1155603	0.0006392753	0.001798615	-0.0003010208	0.00289309
	-0.9412823	-0.1155603	-6.533716e-05	-0.004050132	-0.0002997039	0.002893247	0.0008217385	0.001871873
	0.0006392753	0.001798615	-0.0002997039	0.002893247	-0.0001670664	-0.004119854	-0.9416209	-0.1122248
	-0.0003010209	0.00289309	0.0008217385	0.001871873	-0.9416209	-0.1122248	-3.109945e-05	-0.004041206
3.9e+08	0.0004992267	-0.002073059	-0.9467257	-0.04106183	0.00076809	0.003159091	-5.625277e-05	0.003012343
	-0.9467257	-0.04106183	0.0005797377	-0.002006211	-5.490743e-05	0.003012394	0.0008800517	0.003218227
	0.00076809	0.003159091	-5.490743e-05	0.003012394	0.0005560949	-0.002059961	-0.946803	-0.03762599
	-5.625278e-05	0.003012343	0.0008800517	0.003218227	-0.946803	-0.03762599	0.0006249842	-0.001998171
4e+08	0.001499797	-0.0001761489	-0.9462906	0.03356193	0.001109947	0.004481803	0.0002094913	0.003106241
	-0.9462906	0.03356193	0.001502408	-0.000116137	0.000210856	0.003106189	0.001146107	0.004538345
	0.001109947	0.004481803	0.000210856	0.003106189	0.001562728	-0.000166707	-0.946093	0.03707709
	0.0002094913	0.003106241	0.001146107	0.004538345	-0.946093	0.03707709	0.001558785	-0.0001108908
4.1e+08	0.00275446	0.001516708	-0.9399927	0.1078487	0.001655834	0.005732664	0.0004925801	0.003171441
	-0.9399927	0.1078487	0.002674853	0.001582634	0.0004939581	0.003171292	0.001612768	0.005799117
	0.001655834	0.005732664	0.0004939581	0.003171292	0.0028229	0.001521384	-0.9395081	0.1114205
	0.0004925801	0.003171441	0.001612768	0.005799117	-0.9395081	0.1114205	0.002742158	0.001583163
4.2e+08	0.004228248	0.002971967	-0.9278837	0.1813394	0.002391341	0.006879521	0.0007888445	0.003205298
	-0.9278837	0.1813394	0.004064208	0.003057376	0.0007902325	0.003205056	0.002267671	0.006969056
	0.002391341	0.006879521	0.0007902325	0.003205056	0.00430145	0.002970871	-0.9271023	0.184944
	0.0007888445	0.003205298	0.002267671	0.006969056	-0.9271023	0.184944	0.004141916	0.003051306
4.3e+08	0.005881788	0.004161842	-0.9100515	0.2535817	0.003297052	0.007893003	0.001093735	0.003205956
	-0.9100515	0.2535817	0.005633348	0.004280771	0.001095132	0.003205626	0.003093566	0.008019114
	0.003297052	0.007893003	0.001095132	0.003205626	0.005958831	0.004154106	-0.9089652	0.2571937
	0.001093735	0.003205956	0.003093566	0.008019114	-0.9089652	0.2571937	0.00572062	0.004266312
4.4e+08	0.007672231	0.00506487	-0.8866187	0.324132	0.004349064	0.008747285	0.001402491	0.003172395
	-0.8866187	0.324132	0.007341762	0.005231443	0.001403899	0.003171979	0.00406878	0.008923433
	0.004349064	0.008747285	0.001403899	0.003171979	0.007752047	0.005049793	-0.8852218	0.3277254
	0.001402491	0.003172395	0.00406878	0.008923433	-0.8852218	0.3277254	0.007437463	0.005206952
4.5e+08	0.009554258	0.005666331	-0.8577422	0.3925587	0.005519628	0.009420763	0.001710319	0.003104444
	-0.8577422	0.3925587	0.009146487	0.005894371	0.001711743	0.003103943	0.005167794	0.009660003
	0.005519628	0.009420763	0.001711743	0.003103943	0.009635658	0.005643403	-0.8560311	0.3961064
	0.001710319	0.003104444	0.005167794	0.009660003	-0.8560311	0.3961064	0.009249211	0.005858399
4.6e+08	0.01148112	0.00595851	-0.8236117	0.4584448	0.006777881	0.009896614	0.002012562	0.003002755
	-0.8236117	0.4584448	0.01100309	0.006261141	0.002014007	0.003002166	0.006361917	0.01021122
	0.006777881	0.009896614	0.002014007	0.003002166	0.01156284	0.005927432	-0.8215854	0.4619191
	0.002012562	0.003002755	0.006361917	0.01021122	-0.8215854	0.4619191	0.01111119	0.006212477
4.7e+08	0.01340572	0.005940798	-0.7844487	0.5213897	0.008090661	0.01016322	0.00230486	0.002868734
	-0.7844487	0.5213897	0.01286668	0.006330058	0.00230633	0.002868051	0.007620039	0.01056434
	0.008090661	0.01016322	0.00230633	0.002868051	0.01348645	0.005901462	-0.7821085	0.5247625
	0.00230486	0.002868734	0.007620039	0.01056434	-0.7821085	0.5247625	0.01297834	0.006267734
4.8e+08	0.01528166	0.005619629	-0.7405045	0.5810123	0.009423378	0.01021449	0.002583286	0.002704453
	-0.7405045	0.5810123	0.0146929	0.006106096	0.002584785	0.002703664	0.008909435	0.01071176
	0.009423378	0.01021449	0.002584785	0.002703664	0.01536007	0.005572178	-0.7378543	0.5842554
	0.002583286	0.002704453	0.008909435	0.01071176	-0.7378543	0.5842554	0.01480611	0.006029475
4.9e+08	0.01706431	0.005008263	-0.6920592	0.6369529	0.01074092	0.01004996	0.002844458	0.00251252
	-0.6920592	0.6369529	0.0164389	0.005600716	0.002845989	0.002511613	0.01019662	0.01065126
	0.01074092	0.01004996	0.002845989	0.002511613	0.0171391	0.004953077	-0.6891052	0.6400379
	0.002844458	0.00251252	0.01019662	0.01065126	-0.6891052	0.6400379	0.01655157	0.0055095
5e+08	0.01871179	0.004126408	-0.6394191	0.688875	0.01200856	0.009674872	0.003085619	0.002295944
	-0.6394191	0.688875	0.01806431	0.004831526	0.00308718	0.002294901	0.01144822	0.01038599
	0.01200856	0.009674872	0.00308718	0.002294901	0.01878172	0.004064087	-0.6361703	0.6917738
	0.003085619	0.002295944	0.01144822	0.01038599	-0.6361703	0.6917738	0.01817429	0.004725757
5.1e+08	0.02018587	0.002999686	-0.5829155	0.7364675	0.01319286	0.009099966	0.003304681	0.002057977
