!$
! Info: Touchstone file created by Circ.  Input file=Tx_8in_Rx_85ohms_TxVia_10mils_RxVia_20mils.circ
!$
# Hz S RI R 50
0	0.006522372	5.334208e-26	-1.751029e-11	4.096381e-27	5.473043e-05	6.749547e-24	-2.159762e-08	2.644898e-24
	-1.749601e-11	4.095363e-27	0.006521727	7.639495e-26	1.632162e-11	1.780978e-28	5.433803e-05	9.23979e-24
	5.284096e-05	6.654461e-24	1.628638e-11	1.784427e-28	0.006536433	5.551111e-26	1.744691e-08	7.408658e-27
	-2.159835e-08	2.644988e-24	5.579502e-05	9.509961e-24	1.744743e-08	7.407503e-27	0.006527339	7.286897e-26
1e+07	0.009606593	-0.007307011	3.349697e-11	-4.704832e-11	0.0001754174	0.001485119	-6.375902e-09	1.927259e-08
	3.349698e-11	-4.704862e-11	0.008524085	-0.007423081	-5.751572e-12	-7.711189e-11	0.0002348057	0.001489469
	0.0001753787	0.001485144	-5.751616e-12	-7.711158e-11	0.008552053	-0.007560888	-8.346382e-09	1.893211e-08
	-6.375902e-09	1.927259e-08	0.0002348381	0.001489457	-8.346382e-09	1.893211e-08	0.008513594	-0.007417684
2e+07	0.009788713	-0.0171969	4.037412e-11	-6.110451e-11	0.0005496365	0.002930045	-5.343589e-09	2.336704e-08
	4.037382e-11	-6.110472e-11	0.008803581	-0.01699307	4.601495e-12	-1.849653e-10	0.0006339502	0.002887015
	0.0005496443	0.002930063	4.6017e-12	-1.849651e-10	0.008713094	-0.01722306	-1.042818e-08	1.941078e-08
	-5.343589e-09	2.336704e-08	0.0006339471	0.002886994	-1.042818e-08	1.941078e-08	0.008798105	-0.01697414
3e+07	0.007593994	-0.02761124	4.798749e-11	-1.263255e-10	0.001196409	0.004236163	-2.523932e-10	1.796309e-08
	4.798745e-11	-1.263255e-10	0.006677543	-0.02727571	-4.668941e-11	-2.105841e-10	0.001246792	0.004183085
	0.001196406	0.004236164	-4.66893e-11	-2.105842e-10	0.006505742	-0.02752785	-5.983544e-09	2.208171e-08
	-2.523932e-10	1.796309e-08	0.001246786	0.004183082	-5.983544e-09	2.208171e-08	0.006676294	-0.02724834
4e+07	0.003385162	-0.03768672	5.552337e-11	-1.785185e-10	0.002039319	0.005398561	2.039873e-09	1.499357e-08
	5.552341e-11	-1.785185e-10	0.002521873	-0.03725576	-1.732553e-11	-2.676371e-10	0.002054838	0.005347155
	0.002039314	0.005398564	-1.732554e-11	-2.676373e-10	0.00229392	-0.03750823	-2.308494e-10	1.906083e-08
	2.039873e-09	1.499357e-08	0.002054838	0.005347156	-2.308495e-10	1.906083e-08	0.002523668	-0.03722318
5e+07	-0.002598426	-0.04699981	7.517007e-11	-2.296177e-10	0.003051782	0.00639032	4.412458e-09	1.43006e-08
	7.517009e-11	-2.296178e-10	-0.003419831	-0.04648753	-4.570658e-11	-3.16986e-10	0.00303189	0.006349855
	0.003051781	0.006390322	-4.570657e-11	-3.16986e-10	-0.003683492	-0.04673031	3.128684e-09	1.384885e-08
	4.412458e-09	1.43006e-08	0.00303189	0.006349856	3.128684e-09	1.384885e-08	-0.003417347	-0.04645035
6e+07	-0.01012294	-0.05523505	1.101909e-10	-2.879047e-10	0.004201585	0.007187655	1.033456e-08	1.351877e-08
	1.101909e-10	-2.879047e-10	-0.01091075	-0.05464675	-6.665015e-11	-3.419973e-10	0.004146729	0.007166686
	0.004201586	0.007187653	-6.665017e-11	-3.419973e-10	-0.01119277	-0.05487596	4.456173e-09	8.719465e-09
	1.033456e-08	1.351877e-08	0.004146726	0.007166687	4.456173e-09	8.719465e-09	-0.01090883	-0.05460444
7e+07	-0.01893771	-0.06214385	1.625984e-10	-3.598006e-10	0.005452657	0.007772394	1.541967e-08	5.258341e-09
	1.625985e-10	-3.598005e-10	-0.01969752	-0.0614802	-8.075452e-11	-3.684522e-10	0.005364526	0.007779085
	0.005452657	0.007772388	-8.075458e-11	-3.684522e-10	-0.01998299	-0.06169573	4.523282e-09	4.34855e-09
	1.541967e-08	5.258341e-09	0.005364521	0.007779088	4.523282e-09	4.34855e-09	-0.01969699	-0.06143241
8e+07	-0.02877258	-0.06753416	2.150008e-10	-4.266441e-10	0.006766525	0.008132935	1.270821e-08	-1.251116e-09
	2.150009e-10	-4.266441e-10	-0.02950745	-0.06679328	-9.697246e-11	-4.064516e-10	0.006648171	0.008175087
	0.006766523	0.008132929	-9.697253e-11	-4.064516e-10	-0.02978338	-0.06699716	3.840846e-09	8.857129e-10
	1.270821e-08	-1.251116e-09	0.006648167	0.008175092	3.840846e-09	8.857128e-10	-0.02950934	-0.06673955
9e+07	-0.0393415	-0.07126749	2.170927e-10	-4.780044e-10	0.008103783	0.008264695	9.885074e-09	-3.364327e-09
	2.170928e-10	-4.780044e-10	-0.04005228	-0.07044644	-1.093069e-10	-4.652334e-10	0.007959767	0.008349755
	0.008103781	0.00826469	-1.093069e-10	-4.652334e-10	-0.04030645	-0.07064105	2.688598e-09	-1.664813e-09
	9.885074e-09	-3.364327e-09	0.007959764	0.008349759	2.688598e-09	-1.664813e-09	-0.04005777	-0.07038577
1e+08	-0.05034893	-0.07325825	1.695709e-10	-6.163965e-10	0.00942613	0.008170676	7.879721e-09	-4.200686e-09
	1.695709e-10	-6.163965e-10	-0.05103602	-0.0723556	-1.005575e-10	-5.386355e-10	0.009263458	0.008306631
	0.00942613	0.008170676	-1.005575e-10	-5.386355e-10	-0.05124966	-0.07253594	1.223669e-09	-3.449839e-09
	7.879721e-09	-4.200686e-09	0.009263458	0.008306631	1.223669e-09	-3.449839e-09	-0.05104616	-0.07228645
1.1e+08	-0.06149558	-0.07347987	1.703802e-10	-7.134198e-10	0.01069778	0.007854712	8.014267e-09	-5.911291e-09
	1.703802e-10	-7.134198e-10	-0.06216192	-0.07248102	-1.078925e-10	-5.801922e-10	0.01052721	0.008041088
	0.01069778	0.007854712	-1.078925e-10	-5.801922e-10	-0.06229903	-0.07269581	1.24582e-09	-4.057054e-09
	8.014267e-09	-5.911291e-09	0.01052721	0.008041087	1.24582e-09	-4.057054e-09	-0.06217597	-0.07240082
1.2e+08	-0.07248913	-0.07193321	1.6038e-10	-8.142613e-10	0.01187832	0.007333644	7.837372e-09	-7.722668e-09
	1.6038e-10	-8.142613e-10	-0.07312101	-0.07083048	-1.129308e-10	-6.218499e-10	0.01170435	0.007571634
	0.01187832	0.007333644	-1.129308e-10	-6.218499e-10	-0.07320567	-0.07110714	1.202162e-09	-4.691471e-09
	7.837372e-09	-7.722668e-09	0.01170435	0.007571634	1.202162e-09	-4.691471e-09	-0.07313783	-0.07073742
1.3e+08	-0.0830445	-0.06868153	1.384069e-10	-9.174677e-10	0.01293747	0.006628856	7.32451e-09	-9.573557e-09
	1.384069e-10	-9.174677e-10	-0.08362853	-0.06747209	-1.160065e-10	-6.639727e-10	0.01276641	0.006920013
	0.01293747	0.006628857	-1.160065e-10	-6.639727e-10	-0.08367808	-0.06782367	1.085577e-09	-5.341266e-09
	7.32451e-09	-9.573557e-09	0.01276641	0.006920013	1.085577e-09	-5.341266e-09	-0.08364674	-0.06736473
1.4e+08	-0.09289518	-0.06383162	1.032615e-10	-1.02061e-09	0.01384863	0.005765219	6.462609e-09	-1.139791e-08
	1.032615e-10	-1.02061e-09	-0.09341723	-0.06251572	-1.173745e-10	-7.07022e-10	0.01368749	0.006110072
	0.01384863	0.005765219	-1.173745e-10	-7.07022e-10	-0.09344819	-0.06294974	8.909196e-10	-5.992325e-09
	6.462609e-09	-1.139791e-08	0.01368749	0.006110072	8.909196e-10	-5.992325e-09	-0.09343505	-0.06239289
1.5e+08	-0.1017992	-0.05752961	5.428961e-11	-1.120758e-09	0.01458991	0.004770906	5.251051e-09	-1.312704e-08
	5.428961e-11	-1.120758e-09	-0.1022447	-0.0561105	-1.17344e-10	-7.513924e-10	0.01444607	0.005168708
	0.01458991	0.004770907	-1.17344e-10	-7.513924e-10	-0.1022732	-0.05663039	6.158577e-10	-6.629169e-09
	5.251051e-09	-1.312704e-08	0.01444607	0.005168708	6.158577e-10	-6.629169e-09	-0.10226	-0.05597144
1.6e+08	-0.1095443	-0.04995593	-8.432874e-12	-1.214669e-09	0.0151445	0.003676581	3.702152e-09	-1.469191e-08
	-8.432875e-12	-1.214669e-09	-0.1098986	-0.04843994	-1.162655e-10	-7.973934e-10	0.01502538	0.004125194
	0.0151445	0.003676581	-1.162655e-10	-7.973934e-10	-0.1099402	-0.04904558	2.612317e-10	-7.235598e-09
	3.702152e-09	-1.469191e-08	0.01502538	0.004125194	2.612317e-10	-7.235598e-09	-0.1099091	-0.04828436
1.7e+08	-0.1159515	-0.04131984	-8.39887e-11	-1.299009e-09	0.01550082	0.002514543	1.841205e-09	-1.602548e-08
	-8.39887e-11	-1.299009e-09	-0.1162007	-0.03971641	-1.145075e-10	-8.452497e-10	0.01541359	0.003010409
	0.01550082	0.002514543	-1.145075e-10	-8.452497e-10	-0.1162702	-0.04040444	-1.687609e-10	-7.795382e-09
	1.841205e-09	-1.602548e-08	0.01541359	0.003010409	-1.687609e-10	-7.795382e-09	-0.1162039	-0.03954454
1.8e+08	-0.120879	-0.03185356	-1.705826e-10	-1.370597e-09	0.01565256	0.001317919	-2.939144e-10	-1.706504e-08
	-1.705826e-10	-1.370597e-09	-0.1210102	-0.03017515	-1.124373e-10	-8.951114e-10	0.01560386	0.001856086
	0.01565256	0.001317919	-1.124373e-10	-8.951114e-10	-0.1211211	-0.03093924	-6.665439e-10	-8.292975e-09
	-2.939144e-10	-1.706504e-08	0.01560386	0.001856086	-6.665439e-10	-8.292975e-09	-0.1210036	-0.02998776
1.9e+08	-0.1242239	-0.02180618	-2.655794e-10	-1.426652e-09	0.01559853	0.0001199057	-2.653536e-09	-1.775444e-08
	-2.655794e-10	-1.426652e-09	-0.124226	-0.02006813	-1.10408e-10	-9.470705e-10	0.0155942	0.0006941122
	0.01559853	0.0001199058	-1.10408e-10	-9.470705e-10	-0.1243904	-0.02089925	-1.221303e-09	-8.71424e-09
	-2.653536e-09	-1.775444e-08	0.0155942	0.0006941122	-1.221303e-09	-8.71424e-09	-0.1242072	-0.01986655
2e+08	-0.125924	-0.01143759	-3.656152e-10	-1.465028e-09	0.01534256	-0.001046919	-5.177348e-09	-1.804615e-08
	-3.656152e-10	-1.465028e-09	-0.1257882	-0.009657829	-1.087546e-10	-1.001178e-09	0.01538737	-0.0004441068
	0.01534256	-0.001046919	-1.087546e-10	-1.001178e-09	-0.1260161	-0.01054454	-1.819283e-09	-9.047121e-09
	-5.177348e-09	-1.804615e-08	0.01538737	-0.0004441068	-1.819283e-09	-9.047121e-09	-0.1257551	-0.009443881
2.1e+08	-0.1259585	-0.001012212	-4.667727e-10	-1.484405e-09	0.0148932	-0.002151229	-7.795886e-09	-1.790316e-08
	-4.667727e-10	-1.484405e-09	-0.1256789	0.0007891322	-1.077982e-10	-1.057461e-09	0.01499065	-0.001528233
	0.0148932	-0.002151229	-1.077982e-10	-1.057461e-09	-0.1259778	-0.000139754	-2.444234e-09	-9.282251e-09
	-7.795886e-09	-1.790316e-08	0.01499065	-0.001528233	-2.444234e-09	-9.282251e-09	-0.1256297	0.001013144
2.2e+08	-0.1243475	0.009207069	-5.648092e-10	-1.484433e-09	0.01426351	-0.003163531	-1.043231e-08	-1.730056e-08
	-5.648092e-10	-1.484433e-09	-0.1239215	0.01100815	-1.078568e-10	-1.11593e-09	0.01441559	-0.00252953
	0.01426351	-0.003163531	-1.078568e-10	-1.11593e-09	-0.1242963	0.01005209	-3.077976e-09	-9.413453e-09
	-1.043231e-08	-1.730056e-08	0.01441559	-0.00252953	-3.077976e-09	-9.413453e-09	-0.1238547	0.01123952
2.3e+08	-0.1211513	0.01896488	-6.554176e-10	-1.465799e-09	0.0134707	-0.004056703	-1.300447e-08	-1.622696e-08
	-6.554176e-10	-1.465799e-09	-0.1205801	0.02074274	-1.092604e-10	-1.176585e-09	0.01367778	-0.003421368
	0.0134707	-0.004056703	-1.092604e-10	-1.176585e-09	-0.1210325	0.01977555	-3.70106e-09	-9.438108e-09
	-1.300447e-08	-1.622696e-08	0.01367778	-0.003421368	-3.70106e-09	-9.438108e-09	-0.1204948	0.02097843
2.4e+08	-0.1164687	0.02801915	-7.345035e-10	-1.430231e-09	0.01253583	-0.004806502	-1.542715e-08	-1.468547e-08
	-7.345035e-10	-1.430231e-09	-0.1157574	0.02975034	-1.12366e-10	-1.239405e-09	0.01279652	-0.004179704
	0.01253583	-0.004806502	-1.12366e-10	-1.239405e-09	-0.1162862	0.02878859	-4.293508e-09	-9.357379e-09
	-1.542715e-08	-1.468547e-08	0.01279652	-0.004179704	-4.293508e-09	-9.357379e-09	-0.1156533	0.02998709
2.5e+08	-0.1104342	0.03614653	-7.984521e-10	-1.380413e-09	0.01148338	-0.005392056	-1.761458e-08	-1.269438e-08
	-7.984521e-10	-1.380413e-09	-0.1095921	0.0378079	-1.175692e-10	-1.304336e-09	0.01179449	-0.004783548
	0.01148338	-0.005392056	-1.175692e-10	-1.304336e-09	-0.1101927	0.03686805	-4.835566e-09	-9.176282e-09
	-1.761458e-08	-1.269438e-08	0.01179449	-0.004783548	-4.835566e-09	-9.176282e-09	-0.1094695	0.03804231
2.6e+08	-0.1032154	0.04314758	-8.443662e-10	-1.319836e-09	0.01034086	-0.005796332	-1.948303e-08	-1.028749e-08
	-8.443662e-10	-1.319836e-09	-0.1022561	0.044717	-1.25308e-10	-1.371264e-09	0.0106974	-0.005215421
	0.01034086	-0.005796332	-1.25308e-10	-1.371264e-09	-0.1029204	0.04381481	-5.308469e-09	-8.903586e-09
	-1.948303e-08	-1.028749e-08	0.0106974	-0.005215421	-5.308469e-09	-8.903586e-09	-0.1021158	0.04494565
2.7e+08	-0.09500848	0.04885142	-8.70252e-10	-1.252583e-09	0.009138265	-0.006006579	-2.095357e-08	-7.513979e-09
	-8.70252e-10	-1.252583e-09	-0.09394961	0.05030856	-1.360568e-10	-1.439992e-09	0.009533525	-0.0054618
	0.009138265	-0.006006579	-1.360568e-10	-1.439992e-09	-0.09466669	0.04945847	-5.695158e-09	-8.551568e-09
	-2.095357e-08	-7.513979e-09	0.009533525	-0.0054618	-5.695158e-09	-8.551568e-09	-0.09379317	0.05052815
2.8e+08	-0.08603428	0.05311988	-8.751408e-10	-1.183067e-09	0.007907513	-0.00601474	-2.195481e-08	-4.437755e-09
	-8.751408e-10	-1.183067e-09	-0.08489731	0.054447	-1.503095e-10	-1.510214e-09	0.008333163	-0.005513539
	0.007907513	-0.00601474	-1.503095e-10	-1.510214e-09	-0.08565309	0.05366155	-5.980929e-09	-8.135623e-09
	-2.195481e-08	-4.437755e-09	0.008333163	-0.005513539	-5.980929e-09	-8.135623e-09	-0.08472691	0.05465444
2.9e+08	-0.07653266	0.05585101	-8.591272e-10	-1.11575e-09	0.006681782	-0.005817814	-2.242564e-08	-1.136427e-09
	-8.591272e-10	-1.11575e-09	-0.07534254	0.0570337	-1.685496e-10	-1.581489e-09	0.007128064	-0.005366248
	0.006681782	-0.005817814	-1.685496e-10	-1.581489e-09	-0.07612041	0.05632295	-6.153981e-09	-7.67376e-09
	-2.242564e-08	-1.136427e-09	0.007128064	-0.005366248	-6.153981e-09	-7.67376e-09	-0.07516097	0.05722623
3e+08	-0.06675706	0.0569819	-8.233254e-10	-1.054861e-09	0.005494743	-0.005418132	-2.231789e-08	2.300324e-09
	-8.233254e-10	-1.054861e-09	-0.06554165	0.05800971	-1.912125e-10	-1.653236e-09	0.005950702	-0.005020599
	0.005494743	-0.005418132	-1.912125e-10	-1.653236e-09	-0.06632282	0.05738075	-6.205845e-09	-7.186007e-09
	-2.231789e-08	2.300324e-09	0.005950702	-0.005020599	-6.205845e-09	-7.186007e-09	-0.06535222	0.05818505
3.1e+08	-0.05696824	0.05649054	-7.697457e-10	-1.00414e-09	0.004379718	-0.004823536	-2.159867e-08	5.77285e-09
	-7.697457e-10	-1.00414e-09	-0.05575766	0.05735764	-2.186386e-10	-1.724728e-09	0.004833487	-0.004482549
	0.004379718	-0.004823536	-2.186386e-10	-1.724728e-09	-0.05652172	0.05681416	-6.131676e-09	-6.693749e-09
	-2.159867e-08	5.77285e-09	0.004833487	-0.004482549	-6.131676e-09	-6.693749e-09	-0.05556417	0.05751403
3.2e+08	-0.04742778	0.05439688	-7.011e-10	-9.666361e-10	0.003368755	-0.004047415	-2.02525e-08	9.174158e-09
	-7.011e-10	-9.666361e-10	-0.04625361	0.05510247	-2.51028e-10	-1.79511e-09	0.003807882	-0.003763422
	0.003368755	-0.004047415	-2.51028e-10	-1.79511e-09	-0.04697915	0.05464444	-5.930406e-09	-6.219056e-09
	-2.02525e-08	9.174158e-09	0.003807882	-0.003763422	-5.930406e-09	-6.219056e-09	-0.04606025	0.05523882
3.3e+08	-0.03839135	0.0507627	-6.205549e-10	-9.445788e-10	0.002491661	-0.003108578	-1.828294e-08	1.239298e-08
	-6.205549e-10	-9.445788e-10	-0.03728577	0.05131136	-2.883988e-10	-1.863425e-09	0.002903467	-0.002879841
	0.002491661	-0.003108578	-2.883988e-10	-1.863425e-09	-0.03795101	0.05093482	-5.604762e-09	-5.784011e-09
	-1.828294e-08	1.239298e-08	0.002903467	-0.002879841	-5.604762e-09	-5.784011e-09	-0.03709697	0.05142733
3.4e+08	-0.0301019	0.04569056	-5.329918e-10	-9.37041e-10	0.001775013	-0.00203094	-1.571253e-08	1.531584e-08
	-5.329918e-10	-9.37041e-10	-0.02909676	0.04609239	-3.304357e-10	-1.928858e-09	0.00214698	-0.001853472
	0.001775013	-0.00203094	-3.304357e-10	-1.928858e-09	-0.02968032	0.04578934	-5.162733e-09	-5.407686e-09
	-1.571253e-08	1.531584e-08	0.00214698	-0.001853472	-5.162733e-09	-5.407686e-09	-0.02891707	0.04618845
3.5e+08	-0.02278312	0.03932135	-4.397924e-10	-9.467502e-10	0.001241202	-0.0008429958	-1.258692e-08	1.783414e-08
	-4.397924e-10	-9.467502e-10	-0.02190893	0.03959202	-3.768479e-10	-1.990267e-09	0.00156137	-0.0007105734
	0.001241202	-0.0008429958	-3.768479e-10	-1.990267e-09	-0.02239053	0.03935049	-4.612277e-09	-5.112572e-09
	-1.258692e-08	1.783414e-08	0.00156137	-0.0007105734	-4.612277e-09	-5.112572e-09	-0.02174289	0.03966943
3.6e+08	-0.01663315	0.03183094	-3.437685e-10	-9.740181e-10	0.0009075522	0.0004229087	-8.970895e-09	1.984579e-08
	-3.437685e-10	-9.740181e-10	-0.01591805	0.03199154	-4.269587e-10	-2.046672e-09	0.001164922	0.0005186649
	0.0009075522	0.0004229087	-4.269587e-10	-2.046672e-09	-0.01627927	0.03179571	-3.966353e-09	-4.917675e-09
	-8.970895e-09	1.984579e-08	0.001164922	0.0005186649	-3.966353e-09	-4.917675e-09	-0.01577006	0.0320524
3.7e+08	-0.01181892	0.02342569	-2.47576e-10	-1.018281e-09	0.0007855792	0.0017315	-4.948211e-09	2.125934e-08
	-2.47576e-10	-1.018281e-09	-0.01128776	0.0235023	-4.798268e-10	-2.097259e-09	0.0009704976	0.001800974
	0.0007855792	0.0017315	-4.798268e-10	-2.097259e-09	-0.01151273	0.02333284	-3.241127e-09	-4.839456e-09
	-4.948211e-09	2.125934e-08	0.0009704976	0.001800974	-3.241127e-09	-4.839456e-09	-0.01116188	0.02354949
3.8e+08	-0.008471336	0.01433684	-1.533669e-10	-1.078677e-09	0.0008804232	0.003045674	-6.198605e-10	2.199773e-08
	-1.533669e-10	-1.078677e-09	-0.008144696	0.01436003	-5.342988e-10	-2.141416e-09	0.0009849464	0.003101032
	0.0008804232	0.003045674	-5.342988e-10	-2.141416e-09	-0.008220791	0.01419451	-2.455331e-09	-4.89181e-09
	-6.198605e-10	2.199773e-08	0.0009849464	0.003101032	-2.455331e-09	-4.89181e-09	-0.008044559	0.01439721
3.9e+08	-0.006681371	0.004814248	-6.280724e-11	-1.154275e-09	0.001190515	0.004327715	3.898548e-09	2.200171e-08
	-6.280724e-11	-1.154275e-09	-0.006574796	0.004818337	-5.890582e-10	-2.178789e-09	0.001208734	0.004382614
	0.001190515	0.004327715	-5.890582e-10	-2.178789e-09	-0.00649317	0.004631809	-1.62989e-09	-5.085745e-09
	3.898548e-09	2.200171e-08	0.001208734	0.004382614	-1.62989e-09	-5.085745e-09	-0.006503414	0.004849839
4e+08	-0.006497431	-0.004880677	2.281757e-11	-1.244271e-09	0.001707498	0.005540591	8.48012e-09	2.123264e-08
	2.281757e-11	-1.244271e-09	-0.00662071	-0.004858483	-6.426922e-10	-2.209331e-09	0.001635814	0.005609835
	0.001707498	0.005540591	-6.426922e-10	-2.209331e-09	-0.006376798	-0.005092826	-7.875294e-10	-5.429092e-09
	8.48012e-09	2.123264e-08	0.001635814	0.005609835	-7.875294e-10	-5.429092e-09	-0.006580374	-0.004827755
4.1e+08	-0.007923921	-0.01448234	1.024274e-10	-1.348116e-09	0.002416432	0.006649256	1.299056e-08	1.96746e-08
	1.024274e-10	-1.348116e-09	-0.008280566	-0.01440296	-6.937674e-10	-2.233319e-09	0.002253771	0.006748392
	0.002416432	0.006649256	-6.937674e-10	-2.233319e-09	-0.007874434	-0.01471302	4.762676e-11	-5.926243e-09
	1.299056e-08	1.96746e-08	0.002253771	0.006748392	4.762676e-11	-5.926243e-09	-0.008272729	-0.01436764
4.2e+08	-0.01092122	-0.02372854	1.749328e-10	-1.465564e-09	0.003296267	0.00762189	1.729246e-08	1.73358e-08
	1.749328e-10	-1.465564e-09	-0.01150811	-0.0235521	-7.409138e-10	-2.251364e-09	0.003044219	0.007766772
	0.003296267	0.00762189	-7.409138e-10	-2.251364e-09	-0.01094467	-0.02396608	8.504968e-10	-6.577905e-09
	1.729246e-08	1.73358e-08	0.003044219	0.007766772	8.504968e-10	-6.577905e-09	-0.0115333	-0.02350653
4.3e+08	-0.01540696	-0.0323679	2.390165e-10	-1.596614e-09	0.004320573	0.008431021	2.124982e-08	1.4249e-08
	2.390165e-10	-1.596614e-09	-0.01621419	-0.03205489	-7.829078e-10	-2.264391e-09	0.003983465	0.008637344
	0.004320573	0.008431021	-7.829078e-10	-2.264391e-09	-0.01550328	-0.03260041	1.595525e-09	-7.38088e-09
	2.124982e-08	1.4249e-08	0.003983465	0.008637344	1.595525e-09	-7.38088e-09	-0.01627196	-0.03199327
4.4e+08	-0.0212587	-0.04016694	2.929519e-10	-1.741364e-09	0.005458496	0.009054458	2.473259e-08	1.047108e-08
	2.929519e-10	-1.741364e-09	-0.02226965	-0.03967942	-8.187487e-10	-2.273597e-09	0.005043366	0.009337284
	0.005458496	0.009054458	-8.187487e-10	-2.273597e-09	-0.02142593	-0.04038263	2.257228e-09	-8.32787e-09
	2.473259e-08	1.047108e-08	0.005043366	0.009337284	2.257228e-09	-8.32787e-09	-0.02235854	-0.03959597
4.5e+08	-0.02831769	-0.04691649	3.344909e-10	-1.899785e-09	0.00667587	0.009476005	2.762108e-08	6.081796e-09
	3.344909e-10	-1.899785e-09	-0.02950928	-0.04621922	-8.477228e-10	-2.28039e-09	0.006192371	0.009849281
	0.00667587	0.009476005	-8.477228e-10	-2.28039e-09	-0.02855203	-0.04710402	2.810823e-09	-9.407343e-09
	2.762108e-08	6.081796e-09	0.006192371	0.009849281	2.810823e-09	-9.407343e-09	-0.02962683	-0.04610838
4.6e+08	-0.03639379	-0.0524373	3.608489e-10	-2.071457e-09	0.007936446	0.009685904	2.980996e-08	1.181602e-09
	3.608489e-10	-2.071457e-09	-0.03773697	-0.05149888	-8.69449e-10	-2.286312e-09	0.007396657	0.01016201
	0.007936446	0.009685904	-8.69449e-10	-2.286312e-09	-0.03668965	-0.05258602	3.232922e-09	-1.060349e-08
	2.980996e-08	1.181602e-09	0.007396657	0.01016201	3.232922e-09	-1.060349e-08	-0.03787975	-0.05135548
4.7e+08	-0.04527115	-0.05658459	3.687992e-10	-2.255292e-09	0.009203157	0.009681022	3.121182e-08	-4.111166e-09
	3.687992e-10	-2.255292e-09	-0.04673155	-0.05537846	-8.839022e-10	-2.292954e-09	0.008621315	0.01027035
