!$
! Info: Touchstone file created by Circ.  Input file=Tx_8in_Rx_100ohms_TxVia_10mils_RxVia_20mils.circ
!$
# Hz S RI R 50
0	0.008369741	6.599361e-26	-4.326052e-05	-5.963889e-26	5.667644e-05	1.049196e-23	-4.32737e-05	1.558557e-24
	-4.326053e-05	-5.883067e-26	0.008372588	7.606876e-26	-4.326006e-05	-4.933805e-26	5.410677e-05	1.188651e-23
	5.672427e-05	1.049809e-23	-4.326004e-05	-5.017791e-26	0.008384578	6.617577e-26	-4.326161e-05	1.596016e-25
	-4.327369e-05	1.557654e-24	5.556307e-05	1.223407e-23	-4.32616e-05	1.58602e-25	0.008378179	7.255937e-26
1e+07	0.0118544	0.005433697	-2.049481e-06	-8.445864e-06	0.000205313	0.001472319	-1.62768e-06	-1.166784e-05
	-2.049481e-06	-8.445864e-06	0.01222343	0.005468027	-1.164838e-06	-2.460579e-06	0.0004872464	0.001510424
	0.0002053174	0.001472316	-1.164838e-06	-2.460579e-06	0.01142113	0.005665183	-2.74609e-06	-3.278076e-06
	-1.62768e-06	-1.166784e-05	0.0004872791	0.001510412	-2.74609e-06	-3.278076e-06	0.01211577	0.005480197
2e+07	0.01544134	0.008089484	-3.990148e-06	7.260402e-08	0.0005630352	0.002933023	-1.382058e-06	-4.245588e-06
	-3.990148e-06	7.2604e-08	0.01575661	0.008014421	-1.519985e-05	-1.801675e-05	0.0007366714	0.003113847
	0.0005630342	0.00293302	-1.519985e-05	-1.801675e-05	0.01534512	0.008614189	-1.872322e-05	-1.779598e-05
	-1.382058e-06	-4.245588e-06	0.000736669	0.003113826	-1.872322e-05	-1.779598e-05	0.0156838	0.008079418
3e+07	0.01857766	0.009289294	-6.511292e-06	-1.255824e-06	0.001145885	0.004282918	-1.330553e-06	-2.398646e-06
	-6.511292e-06	-1.255824e-06	0.01884436	0.00917877	-2.733127e-05	-1.897294e-05	0.001236248	0.004512154
	0.001145885	0.004282917	-2.733127e-05	-1.897294e-05	0.01874585	0.009864142	-3.081649e-05	-1.828052e-05
	-1.330553e-06	-2.398646e-06	0.001236243	0.004512151	-3.081649e-05	-1.828052e-05	0.01880306	0.009264005
4e+07	0.02148514	0.009736852	-8.498575e-06	-1.029538e-06	0.001933694	0.005507466	-1.253304e-06	-1.410115e-06
	-8.498575e-06	-1.029538e-06	0.02170408	0.009610885	-3.705144e-05	-1.563046e-05	0.001973979	0.005761167
	0.001933695	0.005507465	-3.705144e-05	-1.563046e-05	0.02187158	0.01027892	-4.04557e-05	-1.452582e-05
	-1.253304e-06	-1.410115e-06	0.001973979	0.005761168	-4.04557e-05	-1.452582e-05	0.02169243	0.009703792
5e+07	0.02420514	0.009608027	-1.002768e-05	-3.030192e-08	0.002901799	0.00657925	-1.136991e-06	-7.53177e-07
	-1.002768e-05	-3.030191e-08	0.02437633	0.0094788	-4.469241e-05	-9.745889e-06	0.003024626	0.00679247
	0.0029018	0.006579249	-4.469241e-05	-9.745889e-06	0.02476942	0.01006546	-4.797861e-05	-8.253172e-06
	-1.136991e-06	-7.53177e-07	0.003024626	0.00679247	-4.797861e-05	-8.253172e-06	0.02439122	0.009571954
6e+07	0.02673183	0.008994396	-1.112029e-05	1.44625e-06	0.004021942	0.007473481	-9.817114e-07	-2.729834e-07
	-1.112029e-05	1.44625e-06	0.02685626	0.008872724	-5.035481e-05	-2.105907e-06	0.004202516	0.007632428
	0.004021944	0.00747348	-5.035481e-05	-2.105907e-06	0.02743473	0.009330593	-5.34875e-05	-2.387711e-07
	-9.817114e-07	-2.729834e-07	0.004202513	0.007632429	-5.34875e-05	-2.387711e-07	0.02689517	0.008960781
7e+07	0.02904263	0.00795994	-1.177432e-05	3.245047e-06	0.005275302	0.008161368	-7.89642e-07	8.878594e-08
	-1.177432e-05	3.245047e-06	0.02912249	0.007855656	-5.401253e-05	6.828847e-06	0.005477725	0.008266305
	0.005275304	0.008161368	-5.401253e-05	6.828847e-06	0.02984453	0.00814832	-5.697559e-05	9.05449e-06
	-7.89642e-07	8.878598e-08	0.00547772	0.008266307	-5.697558e-05	9.05449e-06	0.02918272	0.007933689
8e+07	0.0311098	0.006559043	-1.197204e-05	5.271702e-06	0.006613572	0.008634188	-5.670695e-07	3.539506e-07
	-1.197204e-05	5.271702e-06	0.03114846	0.006481088	-5.557644e-05	1.675067e-05	0.006817204	0.008682859
	0.006613574	0.008634188	-5.557644e-05	1.675067e-05	0.03196964	0.006580306	-5.833451e-05	1.931591e-05
	-5.670695e-07	3.539507e-07	0.006817199	0.008682862	-5.833451e-05	1.931591e-05	0.03122629	0.006544671
9e+07	0.03290615	0.004843757	-1.167011e-05	7.476113e-06	0.008000425	0.008883442	-3.15738e-07	5.307759e-07
	-1.167011e-05	7.476113e-06	0.03290836	0.004800434	-5.481737e-05	2.751067e-05	0.008185389	0.008875066
	0.008000427	0.008883442	-5.481737e-05	2.751067e-05	0.03377928	0.004683109	-5.731705e-05	3.043088e-05
	-3.15738e-07	5.30776e-07	0.008185386	0.008875069	-5.731705e-05	3.043088e-05	0.03299903	0.004846044
1e+08	0.03441731	0.002874091	-1.060199e-05	9.98122e-06	0.009402897	0.008908367	-4.33415e-08	6.217725e-07
	-1.060199e-05	9.98122e-06	0.03439041	0.002874108	-5.045689e-05	3.977823e-05	0.009540818	0.008837004
	0.009402897	0.008908366	-5.045689e-05	3.977823e-05	0.03523859	0.002507171	-5.263093e-05	4.309101e-05
	-4.33415e-08	6.217725e-07	0.009540818	0.008837004	-5.263093e-05	4.309101e-05	0.0344873	0.002898414
1.1e+08	0.03563707	0.0006180111	-8.468456e-06	1.129629e-05	0.01078895	0.008689609	1.420633e-07	6.542328e-07
	-8.468456e-06	1.129629e-05	0.03559171	0.0006620736	-4.090161e-05	4.650279e-05	0.01083915	0.008607368
	0.01078895	0.008689609	-4.090161e-05	4.650279e-05	0.03631732	0.0001424638	-4.258983e-05	5.005779e-05
	1.420633e-07	6.542328e-07	0.01083915	0.008607368	-4.258983e-05	5.005779e-05	0.03568792	0.000670374
1.2e+08	0.0364688	-0.001822278	-7.961811e-06	1.118432e-05	0.01210048	0.00824576	1.56252e-07	6.035866e-07
	-7.961811e-06	1.118432e-05	0.03640885	-0.001732996	-3.32825e-05	5.033362e-05	0.0120822	0.008181174
	0.01210048	0.00824576	-3.32825e-05	5.033362e-05	0.03703614	-0.002358777	-3.668937e-05	5.250873e-05
	1.56252e-07	6.035866e-07	0.0120822	0.008181174	-3.668937e-05	5.250873e-05	0.03650431	-0.001738505
1.3e+08	0.03691482	-0.004375816	-7.419631e-06	1.119868e-05	0.01330731	0.007596062	1.204562e-07	5.645325e-07
	-7.419631e-06	1.119868e-05	0.03684593	-0.004239391	-3.119941e-05	5.004779e-05	0.01323215	0.007564594
	0.01330731	0.007596062	-3.119941e-05	5.004779e-05	0.03737951	-0.004949506	-3.449955e-05	5.233078e-05
	1.204562e-07	5.645325e-07	0.01323215	0.007564594	-3.449955e-05	5.233078e-05	0.03693931	-0.004257731
1.4e+08	0.03697374	-0.006982963	-6.828523e-06	1.125813e-05	0.01437917	0.006761531	8.730516e-08	5.346503e-07
	-6.828523e-06	1.125813e-05	0.03690219	-0.006798154	-2.886741e-05	5.005721e-05	0.0142582	0.006774257
	0.01437917	0.006761531	-2.886741e-05	5.005721e-05	0.0373436	-0.007576239	-3.205439e-05	5.245549e-05
	8.730516e-08	5.346503e-07	0.0142582	0.006774257	-3.205439e-05	5.245549e-05	0.03699204	-0.006828383
1.5e+08	0.03664931	-0.009586447	-6.207496e-06	1.133413e-05	0.01528901	0.005767284	5.559315e-08	5.133173e-07
	-6.207496e-06	1.133413e-05	0.03658173	-0.00935298	-2.637667e-05	5.021018e-05	0.0151335	0.005832164
	0.01528901	0.005767284	-2.637667e-05	5.021018e-05	0.03693166	-0.0101852	-2.944104e-05	5.272954e-05
	5.559315e-08	5.133173e-07	0.0151335	0.005832164	-2.944104e-05	5.272954e-05	0.03666668	-0.009394052
1.6e+08	0.03595154	-0.01213102	-5.567015e-06	1.141073e-05	0.01601399	0.004642228	2.48106e-08	5.002448e-07
	-5.567015e-06	1.141073e-05	0.03589473	-0.01184972	-2.37738e-05	5.042034e-05	0.01583544	0.004764561
	0.01601399	0.004642228	-2.37738e-05	5.042034e-05	0.03615373	-0.01272362	-2.670659e-05	5.306361e-05
	2.48106e-08	5.002448e-07	0.01583544	0.004764561	-2.670659e-05	5.306361e-05	0.03597354	-0.01190047
1.7e+08	0.03489701	-0.0145639	-4.913701e-06	1.14782e-05	0.01653612	0.003418432	-5.068609e-09	4.953881e-07
	-4.913701e-06	1.14782e-05	0.03485771	-0.01423677	-2.108858e-05	5.063229e-05	0.0163461	0.003601063
	0.01653612	0.003418432	-2.108858e-05	5.063229e-05	0.03502657	-0.01514076	-2.388095e-05	5.340006e-05
	-5.068608e-09	4.953881e-07	0.0163461	0.003601063	-2.388095e-05	5.340006e-05	0.03492929	-0.0142959
1.8e+08	0.0335088	-0.0168355	-4.252067e-06	1.153027e-05	0.01684277	0.002130337	-3.367323e-08	4.98826e-07
	-4.252067e-06	1.153027e-05	0.03349346	-0.01646577	-1.834187e-05	5.080827e-05	0.01665266	0.0023738
	0.01684277	0.002130337	-1.834187e-05	5.080827e-05	0.03357342	-0.01738874	-2.098502e-05	5.369933e-05
	-3.367323e-08	4.98826e-07	0.01665266	0.0023738	-2.098502e-05	5.369933e-05	0.03355693	-0.01653187
1.9e+08	0.03181623	-0.01890025	-3.584527e-06	1.156332e-05	0.01692698	0.0008138932	-6.026685e-08	5.106467e-07
	-3.584527e-06	1.156332e-05	0.0318308	-0.01849231	-1.554969e-05	5.092136e-05	0.0167477	0.001116541
	0.01692698	0.0008138932	-1.554969e-05	5.092136e-05	0.03182371	-0.01942352	-1.803484e-05	5.393295e-05
	-6.026685e-08	5.106467e-07	0.0167477	0.001116541	-1.803484e-05	5.393295e-05	0.03188546	-0.01856387
2e+08	0.02985434	-0.02071739	-2.913594e-06	1.1574e-05	0.01678766	-0.0004943691	-8.392012e-08	5.308438e-07
	-2.913594e-06	1.1574e-05	0.02990402	-0.02027677	-1.272504e-05	5.095166e-05	0.01662935	-0.0001362097
	0.01678766	-0.0004943691	-1.272504e-05	5.095166e-05	0.02981251	-0.02120571	-1.50435e-05	5.407963e-05
	-8.392012e-08	5.308438e-07	0.01662935	-0.0001362097	-1.50435e-05	5.407963e-05	0.02994944	-0.0203522
2.1e+08	0.02766327	-0.02225172	-2.241992e-06	1.155952e-05	0.01642961	-0.001758281	-1.035169e-07	5.592734e-07
	-2.241992e-06	1.155952e-05	0.02775233	-0.02178496	-9.879253e-06	5.088411e-05	0.01630137	-0.001350119
	0.01642961	-0.001758281	-9.879253e-06	5.088411e-05	0.02757991	-0.02270141	-1.202243e-05	5.412303e-05
	-1.035169e-07	5.592734e-07	0.01630137	-0.001350119	-1.202243e-05	5.412303e-05	0.02778828	-0.02186262
2.2e+08	0.02528749	-0.02347429	-1.571421e-06	1.151821e-05	0.01586339	-0.002942975	-1.177753e-07	5.955818e-07
	-1.571421e-06	1.151821e-05	0.02541902	-0.02298876	-7.022472e-06	5.070702e-05	0.01577297	-0.002491931
	0.01586339	-0.002942975	-7.022472e-06	5.070702e-05	0.02517023	-0.0238828	-8.981978e-06	5.405024e-05
	-1.177753e-07	5.955818e-07	0.01577297	-0.002491931	-8.981978e-06	5.405024e-05	0.02544557	-0.02306701
2.3e+08	0.02277487	-0.02436296	-9.033824e-07	1.144867e-05	0.01510504	-0.004015799	-1.253501e-07	6.391647e-07
	-9.033824e-07	1.144867e-05	0.02295068	-0.02386668	-4.164146e-06	5.04111e-05	0.01505864	-0.003530335
	0.01510504	-0.004015799	-4.164146e-06	5.04111e-05	0.02263113	-0.02472878	-5.931907e-06	5.385082e-05
	-1.253501e-07	6.391647e-07	0.01505864	-0.003530335	-5.931907e-06	5.385082e-05	0.02296814	-0.02394389
2.4e+08	0.02017574	-0.02490276	-2.393214e-07	1.134973e-05	0.01417564	-0.004947166	-1.249111e-07	6.89151e-07
	-2.393214e-07	1.134973e-05	0.02039615	-0.02440417	-1.313573e-06	4.998904e-05	0.01417767	-0.004436784
	0.01417564	-0.004947166	-1.313573e-06	4.998904e-05	0.02001262	-0.0252254	-2.881918e-06	5.351636e-05
	-1.249111e-07	6.89151e-07	0.01417767	-0.004436784	-2.881918e-06	5.351636e-05	0.0204051	-0.02447878
2.5e+08	0.0175418	-0.02508625	4.19325e-07	1.122031e-05	0.01310076	-0.005711328	-1.152059e-07	7.443978e-07
	4.193249e-07	1.122031e-05	0.01780562	-0.02459393	1.520142e-06	4.943492e-05	0.01315375	-0.005186242
	0.01310076	-0.005711328	1.520142e-06	4.943492e-05	0.01736603	-0.02536607	1.583595e-07	5.303991e-05
	-1.152059e-07	7.443978e-07	0.01315375	-0.005186242	1.583595e-07	5.303991e-05	0.01780688	-0.02466449
2.6e+08	0.01492504	-0.02491357	1.071032e-06	1.105945e-05	0.01190977	-0.006287055	-9.513103e-08	8.035067e-07
	1.071032e-06	1.105945e-05	0.0152295	-0.02443598	4.327757e-06	4.874417e-05	0.01201422	-0.005757838
	0.01190977	-0.006287055	4.327757e-06	4.874417e-05	0.01474291	-0.02515174	3.179041e-06	5.241591e-05
	-9.513103e-08	8.035067e-07	0.01201422	-0.005757838	3.179041e-06	5.241591e-05	0.01522414	-0.0245012
2.7e+08	0.01237666	-0.02439243	1.714146e-06	1.086626e-05	0.01063508	-0.006658187	-6.37882e-08	8.648512e-07
	1.714146e-06	1.086626e-05	0.01271741	-0.02393763	7.099882e-06	4.791319e-05	0.01078947	-0.006135405
	0.01063508	-0.006658187	7.099882e-06	4.791319e-05	0.01219398	-0.02459082	6.169971e-06	5.163987e-05
	-6.37882e-08	8.648512e-07	0.01078947	-0.006135405	6.169971e-06	5.163987e-05	0.01270671	-0.0239964
2.8e+08	0.009945977	-0.02353789	2.346835e-06	1.063995e-05	0.00931125	-0.006814058	-2.054002e-08	9.266175e-07
	2.346835e-06	1.063995e-05	0.01031718	-0.02311322	9.826825e-06	4.693958e-05	0.009512019	-0.006307908
	0.00931125	-0.006814058	9.826825e-06	4.693958e-05	0.009767983	-0.02369901	9.120573e-06	5.070858e-05
	-2.054002e-08	9.266175e-07	0.009512019	-0.006307908	9.120573e-06	5.070858e-05	0.0103026	-0.02316466
2.9e+08	0.007679357	-0.02237199	2.967067e-06	1.037992e-05	0.00797407	-0.006749767	3.495295e-08	9.868572e-07
	2.967067e-06	1.037992e-05	0.008073769	-0.02198384	1.249862e-05	4.582192e-05	0.008215762	-0.00626972
	0.00797407	-0.006749767	1.249862e-05	4.582192e-05	0.007510701	-0.02249887	1.201988e-05	4.961993e-05
	3.495295e-08	9.868572e-07	0.008215762	-0.00626972	1.201988e-05	4.961993e-05	0.008056908	-0.02202733
3e+08	0.005619247	-0.02092323	3.572608e-06	1.00857e-05	0.006659626	-0.006466304	1.027048e-07	1.043545e-06
	3.572608e-06	1.00857e-05	0.006028417	-0.02057676	1.510501e-05	4.455977e-05	0.006935003	-0.006020764
	0.006659626	-0.006466304	1.510501e-05	4.455977e-05	0.005463956	-0.02101936	1.485657e-05	4.837291e-05
	1.027048e-07	1.043545e-06	0.006935003	-0.006020764	1.485657e-05	4.837291e-05	0.006010968	-0.02061195
3.1e+08	0.003803284	-0.01922593	4.161027e-06	9.757077e-06	0.005403323	-0.00597051	1.823862e-07	1.094641e-06
	4.161027e-06	9.757077e-06	0.004217739	-0.01892485	1.763553e-05	4.315387e-05	0.005703582	-0.00556651
	0.005403323	-0.00597051	1.763553e-05	4.315387e-05	0.00366473	-0.01929512	1.761899e-05	4.696786e-05
	1.823862e-07	1.094641e-06	0.005703582	-0.00556651	1.761899e-05	4.696786e-05	0.004201447	-0.0189517
3.2e+08	0.002263489	-0.01731941	4.72971e-06	9.394111e-06	0.004238946	-0.005274889	2.733275e-07	1.138158e-06
	4.72971e-06	9.394111e-06	0.002672991	-0.01706578	2.007949e-05	4.1606e-05	0.004553975	-0.004917817
	0.004238946	-0.005274889	2.007949e-05	4.1606e-05	0.002144365	-0.01736575	2.029524e-05	4.540631e-05
	2.733275e-07	1.138158e-06	0.004553975	-0.004917817	2.029524e-05	4.540631e-05	0.0026596	-0.01708454
3.3e+08	0.001025607	-0.0152471	5.275899e-06	8.997153e-06	0.003197763	-0.004397258	3.745309e-07	1.172222e-06
	5.275899e-06	8.997153e-06	0.001419443	-0.01504123	2.24261e-05	3.991902e-05	0.003516447	-0.004090635
	0.003197763	-0.004397258	2.24261e-05	3.991902e-05	0.0009279418	-0.01527484	2.287332e-05	4.369103e-05
	3.745309e-07	1.172222e-06	0.003516447	-0.004090635	2.287332e-05	4.369103e-05	0.001410639	-0.01505246
3.4e+08	0.0001085933	-0.0130556	5.796739e-06	8.566924e-06	0.002307696	-0.003360267	4.84693e-07	1.195132e-06
	5.796739e-06	8.566924e-06	0.0004758786	-0.0128959	2.466462e-05	3.809709e-05	0.00261825	-0.003105579
	0.002307696	-0.003360267	2.466462e-05	3.809709e-05	3.373897e-05	-0.01306905	2.534125e-05	4.182628e-05
	4.84693e-07	1.195132e-06	0.00261825	-0.003105579	2.534125e-05	4.182628e-05	0.0004732482	-0.01290042
3.5e+08	-0.0004757704	-0.01079355	6.289324e-06	8.10451e-06	0.001592583	-0.00219078	6.022449e-07	1.205414e-06
	6.289324e-06	8.10451e-06	-0.0001457607	-0.01067651	2.678439e-05	3.614546e-05	0.001882921	-0.001987367
	0.001592583	-0.00219078	2.678439e-05	3.614546e-05	-0.0005271093	-0.010797	2.768723e-05	3.981755e-05
	6.022449e-07	1.205414e-06	0.001882921	-0.001987367	2.768723e-05	3.981755e-05	-0.0001407842	-0.01067545
3.6e+08	-0.0007230691	-0.00851058	6.750748e-06	7.611401e-06	0.001071554	-0.0009191531	7.253924e-07	1.201861e-06
	6.750748e-06	7.611401e-06	-0.0004405675	-0.008430814	2.877506e-05	3.407066e-05	0.001329667	-0.0007641681
	0.001071554	-0.0009191531	2.877506e-05	3.407066e-05	-0.0007508172	-0.008508241	2.989979e-05	3.767177e-05
	7.253924e-07	1.201861e-06	0.001329667	-0.0007641681	2.989979e-05	3.767177e-05	-0.0004267476	-0.00842552
3.7e+08	-0.0006362989	-0.006256206	7.178213e-06	7.089467e-06	0.0007585304	0.0004215826	8.521805e-07	1.183569e-06
	7.178213e-06	7.089467e-06	-0.0004107147	-0.006206492	3.062667e-05	3.188036e-05	0.000972873	0.000533158
	0.0007585304	0.0004215826	3.062667e-05	3.188036e-05	-0.0006409698	-0.00625209	3.196799e-05	3.539713e-05
	8.521805e-07	1.183569e-06	0.000972873	0.000533158	3.196799e-05	3.539713e-05	-0.0003870511	-0.006198521
3.8e+08	-0.000225739	-0.0040787	7.569043e-06	6.540971e-06	0.0006618661	0.001796609	9.805412e-07	1.149955e-06
	7.569043e-06	6.540971e-06	-6.533716e-05	-0.004050132	3.232982e-05	2.958338e-05	0.0008217385	0.001871873
	0.0006618661	0.001796609	3.232982e-05	2.958338e-05	-0.0002083904	-0.004076573	3.388156e-05	3.300305e-05
	9.805412e-07	1.149955e-06	0.0008217385	0.001871873	3.388156e-05	3.300305e-05	-3.109945e-05	-0.004041206
3.9e+08	0.0004913448	-0.002024039	7.920767e-06	5.968549e-06	0.0007841434	0.003170247	1.108356e-06	1.100769e-06
	7.920767e-06	5.968549e-06	0.0005797377	-0.002006211	3.387582e-05	2.718964e-05	0.0008800517	0.003218227
	0.0007841434	0.003170247	3.387582e-05	2.718964e-05	0.0005291636	-0.002027351	3.563105e-05	3.050013e-05
	1.108356e-06	1.100769e-06	0.0008800517	0.003218227	3.563105e-05	3.050013e-05	0.0006249842	-0.001998171
4e+08	0.001491148	-0.0001348879	8.231173e-06	5.375173e-06	0.001122117	0.004506909	1.233513e-06	1.036089e-06
	8.231173e-06	5.375173e-06	0.001502408	-0.000116137	3.52568e-05	2.471009e-05	0.001146107	0.004538345
	0.001122117	0.004506909	3.52568e-05	2.471009e-05	0.001547457	-0.0001467177	3.720801e-05	2.790001e-05
	1.233513e-06	1.036089e-06	0.001146107	0.004538345	3.720801e-05	2.790001e-05	0.001558785	-0.0001108908
4.1e+08	0.002743925	0.001550319	8.498372e-06	4.764117e-06	0.001666815	0.00577204	1.353968e-06	9.563086e-07
	8.498372e-06	4.764117e-06	0.002674853	0.001582634	3.646591e-05	2.215659e-05	0.001612768	0.005799117
	0.001666815	0.00577204	3.646591e-05	2.215659e-05	0.002816377	0.001527314	3.86051e-05	2.521524e-05
	1.353968e-06	9.563086e-07	0.001612768	0.005799117	3.86051e-05	2.521524e-05	0.002742158	0.001583163
4.2e+08	0.00421471	0.002998208	8.720838e-06	4.138903e-06	0.002403792	0.006933028	1.46779e-06	8.621135e-07
	8.720838e-06	4.138903e-06	0.004064208	0.003057376	3.749743e-05	1.954179e-05	0.002267671	0.006969056
	0.002403792	0.006933028	3.749743e-05	1.954179e-05	0.004300667	0.002961823	3.981621e-05	2.245913e-05
	1.46779e-06	8.621135e-07	0.002267671	0.006969056	3.981621e-05	2.245913e-05	0.004141916	0.003051306
4.3e+08	0.005864163	0.00418116	8.897442e-06	3.50324e-06	0.003313525	0.007960061	1.573205e-06	7.544467e-07
	8.897442e-06	3.50324e-06	0.005633348	0.004280771	3.834682e-05	1.687901e-05	0.003093566	0.008019114
	0.003313525	0.007960061	3.834682e-05	1.687901e-05	0.005960762	0.004129671	4.083655e-05	1.96456e-05
	1.573205e-06	7.544467e-07	0.003093566	0.008019114	4.083655e-05	1.96456e-05	0.00572062	0.004266312
4.4e+08	0.007649495	0.005077874	9.027477e-06	2.860963e-06	0.004371936	0.008826904	1.668638e-06	6.344709e-07
	9.027477e-06	2.860963e-06	0.007341762	0.005231443	3.901085e-05	1.418202e-05	0.00406878	0.008923433
	0.004371936	0.008826904	3.901085e-05	1.418202e-05	0.007753727	0.005010056	4.166264e-05	1.678896e-05
	1.668638e-06	6.344709e-07	0.00406878	0.008923433	4.166264e-05	1.678896e-05	0.007437463	0.005206952
4.5e+08	0.009525468	0.005673791	9.110667e-06	2.215969e-06	0.005551043	0.009511585	1.75273e-06	5.035246e-07
	9.110667e-06	2.215969e-06	0.009146487	0.005894371	3.948761e-05	1.146493e-05	0.005167794	0.009660003
	0.005551043	0.009511585	3.948761e-05	1.146493e-05	0.009634253	0.005588918	4.229241e-05	1.390376e-05
	1.75273e-06	5.035246e-07	0.005167794	0.009660003	4.229241e-05	1.390376e-05	0.009249211	0.005858399
4.6e+08	0.01144545	0.005961337	9.147179e-06	1.572146e-06	0.006819695	0.009996957	1.824359e-06	3.630762e-07
	9.147179e-06	1.572146e-06	0.01100309	0.006261141	3.977654e-05	8.742072e-06	0.006361917	0.01021122
	0.006819695	0.009996957	3.977654e-05	8.742072e-06	0.01155571	0.005859173	4.272518e-05	1.100463e-05
	1.824359e-06	3.630762e-07	0.006361917	0.01021122	4.272518e-05	1.100463e-05	0.01111119	0.006212477
4.7e+08	0.01336246	0.005940026	9.137592e-06	9.333149e-07	0.008144401	0.01027114	1.882617e-06	2.146775e-07
	9.137592e-06	9.333149e-07	0.01286668	0.006330058	3.987827e-05	6.027873e-06	0.007620039	0.01056434
	0.008144401	0.01027114	3.987827e-05	6.027873e-06	0.01347121	0.005820797	4.296141e-05	8.106147e-06
	1.882617e-06	2.146775e-07	0.007620039	0.01056434	4.296141e-05	8.106147e-06	0.01297834	0.006267734
4.8e+08	0.01523028	0.005616401	9.082896e-06	3.031669e-07	0.009490205	0.01032782	1.926891e-06	5.992353e-08
