!$
! Info: Touchstone file created by Circ.  Input file=Tx_8in_Rx_93ohms_TxVia_10mils_RxVia_20mils.circ
!$
# Hz S RI R 50
0	0.007409388	6.600931e-26	1.501244e-12	1.5864e-28	5.669399e-05	9.281087e-24	-4.720249e-09	5.779467e-25
	1.502857e-12	1.588274e-28	0.00741224	7.608603e-26	-2.73369e-12	3.08939e-28	5.412392e-05	1.051322e-23
	5.674193e-05	9.286511e-24	-2.782647e-12	3.149104e-28	0.007424255	6.619165e-26	-1.293785e-09	1.58371e-25
	-4.718108e-09	5.776845e-25	5.558058e-05	1.082062e-23	-1.293831e-09	1.583765e-25	0.007417841	7.257523e-26
1e+07	0.01021538	-0.0004826197	9.196903e-13	-3.489673e-12	0.0002239481	0.001379911	-8.321286e-09	1.666881e-08
	9.197422e-13	-3.489945e-12	0.0108164	-0.0005749102	-4.186997e-13	-4.829681e-12	0.0002309487	0.001499754
	0.0002239524	0.001379908	-4.187189e-13	-4.829428e-12	0.01099198	-0.0001060237	-5.868127e-09	1.605757e-08
	-8.321286e-09	1.666881e-08	0.0002309813	0.001499742	-5.868127e-09	1.605757e-08	0.0106096	-0.0005848335
2e+07	0.01231137	-0.00345173	2.263453e-12	-4.990641e-12	0.0006198226	0.002770907	-5.557613e-09	1.412732e-08
	2.263283e-12	-4.990787e-12	0.01268486	-0.003817147	1.990132e-12	-6.552875e-12	0.0005449657	0.002992196
	0.0006198216	0.002770904	1.990271e-12	-6.552706e-12	0.01333218	-0.003139581	-6.924873e-09	1.28785e-08
	-5.557613e-09	1.412732e-08	0.0005449629	0.002992175	-6.924873e-09	1.28785e-08	0.01252664	-0.003760567
3e+07	0.01308449	-0.007548241	8.490152e-13	-7.895993e-12	0.001226923	0.004072938	-2.876025e-09	1.26292e-08
	8.489779e-13	-7.895974e-12	0.01326582	-0.007989886	-1.348597e-12	-1.027126e-11	0.00113905	0.004338775
	0.001226923	0.004072938	-1.348558e-12	-1.027127e-11	0.0142814	-0.00734881	-2.988008e-09	1.316402e-08
	-2.876025e-09	1.26292e-08	0.001139045	0.004338772	-2.988008e-09	1.316402e-08	0.01314438	-0.007920991
4e+07	0.01282057	-0.0119358	-1.227815e-12	-1.053365e-11	0.002030845	0.005254425	-8.061057e-10	1.152824e-08
	-1.227781e-12	-1.053365e-11	0.01282782	-0.01239001	-3.635666e-12	-1.284006e-11	0.001971075	0.005537963
	0.002030846	0.005254424	-3.635704e-12	-1.284006e-11	0.01414362	-0.01188769	-7.126396e-11	1.245813e-08
	-8.061057e-10	1.152824e-08	0.001971075	0.005537965	-7.126396e-11	1.245813e-08	0.01273519	-0.01232513
5e+07	0.01164545	-0.01632134	-3.750514e-12	-1.343718e-11	0.003008879	0.006284451	8.943302e-10	1.09441e-08
	-3.750498e-12	-1.343719e-11	0.0114942	-0.01674548	-5.868432e-12	-1.584807e-11	0.002969368	0.006575821
	0.00300888	0.006284451	-5.86845e-12	-1.584806e-11	0.01305032	-0.01645056	1.665161e-09	1.22292e-08
	8.943302e-10	1.09441e-08	0.002969367	0.006575821	1.665161e-09	1.22292e-08	0.01142213	-0.01669251
6e+07	0.009654944	-0.02051036	-8.806637e-12	-1.88395e-11	0.004133244	0.007136881	2.858484e-09	1.12524e-08
	-8.80664e-12	-1.883946e-11	0.009361584	-0.02087056	-7.003754e-12	-2.267764e-11	0.004106603	0.007430338
	0.004133245	0.007136881	-7.003744e-12	-2.267768e-11	0.01109948	-0.02083383	1.668028e-09	1.388007e-08
	2.858484e-09	1.12524e-08	0.0041066	0.007430339	1.668028e-09	1.388007e-08	0.009303174	-0.02083373
7e+07	0.006942754	-0.02435289	-3.161021e-11	-3.117729e-11	0.005372381	0.007790911	8.099487e-09	1.409207e-08
	-3.161018e-11	-3.117717e-11	0.0065259	-0.02462048	2.452223e-11	-1.51458e-11	0.005351494	0.008083108
	0.005372383	0.007790911	2.452233e-11	-1.514589e-11	0.008385682	-0.02488049	-7.800297e-09	1.496291e-08
	8.099488e-09	1.409207e-08	0.005351489	0.008083111	-7.800296e-09	1.496291e-08	0.006474757	-0.0246026
8e+07	0.003608592	-0.02772823	-2.908449e-10	5.236406e-10	0.00669208	0.008231691	2.046598e-08	-2.834102e-08
	-2.908446e-10	5.236404e-10	0.00308995	-0.02787821	-3.288538e-11	4.80615e-12	0.006669829	0.008520603
	0.006692082	0.008231691	-3.288532e-11	4.806141e-12	0.005008538	-0.02846455	-6.513572e-09	1.597077e-09
	2.046598e-08	-2.834102e-08	0.006669824	0.008520607	-6.513572e-09	1.597077e-09	0.003039372	-0.02788093
9e+07	-0.0002395496	-0.03053935	-5.929673e-11	-6.90412e-11	0.008057082	0.00845121	-8.622479e-10	-3.345327e-09
	-5.92967e-11	-6.904127e-11	-0.000833869	-0.03054902	-2.816005e-11	-1.718541e-11	0.008025497	0.008734841
	0.008057083	0.008451209	-2.816006e-11	-1.718541e-11	0.001073718	-0.03148632	-1.686699e-09	1.072285e-10
	-8.622479e-10	-3.345327e-09	0.008025494	0.008734845	-1.686699e-09	1.072285e-10	-0.0008910535	-0.03057274
1e+08	-0.004481918	-0.03270766	-3.054098e-11	-9.554009e-12	0.009437715	0.008454004	-1.834765e-11	4.298433e-12
	-3.054098e-11	-9.554009e-12	-0.005111991	-0.0325482	-2.703382e-11	-2.07941e-11	0.009381514	0.008723383
	0.009437716	0.008454004	-2.703382e-11	-2.07941e-11	-0.003318855	-0.0338804	-3.48716e-11	-4.532155e-12
	-1.834765e-11	4.298433e-12	0.009381514	0.008723383	-3.48716e-11	-4.532155e-12	-0.005184892	-0.03259374
1.1e+08	-0.008988182	-0.03422281	-3.204671e-11	-3.192854e-12	0.01075704	0.008258061	-1.909424e-11	8.088762e-12
	-3.204671e-11	-3.192854e-12	-0.009594884	-0.03393467	-2.911345e-11	-1.814343e-11	0.01069921	0.008491222
	0.01075704	0.008258061	-2.911345e-11	-1.814343e-11	-0.008069982	-0.03550982	-3.654065e-11	2.776803e-12
	-1.909424e-11	8.088762e-12	0.01069921	0.008491222	-3.654065e-11	2.776803e-12	-0.009694014	-0.03398859
1.2e+08	-0.01367478	-0.03502464	-3.261124e-11	1.270997e-12	0.01199764	0.007833142	-1.921196e-11	1.183823e-11
	-3.261124e-11	1.270997e-12	-0.01426414	-0.03462555	-3.045298e-11	-1.604479e-11	0.01194579	0.00804975
	0.01199764	0.007833142	-3.045298e-11	-1.604479e-11	-0.0129681	-0.03636263	-3.718692e-11	8.354891e-12
	-1.921196e-11	1.183823e-11	0.01194579	0.008049749	-3.718692e-11	8.354891e-12	-0.01438659	-0.0346796
1.3e+08	-0.01841118	-0.03509495	-3.273809e-11	4.183225e-12	0.013133	0.007204565	-1.912853e-11	1.490953e-11
	-3.273809e-11	4.183225e-12	-0.01897779	-0.03459004	-3.104373e-11	-1.474566e-11	0.0130884	0.007413842
	0.013133	0.007204565	-3.104373e-11	-1.474566e-11	-0.01789961	-0.03644805	-3.727373e-11	1.268564e-11
	-1.912853e-11	1.490953e-11	0.0130884	0.007413842	-3.727373e-11	1.268564e-11	-0.01912201	-0.03463882
1.4e+08	-0.02307412	-0.03444108	-3.223246e-11	7.39924e-12	0.0141336	0.006395509	-1.860012e-11	1.810393e-11
	-3.223246e-11	7.39924e-12	-0.02360973	-0.0338339	-3.117688e-11	-1.323403e-11	0.01409727	0.006603859
	0.0141336	0.006395509	-3.117688e-11	-1.323403e-11	-0.02274267	-0.03578126	-3.65301e-11	1.735834e-11
	-1.860012e-11	1.810393e-11	0.01409727	0.006603859	-3.65301e-11	1.735834e-11	-0.02377381	-0.0338728
1.5e+08	-0.02754649	-0.03309031	-3.102734e-11	1.079404e-11	0.0149732	0.005432541	-1.755391e-11	2.138218e-11
	-3.102734e-11	1.079404e-11	-0.02804146	-0.03238476	-3.083112e-11	-1.1579e-11	0.01494651	0.005644672
	0.0149732	0.005432541	-3.083112e-11	-1.1579e-11	-0.02737984	-0.03439459	-3.486363e-11	2.212908e-11
	-1.755391e-11	2.138218e-11	0.01494651	0.005644672	-3.486363e-11	2.212908e-11	-0.02822298	-0.03240981
1.6e+08	-0.03171947	-0.03108797	-2.907803e-11	1.421386e-11	0.01562999	0.004345608	-1.596517e-11	2.463329e-11
	-2.907803e-11	1.421386e-11	-0.03216344	-0.03028906	-2.997342e-11	-9.892548e-12	0.01561476	0.00456489
	0.01562999	0.004345608	-2.997342e-11	-9.892548e-12	-0.03170156	-0.03233736	-3.226377e-11	2.686795e-11
	-1.596517e-11	2.463329e-11	0.01561476	0.004564891	-3.226377e-11	2.686795e-11	-0.03235944	-0.03029693
1.7e+08	-0.03549463	-0.02849551	-2.636686e-11	1.750532e-11	0.01608723	0.003167436	-1.382951e-11	2.775177e-11
	-2.636686e-11	1.750532e-11	-0.03587711	-0.02760985	-2.859729e-11	-8.285309e-12	0.01608567	0.003396039
	0.01608723	0.003167436	-2.859729e-11	-8.285309e-12	-0.03560877	-0.02967453	-2.872126e-11	3.13836e-11
	-1.382951e-11	2.775177e-11	0.01608567	0.003396039	-2.872126e-11	3.13836e-11	-0.03608421	-0.02759787
1.8e+08	-0.03878597	-0.02538844	-2.290355e-11	2.051555e-11	0.01633376	0.001932728	-1.116058e-11	3.063295e-11
	-2.290355e-11	2.051555e-11	-0.03909681	-0.02442442	-2.671723e-11	-6.865819e-12	0.01634831	0.002171683
	0.01633376	0.001932728	-2.671723e-11	-6.865819e-12	-0.03901498	-0.02648479	-2.426118e-11	3.548669e-11
	-1.116058e-11	3.063295e-11	0.01634831	0.002171683	-2.426118e-11	3.548669e-11	-0.03931127	-0.02439063
1.9e+08	-0.04152155	-0.02185407	-1.872568e-11	2.309499e-11	0.01636415	0.0006773479	-7.990254e-12	3.317503e-11
	-1.872568e-11	2.309499e-11	-0.04175141	-0.02082194	-2.436826e-11	-5.738133e-12	0.01639729	0.000926529
	0.01636415	0.0006773479	-2.436826e-11	-5.738133e-12	-0.04184803	-0.02285844	-1.894324e-11	3.899387e-11
	-7.990254e-12	3.317503e-11	0.01639729	0.0009265291	-1.894324e-11	3.899387e-11	-0.0419693	-0.02076512
2e+08	-0.04364583	-0.01798846	-1.389701e-11	2.509936e-11	0.01618094	-0.0005935094	-4.368857e-12	3.527979e-11
	-1.389701e-11	2.509936e-11	-0.04378577	-0.01690089	-2.160296e-11	-5.001336e-12	0.01623291	-0.0003044848
	0.01618094	-0.0005935093	-2.160296e-11	-5.001336e-12	-0.04405244	-0.01889433	-1.286058e-11	4.17314e-11
	-4.368857e-12	3.527979e-11	0.01623291	-0.0003044847	-1.286058e-11	4.17314e-11	-0.04400303	-0.01682055
2.1e+08	-0.04511789	-0.01389546	-8.510864e-12	2.640018e-11	0.0157839	-0.00181232	-3.637142e-13	3.686151e-11
	-8.510864e-12	2.640018e-11	-0.04516167	-0.0127664	-1.849738e-11	-4.738824e-12	0.01586106	-0.001487085
	0.0157839	-0.00181232	-1.849738e-11	-4.738824e-12	-0.04558761	-0.01469889	-6.139724e-12	4.354522e-11
	-3.637142e-13	3.686151e-11	0.01586106	-0.001487085	-6.139724e-12	4.354522e-11	-0.04537425	-0.01266278
2.2e+08	-0.04591487	-0.009682739	-2.683152e-12	2.688391e-11	0.01518534	-0.002943202	3.942424e-12	3.784335e-11
	-2.683152e-12	2.688391e-11	-0.04585843	-0.008527423	-1.514141e-11	-5.021402e-12	0.01529296	-0.002588525
	0.01518534	-0.002943202	-1.514141e-11	-5.021402e-12	-0.04643121	-0.01038221	1.064259e-12	4.430265e-11
	3.942424e-12	3.784335e-11	0.01529296	-0.002588525	1.064259e-12	4.430265e-11	-0.04606243	-0.008401481
2.3e+08	-0.04603138	-0.005459353	3.449152e-12	2.645775e-11	0.01440307	-0.003954823	8.452626e-12	3.816255e-11
	3.449152e-12	2.645775e-11	-0.0458731	-0.00429399	-1.163845e-11	-5.902624e-12	0.01454491	-0.0035784
	0.01440307	-0.003954823	-1.163845e-11	-5.902624e-12	-0.04657863	-0.006055533	8.571151e-12	4.38986e-11
	8.452626e-12	3.816255e-11	0.01454491	-0.0035784	8.571151e-12	4.38986e-11	-0.04606486	-0.004147358
2.4e+08	-0.0454793	-0.001333053	9.731558e-12	2.505357e-11	0.01345961	-0.004819236	1.305816e-11	3.777279e-11
	9.731558e-12	2.505357e-11	-0.04522028	-0.0001744129	-8.102356e-12	-7.416086e-12	0.01363778	-0.00442939
	0.01345961	-0.004819236	-8.102356e-12	-7.416086e-12	-0.0460428	-0.001828614	1.618035e-11	4.226049e-11
	1.305816e-11	3.777279e-11	0.01363778	-0.00442939	1.618035e-11	4.226049e-11	-0.04539646	-9.339654e-06
2.5e+08	-0.04428728	0.002592335	1.599681e-11	2.263088e-11	0.0123816	-0.005512557	1.764137e-11	3.664616e-11
	1.599681e-11	2.263088e-11	-0.04393142	0.003727397	-4.653413e-12	-9.573374e-12	0.01259647	-0.00511793
	0.0123816	-0.005512557	-4.653413e-12	-9.573374e-12	-0.04485349	0.002192944	2.3677e-11	3.935176e-11
	1.764137e-11	3.664616e-11	0.01259647	-0.00511793	2.3677e-11	3.935176e-11	-0.04408916	0.003908111
2.6e+08	-0.04249976	0.006219421	2.206106e-11	1.917307e-11	0.01119909	-0.006015551	2.207869e-11	3.477494e-11
	2.206106e-11	1.917307e-11	-0.0420539	0.007314512	-1.447974e-12	-1.237315e-11	0.01144926	-0.005624781
	0.01119909	-0.006015551	-1.447974e-12	-1.237315e-11	-0.04305652	0.005910207	3.083792e-11	3.517415e-11
	2.207869e-11	3.477494e-11	0.01144926	-0.005624781	3.083792e-11	3.517415e-11	-0.04219083	0.007507558
2.7e+08	-0.0401757	0.009459587	2.775201e-11	1.470837e-11	0.009944771	-0.0063141	2.624433e-11	3.217244e-11
	2.775201e-11	1.470837e-11	-0.03964955	0.01049922	1.417348e-12	-1.576394e-11	0.0102271	-0.0059355
	0.009944771	-0.0063141	1.417348e-12	-1.576394e-11	-0.04071232	0.009233243	3.74403e-11	2.97704e-11
	2.624433e-11	3.217244e-11	0.0102271	-0.0059355	3.74403e-11	2.97704e-11	-0.03976391	0.01070095
2.8e+08	-0.037387	0.0122351	3.289763e-11	9.290397e-12	0.008653124	-0.006399559	3.001372e-11	2.88737e-11
	3.289763e-11	9.290397e-12	-0.03679301	0.01320525	3.835923e-12	-1.968378e-11	0.008962814	-0.006040795
	0.008653124	-0.006399559	3.835923e-12	-1.968378e-11	-0.03789436	0.01208326	4.326778e-11	2.322291e-11
	3.001372e-11	2.88737e-11	0.008962814	-0.006040795	4.326778e-11	2.322291e-11	-0.03688371	0.01341174
2.9e+08	-0.03421656	0.01448091	3.733368e-11	3.001795e-12	0.00735955	-0.006268965	3.326738e-11	2.49353e-11
	3.733368e-11	3.001795e-12	-0.03356969	0.01536951	5.707578e-12	-2.405154e-11	0.007690276	-0.005936757
	0.00735955	-0.006268965	5.707578e-12	-2.405154e-11	-0.03468717	0.0143944	4.811786e-11	1.565273e-11
	3.326738e-11	2.49353e-11	0.007690276	-0.005936757	4.811786e-11	1.565273e-11	-0.03363632	0.0155767
3e+08	-0.03075611	0.0161462	4.091016e-11	-4.046414e-12	0.006099448	-0.005925115	3.589458e-11	2.043448e-11
	4.091016e-11	-4.046414e-12	-0.03007356	0.01694359	6.948018e-12	-2.876713e-11	0.006443536	-0.005624967
	0.006099448	-0.005925115	6.948018e-12	-2.876713e-11	-0.03118418	0.01611527	5.180897e-11	7.216905e-12
	3.589458e-11	2.043448e-11	0.006443536	-0.005624967	5.180897e-11	7.216905e-12	-0.03011642	0.01714738
3.1e+08	-0.02710385	0.01719549	4.349628e-11	-1.171749e-11	0.004907295	-0.005376512	3.779706e-11	1.546775e-11
	4.349628e-11	-1.171749e-11	-0.02640463	0.01789486	7.492426e-12	-3.371469e-11	0.005255959	-0.005112464
	0.004907295	-0.005376512	7.492426e-12	-3.371469e-11	-0.0274853	0.01721012	5.418697e-11	-1.89527e-12
	3.779706e-11	1.546775e-11	0.005255959	-0.005112464	5.418697e-11	-1.89527e-12	-0.02642473	0.01809122
3.2e+08	-0.02336199	0.01760948	4.498463e-11	-1.985265e-11	0.00381575	-0.004637149	3.889229e-11	1.014868e-11
	4.498463e-11	-1.985265e-11	-0.02266644	0.01820717	7.298415e-12	-3.876668e-11	0.004159355	-0.004411583
	0.00381575	-0.004637149	7.298415e-12	-3.876668e-11	-0.02369437	0.01765957	5.51307e-11	-1.146751e-11
	3.889229e-11	1.014868e-11	0.004159355	-0.004411583	5.51307e-11	-1.146751e-11	-0.02266546	0.01839229
3.3e+08	-0.01963406	0.01738536	4.529474e-11	-2.827526e-11	0.002854778	-0.003726165	3.91164e-11	4.605272e-12
	4.529474e-11	-2.827526e-11	-0.01896334	0.01788115	6.348072e-12	-4.378834e-11	0.003183152	-0.003539653
	0.002854778	-0.003726165	6.348072e-12	-4.378834e-11	-0.01991656	0.01746098	5.45566e-11	-2.126256e-11
	3.91164e-11	4.605272e-12	0.003183152	-0.003539653	5.45566e-11	-2.126256e-11	-0.01894361	0.01805152
3.4e+08	-0.01602235	0.01653681	4.437604e-11	-3.679565e-11	0.00205085	-0.002667362	3.84268e-11	-1.023284e-12
	4.437604e-11	-3.679565e-11	-0.01539783	0.01693408	4.649047e-12	-4.864259e-11	0.002353607	-0.002518567
	0.00205085	-0.002667362	4.649047e-12	-4.864259e-11	-0.01625568	0.01662847	5.242239e-11	-3.102897e-11
	3.84268e-11	-1.023284e-12	0.002353607	-0.002518567	5.242239e-11	-3.102897e-11	-0.01536228	0.01708663
3.5e+08	-0.01262532	0.01509355	4.220953e-11	-4.521621e-11	0.001426212	-0.001488588	3.680393e-11	-6.590241e-12
	4.220953e-11	-4.521621e-11	-0.01206797	0.01539933	2.234609e-12	-5.319503e-11	0.001693098	-0.001374226
	0.001426212	-0.001488588	2.234609e-12	-5.319503e-11	-0.0128116	0.01519235	4.872902e-11	-4.050858e-11
	3.680393e-11	-6.590241e-12	0.001693098	-0.001374226	4.872902e-11	-4.050858e-11	-0.01202003	0.0155315
3.6e+08	-0.009535082	0.0131005	3.8809e-11	-5.333691e-11	0.0009982657	-0.0002210088	3.425263e-11	-1.194526e-11
	3.8809e-11	-5.333691e-11	-0.009064855	0.01332544	-8.372993e-13	-5.731886e-11	0.001219509	-0.0001358671
	0.0009982657	-0.0002210087	-8.372993e-13	-5.731886e-11	-0.009677683	0.01319834	4.352169e-11	-4.944418e-11
	3.425263e-11	-1.194526e-11	0.001219509	-0.0001358671	4.352169e-11	-4.944418e-11	-0.009008362	0.01343526
3.7e+08	-0.006835123	0.01061652	3.422094e-11	-6.096068e-11	0.0007790663	0.001101725	3.080267e-11	-1.693857e-11
	3.422094e-11	-6.096068e-11	-0.0064703	0.01077473	-4.485989e-12	-6.089939e-11	0.0009457242	0.001164701
	0.0007790663	0.001101725	-4.485989e-12	-6.089939e-11	-0.006938514	0.01070627	3.688916e-11	-5.758725e-11
	3.080267e-11	-1.693857e-11	0.0009457242	0.001164701	3.688916e-11	-5.758725e-11	-0.006409414	0.01086091
3.8e+08	-0.004598181	0.007712864	2.85238e-11	-6.789879e-11	0.0007749654	0.00244438	2.650853e-11	-2.142515e-11
	2.85238e-11	-6.789879e-11	-0.004354795	0.007821629	-8.610774e-12	-6.383814e-11	0.0008792548	0.002493951
	0.0007749654	0.00244438	-8.610774e-12	-6.383814e-11	-0.004667738	0.007788484	2.89618e-11	-6.470545e-11
	2.650853e-11	-2.142515e-11	0.0008792548	0.002493951	2.89618e-11	-6.470545e-11	-0.004293868	0.007883597
3.9e+08	-0.002884458	0.004471241	2.182624e-11	-7.397605e-11	0.0009864062	0.003771112	2.14486e-11	-2.526897e-11
	2.182624e-11	-7.397605e-11	-0.002775726	0.004550685	-1.309443e-11	-6.605615e-11	0.00102201	0.003817541
	0.0009864062	0.003771112	-1.309443e-11	-6.605615e-11	-0.002926257	0.004527878	1.990838e-11	-7.058965e-11
	2.14486e-11	-2.526897e-11	0.001022011	0.003817541	1.990837e-11	-7.058965e-11	-0.002719181	0.004588618
4e+08	-0.00174013	0.0009816838	1.426468e-11	-7.903553e-11	0.001407884	0.00504645	1.572352e-11	-2.83469e-11
	1.426468e-11	-7.903553e-11	-0.001775959	0.001054286	-1.780715e-11	-6.749661e-11	0.001370225	0.005101251
	0.001407884	0.00504645	-1.780715e-11	-6.749661e-11	-0.001760738	0.001015744	9.931554e-12	-7.506019e-11
	1.572352e-11	-2.83469e-11	0.001370225	0.005101251	9.931554e-12	-7.506019e-11	-0.001728164	0.001069106
4.1e+08	-0.001196236	-0.002659833	6.000025e-12	-8.294291e-11	0.002028077	0.006236295	9.453913e-12	-3.055245e-11
	6.000025e-12	-8.294291e-11	-0.00138281	-0.002569791	-2.261085e-11	-6.812658e-11	0.00191454	0.006311931
	0.002028077	0.006236295	-2.261085e-11	-6.812658e-11	-0.001202489	-0.002650654	-7.374996e-13	-7.797238e-11
	9.453913e-12	-3.055245e-11	0.00191454	0.006311931	-7.374996e-13	-7.797238e-11	-0.001347947	-0.002576422
4.2e+08	-0.001267969	-0.006353902	-2.78615e-12	-8.559014e-11	0.002830143	0.007308869	2.777482e-12	-3.179895e-11
	-2.78615e-12	-8.559014e-11	-0.001607424	-0.006220958	-2.736361e-11	-6.793792e-11	0.002640257	0.007418418
	0.002830143	0.007308869	-2.736361e-11	-6.793792e-11	-0.001266756	-0.006370624	-1.184543e-11	-7.922076e-11
	2.777482e-12	-3.179895e-11	0.002640257	0.007418418	-1.184543e-11	-7.922076e-11	-0.001589368	-0.00624668
4.3e+08	-0.001954373	-0.01000027	-1.189603e-11	-8.689853e-11	0.003792178	0.008235627	-4.154387e-12	-3.202235e-11
	-1.189603e-11	-8.689853e-11	-0.002444587	-0.009798473	-3.19241e-11	-6.694732e-11	0.00352773	0.008392402
	0.003792178	0.008235627	-3.19241e-11	-6.694732e-11	-0.001952426	-0.01004267	-2.312356e-11	-7.874231e-11
	-4.154387e-12	-3.202235e-11	0.00352773	0.008392402	-2.312356e-11	-7.874231e-11	-0.002446785	-0.009840282
4.4e+08	-0.003238472	-0.01350045	-2.11203e-11	-8.6821e-11	0.00488783	0.008992051	-1.118047e-11	-3.11832e-11
	-2.11203e-11	-8.6821e-11	-0.003872963	-0.01320406	-3.615587e-11	-6.519566e-11	0.004552919	0.009209217
	0.00488783	0.008992051	-3.615587e-11	-6.519566e-11	-0.003242166	-0.01356712	-3.429515e-11	-7.651835e-11
	-1.118047e-11	-3.11832e-11	0.004552919	0.009209217	-3.429515e-11	-7.651835e-11	-0.003898333	-0.01325839
4.5e+08	-0.005087806	-0.01676021	-3.024326e-11	-8.534366e-11	0.006087034	0.009558356	-1.813383e-11	-2.926818e-11
	-3.024326e-11	-8.534366e-11	-0.005855759	-0.01634448	-3.993126e-11	-6.274663e-11	0.005688056	0.009848523
	0.006087034	0.009558356	-3.993126e-11	-6.274663e-11	-0.005102978	-0.01684869	-4.508282e-11	-7.257527e-11
	-1.813383e-11	-2.926818e-11	0.005688056	0.009848523	-4.508282e-11	-7.257527e-11	-0.005906597	-0.01640729
4.6e+08	-0.007455374	-0.01969205	-3.9048e-11	-8.248648e-11	0.007356865	0.009920035	-2.484495e-11	-2.62902e-11
	-3.9048e-11	-8.248648e-11	-0.008341798	-0.0191339	-4.313838e-11	-5.96815e-11	0.00690243	0.01029486
	0.007356865	0.009920035	-4.313838e-11	-5.96815e-11	-0.007487158	-0.01979893	-5.520567e-11	-6.697917e-11
	-2.484495e-11	-2.62902e-11	0.00690243	0.01029486	-5.520567e-11	-6.697917e-11	-0.008419681	-0.01920082
4.7e+08	-0.01028094	-0.02221733	-4.732143e-11	-7.830329e-11	0.008662466	0.01006827	-3.114915e-11	-2.229022e-11
	-4.732143e-11	-7.830329e-11	-0.01126694	-0.0214961	-4.567978e-11	-5.60957e-11	0.008163243	0.01053807
