!$
! Info: Touchstone file created by Circ.  Input file=Tx_8in_Rx_93ohms_TxVia_10mils_RxVia_20mils.circ
!$
# Hz S RI R 50
0	0.007412637	5.980317e-26	3.230429e-09	3.158611e-27	5.468319e-05	7.544712e-24	-3.536918e-09	4.665897e-25
	3.230422e-09	3.158773e-27	0.00741224	7.608603e-26	-3.068878e-09	4.243194e-25	5.412392e-05	1.051322e-23
	5.695665e-05	7.56214e-24	-3.066944e-09	4.240801e-25	0.007405162	5.220529e-26	1.254962e-08	1.41975e-29
	-3.534188e-09	4.662536e-25	5.558058e-05	1.082062e-23	1.254971e-08	1.403855e-29	0.007417841	7.257523e-26
1e+07	0.01082021	-0.0005737828	5.106927e-09	8.013179e-09	0.0002334389	0.001499088	1.011954e-08	5.638445e-08
	5.106927e-09	8.013179e-09	0.0108164	-0.0005749102	7.908144e-11	5.813196e-08	0.0002309487	0.001499754
	0.0002334872	0.001499061	7.908165e-11	5.813196e-08	0.01061336	-0.0005836637	-9.887198e-09	4.537793e-08
	1.011954e-08	5.638445e-08	0.0002309813	0.001499742	-9.887198e-09	4.537793e-08	0.0106096	-0.0005848335
2e+07	0.01270009	-0.003816384	8.028032e-09	1.389427e-08	0.0005545541	0.002989403	2.960631e-08	7.471643e-08
	8.028032e-09	1.389427e-08	0.01268486	-0.003817147	3.670625e-09	8.109501e-08	0.0005449657	0.002992196
	0.0005545462	0.002989378	3.670625e-09	8.109501e-08	0.01254141	-0.003759967	-4.675676e-09	4.650135e-08
	2.960632e-08	7.471643e-08	0.0005449629	0.002992175	-4.675677e-09	4.650135e-08	0.01252664	-0.003760567
3e+07	0.01329988	-0.007992988	1.153539e-08	1.892417e-08	0.001159819	0.004331454	6.015314e-08	8.849861e-08
	1.153539e-08	1.892417e-08	0.01326582	-0.007989886	1.0695e-08	1.076136e-07	0.00113905	0.004338775
	0.001159819	0.00433145	1.0695e-08	1.076136e-07	0.01317669	-0.007924133	1.22929e-09	5.367217e-08
	6.015314e-08	8.849861e-08	0.001139045	0.004338772	1.22929e-09	5.367217e-08	0.01314438	-0.007920991
4e+07	0.01288713	-0.01240234	1.55214e-08	2.291281e-08	0.002006466	0.005522781	9.3036e-08	9.401118e-08
	1.55214e-08	2.291281e-08	0.01282782	-0.01239001	1.591674e-08	1.330669e-07	0.001971075	0.005537963
	0.00200647	0.005522777	1.591674e-08	1.330669e-07	0.01279157	-0.01233674	9.028904e-09	5.902559e-08
	9.3036e-08	9.401118e-08	0.001971075	0.005537965	9.028904e-09	5.902559e-08	0.01273519	-0.01232513
5e+07	0.0115838	-0.01677389	1.979574e-08	2.581975e-08	0.003021942	0.006548622	1.275276e-07	9.169177e-08
	1.979574e-08	2.581975e-08	0.0114942	-0.01674548	1.951964e-08	1.585319e-07	0.002969368	0.006575821
	0.003021943	0.00654862	1.951964e-08	1.585319e-07	0.0115076	-0.01671955	1.809443e-08	6.125662e-08
	1.275276e-07	9.169177e-08	0.002969367	0.006575821	1.809443e-08	6.125662e-08	0.01142213	-0.01669251
6e+07	0.009484813	-0.02092308	2.415266e-08	2.760931e-08	0.0041779	0.007386396	1.62619e-07	8.09197e-08
	2.415266e-08	2.760931e-08	0.009361584	-0.02087056	2.214123e-08	1.843381e-07	0.004106603	0.007430338
	0.004177899	0.007386398	2.214123e-08	1.843381e-07	0.009420608	-0.02088401	2.744571e-08	6.026237e-08
	1.62619e-07	8.09197e-08	0.0041066	0.007430339	2.744571e-08	6.026237e-08	0.009303174	-0.02083373
7e+07	0.00668421	-0.02470588	2.836698e-08	2.826679e-08	0.005441951	0.008017356	1.96651e-07	6.118349e-08
	2.836698e-08	2.826679e-08	0.0065259	-0.02462048	2.422781e-08	2.105285e-07	0.005351494	0.008083108
	0.005441952	0.008017361	2.422781e-08	2.105285e-07	0.00662544	-0.02468418	3.610664e-08	5.638267e-08
	1.96651e-07	6.118349e-08	0.005351489	0.008083111	3.610664e-08	5.638266e-08	0.006474757	-0.0246026
8e+07	0.003282794	-0.02800556	3.219813e-08	2.781566e-08	0.006778743	0.008427855	2.27618e-07	3.242928e-08
	3.219813e-08	2.781566e-08	0.00308995	-0.02787821	2.610103e-08	2.37081e-07	0.006669829	0.008520603
	0.006778744	0.00842786	2.610103e-08	2.37081e-07	0.003223196	-0.02800227	4.327553e-08	5.018529e-08
	2.27618e-07	3.242928e-08	0.006669824	0.008520607	4.327553e-08	5.018529e-08	0.003039372	-0.02788093
9e+07	-0.0006090378	-0.03072726	3.540202e-08	2.632771e-08	0.008151009	0.008610013	2.5342e-07	-4.864089e-09
	3.540203e-08	2.632771e-08	-0.000833869	-0.03054902	2.794576e-08	2.639815e-07	0.008025497	0.008734841
	0.008151012	0.008610016	2.794576e-08	2.639815e-07	-0.0006758852	-0.03074271	4.837961e-08	4.236067e-08
	2.5342e-07	-4.864089e-09	0.008025494	0.008734845	4.837961e-08	4.236067e-08	-0.0008910535	-0.03057274
1e+08	-0.004859701	-0.03278577	3.774377e-08	2.392495e-08	0.009520635	0.008561715	2.720485e-07	-4.969298e-08
	3.774377e-08	2.392495e-08	-0.005111991	-0.0325482	2.996362e-08	2.911435e-07	0.009381514	0.008723383
	0.009520635	0.008561714	2.996362e-08	2.911435e-07	-0.004942299	-0.03282128	5.109051e-08	3.36272e-08
	2.720485e-07	-4.969298e-08	0.009381514	0.008723383	5.109051e-08	3.36272e-08	-0.005184892	-0.03259374
1.1e+08	-0.009320636	-0.03424036	3.900866e-08	2.080763e-08	0.0108484	0.008288893	2.834574e-07	-9.904947e-08
	3.900866e-08	2.080763e-08	-0.009594884	-0.03393467	3.019269e-08	3.200566e-07	0.01069921	0.008491222
	0.0108484	0.008288892	3.019269e-08	3.200566e-07	-0.009429666	-0.03428192	5.274804e-08	2.963366e-08
	2.834574e-07	-9.904947e-08	0.01069921	0.008491222	5.274804e-08	2.963366e-08	-0.009694014	-0.03398859
1.2e+08	-0.01397663	-0.03500562	3.905297e-08	1.718903e-08	0.0120998	0.007803082	2.851849e-07	-1.530229e-07
	3.905297e-08	1.718903e-08	-0.01426414	-0.03462555	3.047929e-08	3.493718e-07	0.01194579	0.00804975
	0.0120998	0.007803082	3.047929e-08	3.493718e-07	-0.01410933	-0.03504487	5.277853e-08	2.498777e-08
	2.851849e-07	-1.530229e-07	0.01194579	0.008049749	5.277853e-08	2.498777e-08	-0.01438659	-0.0346796
1.3e+08	-0.01868691	-0.03504904	3.77562e-08	1.330717e-08	0.01324122	0.007120343	2.761344e-07	-2.0973e-07
	3.77562e-08	1.330717e-08	-0.01897779	-0.03459004	3.095176e-08	3.790739e-07	0.0130884	0.007413842
	0.01324122	0.007120343	3.095176e-08	3.790739e-07	-0.01884169	-0.0350803	5.102671e-08	2.000609e-08
	2.761344e-07	-2.0973e-07	0.0130884	0.007413842	5.102671e-08	2.000609e-08	-0.01912201	-0.03463882
1.4e+08	-0.02332631	-0.03437448	3.504198e-08	9.427873e-09	0.01424239	0.006262276	2.555703e-07	-2.670565e-07
	3.504198e-08	9.427873e-09	-0.02360973	-0.0338339	3.172304e-08	4.091284e-07	0.01409727	0.006603859
	0.01424239	0.006262276	3.172304e-08	4.091284e-07	-0.02350104	-0.03439285	4.739559e-08	1.504047e-08
	2.555703e-07	-2.670565e-07	0.01409727	0.006603859	4.739559e-08	1.504047e-08	-0.02377381	-0.0338728
1.5e+08	-0.02777694	-0.03300751	3.088447e-08	5.834793e-09	0.01507711	0.005255048	2.231611e-07	-3.227339e-07
	3.088447e-08	5.834793e-09	-0.02804146	-0.03238476	3.289296e-08	4.394784e-07	0.01494651	0.005644672
	0.01507711	0.005255048	3.289296e-08	4.394784e-07	-0.02796878	-0.03300881	4.185464e-08	1.046518e-08
	2.231611e-07	-3.227339e-07	0.01494651	0.005644672	4.185464e-08	1.046518e-08	-0.02822298	-0.03240981
1.6e+08	-0.03192953	-0.03099243	2.53127e-08	2.819618e-09	0.01572396	0.004128611	1.790102e-07	-3.744169e-07
	2.53127e-08	2.819618e-09	-0.03216344	-0.03028906	3.454551e-08	4.700469e-07	0.01561476	0.00456489
	0.01572396	0.00412861	3.454551e-08	4.700469e-07	-0.03213505	-0.03097321	3.444518e-08	6.664061e-09
	1.790102e-07	-3.744169e-07	0.01561476	0.004564891	3.444518e-08	6.664061e-09	-0.03235944	-0.03029693
1.7e+08	-0.0356854	-0.02839	1.841274e-08	6.71287e-10	0.01616674	0.002915838	1.236698e-07	-4.197657e-07
	1.841274e-08	6.71287e-10	-0.03587711	-0.02760985	3.674595e-08	5.007405e-07	0.01608567	0.003396039
	0.01616674	0.002915838	3.674595e-08	5.007405e-07	-0.03590066	-0.02834764	2.528291e-08	4.016595e-09
	1.236698e-07	-4.197657e-07	0.01608567	0.003396039	2.528291e-08	4.016595e-09	-0.03608421	-0.02759787
1.8e+08	-0.03895833	-0.02527528	1.03276e-08	-3.35285e-10	0.01639493	0.001651624	5.814021e-08	-4.565304e-07
	1.03276e-08	-3.35285e-10	-0.03909681	-0.02442442	3.953826e-08	5.314528e-07	0.01634831	0.002171683
	0.01639493	0.001651624	3.953826e-08	5.314528e-07	-0.03917908	-0.02520798	1.45576e-08	2.88334e-09
	5.814021e-08	-4.565304e-07	0.01634831	0.002171683	1.45576e-08	2.88334e-09	-0.03931127	-0.02439063
1.9e+08	-0.04167626	-0.02173525	1.254755e-09	4.95268e-11	0.01640383	0.0003719334	-1.614738e-08	-4.826344e-07
	1.254755e-09	4.95268e-11	-0.04175141	-0.02082194	4.294315e-08	5.620694e-07	0.01639729	0.000926529
	0.01640383	0.0003719333	4.294315e-08	5.620694e-07	-0.04189804	-0.02164209	2.529731e-09	3.591509e-09
	-1.614738e-08	-4.826344e-07	0.01639729	0.0009265291	2.529731e-09	3.591509e-09	-0.0419693	-0.02076512
2e+08	-0.04378266	-0.01786637	-8.558673e-09	2.039337e-09	0.01619461	-0.0008871515	-9.736343e-08	-4.962542e-07
	-8.558673e-09	2.039337e-09	-0.04378577	-0.01690089	4.695683e-08	5.924722e-07	0.01623291	-0.0003044848
	0.01619461	-0.0008871516	4.695683e-08	5.924722e-07	-0.044001	-0.01774727	-1.047579e-08	6.421263e-09
	-9.736343e-08	-4.962542e-07	0.01623291	-0.0003044847	-1.047579e-08	6.421263e-09	-0.04400303	-0.01682055
2.1e+08	-0.04523753	-0.01377195	-1.882283e-08	5.80205e-09	0.01577429	-0.00209037	-1.833264e-07	-4.958923e-07
	-1.882283e-08	5.80205e-09	-0.04516167	-0.0127664	5.155074e-08	6.225443e-07	0.01586106	-0.001487085
	0.01577429	-0.00209037	5.155074e-08	6.225443e-07	-0.04544804	-0.01362766	-2.407851e-08	1.159331e-08
	-1.833264e-07	-4.958923e-07	0.01586106	-0.001487085	-2.407851e-08	1.159331e-08	-0.04537425	-0.01266278
2.2e+08	-0.04601809	-0.009559493	-2.921399e-08	1.145162e-08	0.01515541	-0.00320419	-2.715623e-07	-4.804414e-07
	-2.921399e-08	1.145162e-08	-0.04585843	-0.008527423	5.66722e-08	6.521753e-07	0.01529296	-0.002588525
	0.01515541	-0.00320419	5.66722e-08	6.521753e-07	-0.04621662	-0.009391527	-3.785377e-08	1.925835e-08
	-2.715623e-07	-4.804414e-07	0.01529296	-0.002588525	-3.785377e-08	1.925835e-08	-0.04606243	-0.008401481
2.3e+08	-0.04611896	-0.005337911	-3.938492e-08	1.904162e-08	0.01435573	-0.004197653	-3.59375e-07	-4.49238e-07
	-3.938492e-08	1.904162e-08	-0.0458731	-0.00429399	6.224616e-08	6.812661e-07	0.01454491	-0.0035784
	0.01435573	-0.004197653	6.224616e-08	6.812661e-07	-0.04630171	-0.005148515	-5.13459e-08	2.948875e-08
	-3.59375e-07	-4.49238e-07	0.01454491	-0.0035784	-5.13459e-08	2.948875e-08	-0.04606486	-0.004147358
2.4e+08	-0.04555208	-0.001214852	-4.897644e-08	2.856094e-08	0.0133977	-0.005043155	-4.439255e-07	-4.021025e-07
	-4.897644e-08	2.856094e-08	-0.04522028	-0.0001744129	6.817784e-08	7.097329e-07	0.01363778	-0.00442939
	0.0133977	-0.005043155	6.817784e-08	7.097329e-07	-0.04571573	-0.001006907	-6.408295e-08	4.227288e-08
	-4.439255e-07	-4.021025e-07	0.01363778	-0.00442939	-6.408295e-08	4.227288e-08	-0.04539646	-9.339654e-06
2.5e+08	-0.04434615	0.002705957	-5.762965e-08	3.993173e-08	0.01230788	-0.00571713	-5.223189e-07	-3.393666e-07
	-5.762965e-08	3.993173e-08	-0.04393142	0.003727397	7.435626e-08	7.375113e-07	0.01259647	-0.00511793
	0.01230788	-0.00571713	7.435626e-08	7.375113e-07	-0.0444879	0.002929018	-7.559232e-08	5.751219e-08
	-5.223189e-07	-3.393666e-07	0.01259647	-0.00511793	-7.559232e-08	5.751219e-08	-0.04408916	0.003908111
2.6e+08	-0.04254568	0.006327269	-6.499828e-08	5.300988e-08	0.01111619	-0.006200638	-5.916951e-07	-2.61884e-07
	-6.499828e-08	5.300988e-08	-0.0420539	0.007314512	8.065849e-08	7.645587e-07	0.01144926	-0.005624781
	0.01111619	-0.006200638	8.065849e-08	7.645587e-07	-0.04266337	0.006561519	-8.541674e-08	7.502131e-08
	-5.916951e-07	-2.61884e-07	0.01144926	-0.005624781	-8.541674e-08	7.502131e-08	-0.04219083	0.007507558
2.7e+08	-0.04020968	0.009560533	-7.076112e-08	6.758722e-08	0.009855217	-0.006479838	-6.493216e-07	-1.710265e-07
	-7.076112e-08	6.758722e-08	-0.03964955	0.01049922	8.695406e-08	7.908567e-07	0.0102271	-0.0059355
	0.009855217	-0.006479838	8.695406e-08	7.908567e-07	-0.04030189	0.00980174	-9.313011e-08	9.453104e-08
	-6.493216e-07	-1.710265e-07	0.0102271	-0.0059355	-9.313011e-08	9.453104e-08	-0.03976391	0.01070095
2.8e+08	-0.03741012	0.01232811	-7.463347e-08	8.339687e-08	0.008559303	-0.006546334	-6.926857e-07	-6.866331e-08
	-7.463347e-08	8.339687e-08	-0.03679301	0.01320525	9.311003e-08	8.164117e-07	0.008962814	-0.006040795
	0.008559303	-0.006546334	9.311003e-08	8.164117e-07	-0.03747616	0.01257183	-9.83526e-08	1.156942e-07
	-6.926857e-07	-6.866331e-08	0.008962814	-0.006040795	-9.83526e-08	1.156942e-07	-0.03688371	0.01341174
2.9e+08	-0.03422996	0.01456507	-7.637753e-08	1.0012e-07	0.007263692	-0.006397391	-7.195836e-07	4.287558e-08
	-7.637753e-08	1.0012e-07	-0.03356969	0.01536951	9.899576e-08	8.412547e-07	0.007690276	-0.005936757
	0.007263692	-0.006397391	9.899576e-08	8.412547e-07	-0.03426993	0.01480677	-1.007645e-07	1.380942e-07
	-7.195836e-07	4.287558e-08	0.007690276	-0.005936757	-1.007645e-07	1.380942e-07	-0.03363632	0.0155767
3e+08	-0.030761	0.0162207	-7.581144e-08	1.173947e-07	0.006003614	-0.006036018	-7.28203e-07	1.608515e-07
	-7.581144e-08	1.173947e-07	-0.03007356	0.01694359	1.044875e-07	8.654405e-07	0.006443536	-0.005624967
	0.006003614	-0.006036018	1.044875e-07	8.654405e-07	-0.03077579	0.0164559	-1.001184e-07	1.612558e-07
	-7.28203e-07	1.608515e-07	0.006443536	-0.005624967	-1.001184e-07	1.612558e-07	-0.03011642	0.01714738
3.1e+08	-0.02710152	0.01725967	-7.281667e-08	1.348258e-07	0.004813365	-0.0054709	-7.171969e-07	2.821839e-07
	-7.281667e-08	1.348258e-07	-0.02640463	0.01789486	1.094725e-07	8.890455e-07	0.005255959	-0.005112464
	0.004813365	-0.0054709	1.094725e-07	8.890455e-07	-0.02709279	0.01748406	-9.624935e-08	1.846582e-07
	-7.171969e-07	2.821839e-07	0.005255959	-0.005112464	-9.624935e-08	1.846582e-07	-0.02642473	0.01809122
3.2e+08	-0.02335374	0.01766279	-6.734338e-08	1.519963e-07	0.003725406	-0.00471619	-6.857463e-07	4.035305e-07
	-6.734338e-08	1.519963e-07	-0.02266644	0.01820717	1.138529e-07	9.121651e-07	0.004159355	-0.004411583
	0.003725406	-0.00471619	1.138529e-07	9.121651e-07	-0.0233239	0.01787237	-8.908274e-08	2.077492e-07
	-6.857463e-07	4.035305e-07	0.004159355	-0.004411583	-8.908274e-08	2.077492e-07	-0.02266546	0.01839229
3.3e+08	-0.01962128	0.01742742	-5.941388e-08	1.684796e-07	0.002769499	-0.003791166	-6.336091e-07	5.21378e-07
	-5.941388e-08	1.684796e-07	-0.01896334	0.01788115	1.17548e-07	9.349109e-07	0.003183152	-0.003539653
	0.002769499	-0.003791166	1.17548e-07	9.349109e-07	-0.0195734	0.01761862	-7.86394e-08	2.299615e-07
	-6.336091e-07	5.21378e-07	0.003183152	-0.003539653	-7.86394e-08	2.299615e-07	-0.01894361	0.01805152
3.4e+08	-0.01600643	0.01656739	-4.9124e-08	1.838513e-07	0.0019719	-0.002719738	-5.611531e-07	6.321432e-07
	-4.9124e-08	1.838513e-07	-0.01539783	0.01693408	1.204972e-07	9.574068e-07	0.002353607	-0.002518567
	0.0019719	-0.002719738	1.204972e-07	9.574068e-07	-0.01594421	0.01673719	-6.50382e-08	2.507285e-07
	-5.611531e-07	6.321432e-07	0.002353607	-0.002518567	-6.50382e-08	2.507285e-07	-0.01536228	0.01708663
3.5e+08	-0.01260767	0.01511258	-3.66424e-08	1.977023e-07	0.001354635	-0.001529836	-4.693716e-07	7.322789e-07
	-3.66424e-08	1.977023e-07	-0.01206797	0.01539933	1.226609e-07	9.797859e-07	0.001693098	-0.001374226
	0.001354635	-0.001529836	1.226609e-07	9.797859e-07	-0.01253529	0.01525861	-4.849579e-08	2.695015e-07
	-4.693716e-07	7.322789e-07	0.001693098	-0.001374226	-4.849579e-08	2.695015e-07	-0.01202003	0.0155315
3.6e+08	-0.00951711	0.01310808	-2.220783e-08	2.096503e-07	0.0009348843	-0.0002526819	-3.598802e-07	8.183836e-07
	-2.220783e-08	2.096503e-07	-0.009064855	0.01332544	1.240218e-07	1.002186e-06	0.001219509	-0.0001358671
	0.0009348843	-0.0002526819	1.240218e-07	1.002186e-06	-0.009439166	0.01322869	-2.932358e-08	2.85766e-07
	-3.598802e-07	8.183836e-07	0.001219509	-0.0001358671	-2.932358e-08	2.85766e-07	-0.009008362	0.01343526
3.7e+08	-0.006818194	0.01061293	-6.124555e-09	2.193521e-07	0.0007244799	0.001078046	-2.348943e-07	8.873119e-07
	-6.124555e-09	2.193521e-07	-0.0064703	0.01077473	1.245847e-07	1.024748e-06	0.0009457242	0.001164701
	0.0007244799	0.001078046	1.245847e-07	1.024748e-06	-0.006739543	0.01070727	-7.922051e-09	2.990582e-07
	-2.348943e-07	8.873119e-07	0.0009457242	0.001164701	-7.922051e-09	2.990582e-07	-0.006409414	0.01086091
3.8e+08	-0.004583615	0.00769854	1.124404e-08	2.265138e-07	0.0007295549	0.002427115	-9.718742e-08	9.362797e-07
	1.124404e-08	2.265138e-07	-0.004354795	0.007821629	1.243767e-07	1.04761e-06	0.0008792548	0.002493951
	0.0007295549	0.002427115	1.243767e-07	1.04761e-06	-0.004509246	0.007766594	1.522763e-08	3.089792e-07
	-9.718742e-08	9.362797e-07	0.0008792548	0.002493951	1.522763e-08	3.089792e-07	-0.004293868	0.007883597
3.9e+08	-0.002873503	0.004446782	2.948352e-08	2.309009e-07	0.000950341	0.003758708	4.997042e-08	9.629637e-07
	2.948352e-08	2.309009e-07	-0.002775726	0.004550685	1.234466e-07	1.070907e-06	0.00102201	0.003817541
	0.000950341	0.003758708	1.234466e-07	1.070907e-06	-0.002808389	0.004489398	3.957429e-08	3.152094e-07
	4.997042e-08	9.629637e-07	0.001022011	0.003817541	3.957429e-08	3.152094e-07	-0.002719181	0.004588618
4e+08	-0.001733937	0.0009478439	4.813793e-08	2.32347e-07	0.001381132	0.005037407	2.028908e-07	9.655899e-07
	4.813793e-08	2.32347e-07	-0.001775959	0.001054286	1.218637e-07	1.094764e-06	0.001370225	0.005101251
	0.001381132	0.005037407	1.218637e-07	1.094764e-06	-0.001682891	0.0009667139	6.450975e-08	3.175203e-07
	2.028908e-07	9.655899e-07	0.001370225	0.005101251	6.450975e-08	3.175203e-07	-0.001728164	0.001069106
4.1e+08	-0.001195841	-0.002702158	6.672072e-08	2.307603e-07	0.002010419	0.006229189	3.575616e-07	9.430075e-07
	6.672072e-08	2.307603e-07	-0.00138281	-0.002569791	1.197172e-07	1.119298e-06	0.00191454	0.006311931
	0.002010419	0.006229189	1.197172e-07	1.119298e-06	-0.001163369	-0.002704522	8.938371e-08	3.157842e-07
	3.575616e-07	9.430075e-07	0.00191454	0.006311931	8.938371e-08	3.157842e-07	-0.001347947	-0.002576422
4.2e+08	-0.001274271	-0.006403689	8.472679e-08	2.261297e-07	0.002821188	0.007302377	5.097547e-07	8.947477e-07
	8.472679e-08	2.261297e-07	-0.001607424	-0.006220958	1.171145e-07	1.144612e-06	0.002640257	0.007418418
	0.002821188	0.007302377	1.171145e-07	1.144612e-06	-0.001264436	-0.006424016	1.135204e-07	3.099818e-07
	5.097547e-07	8.947477e-07	0.002640257	0.007418418	1.135204e-07	3.099818e-07	-0.001589368	-0.00624668
4.3e+08	-0.001968118	-0.01005639	1.016456e-07	2.185282e-07	0.003791385	0.008228539	6.551438e-07	8.210615e-07
	1.016456e-07	2.185282e-07	-0.002444587	-0.009798473	1.141799e-07	1.170794e-06	0.00352773	0.008392402
	0.003791385	0.008228539	1.141799e-07	1.170794e-06	-0.00198441	-0.01009073	1.362366e-07	3.002072e-07
	6.551438e-07	8.210615e-07	0.00352773	0.008392402	1.362366e-07	3.002072e-07	-0.002446785	-0.009840282
4.4e+08	-0.003260238	-0.01356169	1.169748e-07	2.081142e-07	0.004894527	0.008983295	7.894292e-07	7.229385e-07
	1.169748e-07	2.081142e-07	-0.003872963	-0.01320406	1.110526e-07	1.197912e-06	0.004552919	0.009209217
	0.004894527	0.008983295	1.110526e-07	1.197912e-06	-0.003305458	-0.01360551	1.568604e-07	2.866698e-07
	7.894292e-07	7.229385e-07	0.004552919	0.009209217	1.568604e-07	2.866698e-07	-0.003898333	-0.01325839
4.5e+08	-0.005117991	-0.01682531	1.302348e-07	1.951315e-07	0.006100443	0.009547	9.084653e-07	6.021022e-07
	1.302348e-07	1.951315e-07	-0.005855759	-0.01634448	1.078846e-07	1.226016e-06	0.005688056	0.009848523
	0.006100443	0.009547	1.078846e-07	1.226016e-06	-0.005194162	-0.01687361	1.747506e-07	2.696933e-07
	9.084653e-07	6.021022e-07	0.005688056	0.009848523	1.747506e-07	2.696933e-07	-0.005906597	-0.01640729
4.6e+08	-0.007494193	-0.0197597	1.409827e-07	1.799062e-07	0.007376125	0.009905305	1.008387e-06	4.60984e-07
	1.409827e-07	1.799062e-07	-0.008341798	-0.0191339	1.048377e-07	1.255131e-06	0.00690243	0.01029486
	0.007376125	0.009905305	1.048377e-07	1.255131e-06	-0.007602461	-0.0198072	1.893163e-07	2.49711e-07
	1.008387e-06	4.60984e-07	0.00690243	0.01029486	1.893163e-07	2.49711e-07	-0.008419681	-0.01920082
4.7e+08	-0.01032842	-0.02228623	1.488273e-07	1.628411e-07	0.008686657	0.01004954	1.085733e-06	3.026743e-07
	1.488273e-07	1.628411e-07	-0.01126694	-0.0214961	1.020808e-07	1.285257e-06	0.008163243	0.01053807
	0.008686657	0.01004954	1.020808e-07	1.285257e-06	-0.01046905	-0.02232744	2.000361e-07	2.272587e-07
	1.085733e-06	3.026743e-07	0.008163243	0.01053807	2.000361e-07	2.272587e-07	-0.01137272	-0.02156251
4.8e+08	-0.01354866	-0.02433715	1.534416e-07	1.444083e-07	0.009996202	0.009976972	1.137552e-06	1.308532e-07
