!$
! Info: Touchstone file created by Circ.  Input file=Tx_8in_Rx_85ohms_TxVia_10mils_RxVia_20mils.circ
!$
# Hz S RI R 50
0	0.00652106	5.531045e-26	1.104895e-10	1.455136e-28	5.625062e-05	6.898416e-24	-5.063388e-09	6.202529e-25
	1.105014e-10	1.457023e-28	0.006521727	7.639495e-26	5.466319e-10	2.947024e-27	5.433803e-05	9.23979e-24
	5.494949e-05	6.721603e-24	5.465702e-10	2.954217e-27	0.006536382	5.792856e-26	-9.187428e-09	1.139032e-24
	-5.062501e-09	6.201444e-25	5.579502e-05	9.509961e-24	-9.187624e-09	1.139056e-24	0.006527339	7.286897e-26
1e+07	0.008503561	-0.007418811	5.046036e-11	-1.995146e-11	0.0002373089	0.001485658	-7.265518e-09	1.698133e-08
	5.046038e-11	-1.995175e-11	0.008524085	-0.007423081	6.629806e-10	1.104055e-09	0.0002348057	0.001489469
	0.000237265	0.001485661	6.629805e-10	1.104056e-09	0.008545717	-0.007406466	-8.674444e-09	1.674984e-08
	-7.265517e-09	1.698133e-08	0.0002348381	0.001489457	-8.674444e-09	1.674984e-08	0.008513594	-0.007417684
2e+07	0.008807636	-0.01697826	4.478574e-11	-2.183293e-11	0.0006434077	0.002877948	-6.248122e-09	1.367583e-08
	4.478553e-11	-2.183304e-11	0.008803581	-0.01699307	7.878928e-10	1.966162e-09	0.0006339502	0.002887015
	0.0006433983	0.002877976	7.878929e-10	1.966163e-09	0.00884465	-0.01696382	-7.908716e-09	1.419505e-08
	-6.248123e-09	1.367583e-08	0.0006339471	0.002886994	-7.908716e-09	1.419505e-08	0.008798105	-0.01697414
3e+07	0.00671624	-0.02726286	5.913827e-11	-4.882903e-11	0.001267112	0.004166223	-2.840019e-09	1.309061e-08
	5.913823e-11	-4.882899e-11	0.006677543	-0.02727571	7.928903e-10	2.80206e-09	0.001246792	0.004183085
	0.001267113	0.004166228	7.928904e-10	2.80206e-09	0.006749498	-0.02723997	-4.036749e-09	1.429167e-08
	-2.840019e-09	1.309061e-08	0.001246786	0.004183082	-4.036749e-09	1.429167e-08	0.006676294	-0.02724834
4e+07	0.002604215	-0.0372553	6.359597e-11	-7.655724e-11	0.002089235	0.005319032	-3.37367e-11	1.199864e-08
	6.359596e-11	-7.655728e-11	0.002521873	-0.03725576	7.487715e-10	3.675369e-09	0.002054838	0.005347155
	0.002089231	0.00531903	7.487715e-10	3.675369e-09	0.002634432	-0.03722241	-8.954868e-10	1.348168e-08
	-3.373667e-11	1.199864e-08	0.002054838	0.005347156	-8.954869e-10	1.348168e-08	0.002523668	-0.03722318
5e+07	-0.003286939	-0.04651138	7.135557e-11	-9.772617e-11	0.003082648	0.006306177	1.844551e-09	1.093823e-08
	7.135553e-11	-9.77262e-11	-0.003419831	-0.04648753	6.843653e-10	4.573615e-09	0.00303189	0.006349855
	0.003082646	0.006306176	6.843653e-10	4.573615e-09	-0.003259305	-0.04646761	1.117481e-09	1.255633e-08
	1.844551e-09	1.093823e-08	0.00303189	0.006349856	1.117481e-09	1.255633e-08	-0.003417347	-0.04645035
6e+07	-0.01072304	-0.05470819	9.837208e-11	-1.118874e-10	0.004215016	0.007102606	2.864236e-09	1.044955e-08
	9.837217e-11	-1.118874e-10	-0.01091075	-0.05464675	6.120124e-10	5.482408e-09	0.004146729	0.007166686
	0.004215022	0.007102604	6.120124e-10	5.482408e-09	-0.01069763	-0.05465277	2.043848e-09	1.206474e-08
	2.864236e-09	1.044955e-08	0.004146726	0.007166687	2.043848e-09	1.206474e-08	-0.01090883	-0.05460444
7e+07	-0.0194537	-0.06159339	2.195561e-10	-7.812048e-11	0.005450334	0.007689475	2.366052e-09	1.124465e-08
	2.195565e-10	-7.812055e-11	-0.01969752	-0.0614802	5.846642e-10	6.375972e-09	0.005364526	0.007779085
	0.005450345	0.007689467	5.846642e-10	6.375972e-09	-0.01943014	-0.06152554	1.320925e-09	1.227505e-08
	2.366052e-09	1.124465e-08	0.005364521	0.007779088	1.320925e-09	1.227505e-08	-0.01969699	-0.06143241
8e+07	-0.02920936	-0.06697262	-7.07927e-11	-1.501015e-09	0.006750294	0.008054777	-3.834196e-09	1.065698e-08
	-7.079227e-11	-1.501016e-09	-0.02950745	-0.06679328	7.051341e-10	7.511448e-09	0.006648171	0.008175087
	0.006750304	0.008054765	7.051341e-10	7.511448e-09	-0.02918714	-0.0668915	-2.86619e-09	1.120201e-08
	-3.834196e-09	1.065698e-08	0.006648167	0.008175092	-2.86619e-09	1.120201e-08	-0.02950934	-0.06673955
9e+07	-0.03970489	-0.070706	1.449555e-10	-3.259703e-10	0.008075802	0.00819377	-3.578633e-09	1.736327e-09
	1.449558e-10	-3.259707e-10	-0.04005228	-0.07044644	4.596861e-10	8.658244e-09	0.007959767	0.008349755
	0.008075808	0.008193759	4.596861e-10	8.658244e-09	-0.03968332	-0.0706107	-3.91647e-09	4.091111e-09
	-3.578633e-09	1.736327e-09	0.007959764	0.008349759	-3.91647e-09	4.091111e-09	-0.04005777	-0.07038577
1e+08	-0.05064753	-0.07270866	1.263299e-10	-2.853906e-10	0.009389842	0.008110433	-3.22673e-10	8.294859e-12
	1.263299e-10	-2.853906e-10	-0.05103602	-0.0723556	2.955739e-10	9.660325e-09	0.009263458	0.008306631
	0.009389842	0.008110433	2.955739e-10	9.660325e-09	-0.05062547	-0.0725981	-8.283108e-10	1.520974e-09
	-3.22673e-10	8.294859e-12	0.009263458	0.008306631	-8.283108e-10	1.520974e-09	-0.05104616	-0.07228645
1.1e+08	-0.06174312	-0.07293966	1.308395e-10	-3.426141e-10	0.01065979	0.00780122	-3.51343e-10	6.886812e-11
	1.308395e-10	-3.426141e-10	-0.06216192	-0.07248102	2.916088e-10	1.080405e-08	0.01052721	0.008041088
	0.01065979	0.00780122	2.916088e-10	1.080405e-08	-0.06171785	-0.07281453	-8.532508e-10	1.832558e-09
	-3.51343e-10	6.886812e-11	0.01052721	0.008041087	-8.532508e-10	1.832558e-09	-0.06217597	-0.07240082
1.2e+08	-0.07268542	-0.07140321	1.279621e-10	-4.042792e-10	0.01183737	0.007284839	-3.68825e-10	1.37784e-10
	1.279621e-10	-4.042792e-10	-0.07312101	-0.07083048	3.373718e-10	1.197862e-08	0.01170435	0.007571634
	0.01183737	0.007284839	3.373718e-10	1.197862e-08	-0.07265693	-0.07126355	-8.412456e-10	2.158911e-09
	-3.68825e-10	1.37784e-10	0.01170435	0.007571634	-8.412456e-10	2.158911e-09	-0.07313783	-0.07073742
1.3e+08	-0.08319161	-0.06816502	1.152184e-10	-4.699833e-10	0.01289339	0.006584323	-3.732434e-10	2.128581e-10
	1.152184e-10	-4.699833e-10	-0.08362853	-0.06747209	4.415672e-10	1.317351e-08	0.01276641	0.006920013
	0.01289339	0.006584323	4.415672e-10	1.317351e-08	-0.08315921	-0.06801038	-7.899608e-10	2.491707e-09
	-3.732434e-10	2.128581e-10	0.01276641	0.006920013	-7.899608e-10	2.491707e-09	-0.08364674	-0.06736473
1.4e+08	-0.09299578	-0.06333201	9.088225e-11	-5.380866e-10	0.01380147	0.00572488	-3.632553e-10	2.911864e-10
	9.088225e-11	-5.380866e-10	-0.09341723	-0.06251572	6.105371e-10	1.437693e-08	0.01368749	0.006110072
	0.01380147	0.00572488	6.105371e-10	1.437693e-08	-0.09295826	-0.06316199	-6.980285e-10	2.822907e-09
	-3.632553e-10	2.911864e-10	0.01368749	0.006110072	-6.980285e-10	2.822907e-09	-0.09343505	-0.06239289
1.5e+08	-0.1018563	-0.05705009	5.294687e-11	-6.044423e-10	0.01453985	0.004734827	-3.378705e-10	3.704074e-10
	5.294687e-11	-6.044423e-10	-0.1022447	-0.0561105	8.481554e-10	1.557584e-08	0.01444607	0.005168708
	0.01453985	0.004734827	8.481554e-10	1.557584e-08	-0.1018121	-0.05686455	-5.662503e-10	3.14633e-09
	-3.378705e-10	3.704074e-10	0.01444607	0.005168708	-5.662503e-10	3.14633e-09	-0.10226	-0.05597144
1.6e+08	-0.1095611	-0.0494994	1.036122e-12	-6.65256e-10	0.01509181	0.003644887	-2.96698e-10	4.474283e-10
	1.036121e-12	-6.65256e-10	-0.1098986	-0.04843994	1.155572e-09	1.675638e-08	0.01502538	0.004125194
	0.01509181	0.003644887	1.155572e-09	1.675638e-08	-0.1095084	-0.04929862	-3.958112e-10	3.455181e-09
	-2.96698e-10	4.474283e-10	0.01502538	0.004125194	-3.958112e-10	3.455181e-09	-0.1099091	-0.04828436
1.7e+08	-0.1159315	-0.04088886	-6.409442e-11	-7.164599e-10	0.01544584	0.002487382	-2.399614e-10	5.190872e-10
	-6.409442e-11	-7.164599e-10	-0.1162007	-0.03971641	1.531108e-09	1.79044e-08	0.01541359	0.003010409
	0.01544584	0.002487382	1.531108e-09	1.79044e-08	-0.1158683	-0.04067355	-1.88808e-10	3.74305e-09
	-2.399614e-10	5.190872e-10	0.01541359	0.003010409	-1.88808e-10	3.74305e-09	-0.1162039	-0.03954454
1.8e+08	-0.1208255	-0.03145029	-1.404679e-10	-7.540772e-10	0.01559566	0.001295435	-1.68504e-10	5.822738e-10
	-1.404679e-10	-7.540772e-10	-0.1210102	-0.03017515	1.970212e-09	1.900603e-08	0.01560386	0.001856086
	0.01559566	0.001295435	1.970212e-09	1.900603e-08	-0.1207501	-0.03122166	5.187211e-11	4.003923e-09
	-1.68504e-10	5.822738e-10	0.01560386	0.001856086	5.187211e-11	4.003923e-09	-0.1210036	-0.02998776
1.9e+08	-0.1241406	-0.02143246	-2.24912e-10	-7.746014e-10	0.01554015	0.0001022261	-8.376957e-11	6.340483e-10
	-2.24912e-10	-7.746014e-10	-0.124226	-0.02006813	2.465528e-09	2.004819e-08	0.0155942	0.0006941122
	0.01554015	0.0001022262	2.465528e-09	2.004819e-08	-0.1240511	-0.02119218	3.226239e-10	4.232173e-09
	-8.376957e-11	6.340483e-10	0.0155942	0.0006941122	3.226239e-10	4.232173e-09	-0.1242072	-0.01986655
2e+08	-0.1258144	-0.01109488	-3.132e-10	-7.753571e-10	0.01528315	-0.001059698	1.223907e-11	6.717537e-10
	-3.132e-10	-7.753571e-10	-0.1257882	-0.009657829	3.00706e-09	2.101917e-08	0.01538737	-0.0004441068
	0.01528315	-0.001059698	3.00706e-09	2.101917e-08	-0.1257094	-0.01084502	6.191436e-10	4.422541e-09
	1.223907e-11	6.717537e-10	0.01538737	-0.0004441068	6.191436e-10	4.422541e-09	-0.1257551	-0.009443881
2.1e+08	-0.1258261	-0.0007016289	-4.002999e-10	-7.54811e-10	0.01483325	-0.002159053	1.170213e-10	6.931165e-10
	-4.002999e-10	-7.54811e-10	-0.1256789	0.0007891322	3.582443e-09	2.190912e-08	0.01499065	-0.001528233
	0.01483325	-0.002159053	3.582443e-09	2.190912e-08	-0.1257046	-0.0004446285	9.363976e-10	4.570142e-09
	1.170213e-10	6.931165e-10	0.01499065	-0.001528233	9.363976e-10	4.570142e-09	-0.1256297	0.001013144
2.2e+08	-0.1241959	0.009484728	-4.80711e-10	-7.128006e-10	0.01420355	-0.003166391	2.276573e-10	6.963341e-10
	-4.80711e-10	-7.128006e-10	-0.1239215	0.01100815	4.177319e-09	2.271052e-08	0.01441559	-0.00252953
	0.01420355	-0.003166391	4.177319e-09	2.271052e-08	-0.1240572	0.009746144	1.268555e-09	4.670512e-09
	2.276573e-10	6.963341e-10	0.01441559	-0.00252953	1.268555e-09	4.670512e-09	-0.1238547	0.01123952
2.3e+08	-0.1209839	0.01920915	-5.488641e-10	-6.506589e-10	0.01341126	-0.004054646	3.408998e-10	6.801453e-10
	-5.488641e-10	-6.506589e-10	-0.1205801	0.02074274	4.775787e-09	2.341856e-08	0.01367778	-0.003421368
	0.01341126	-0.004054646	4.775787e-09	2.341856e-08	-0.1208279	0.01947206	1.608906e-09	4.719712e-09
	3.408998e-10	6.801453e-10	0.01367778	-0.003421368	1.608906e-09	4.719712e-09	-0.1204948	0.02097843
2.4e+08	-0.1162889	0.02822985	-5.995472e-10	-5.712151e-10	0.01247744	-0.004799637	4.532771e-10	6.438827e-10
	-5.995472e-10	-5.712151e-10	-0.1157574	0.02975034	5.360935e-09	2.40314e-08	0.01279652	-0.004179704
	0.01247744	-0.004799637	5.360935e-09	2.40314e-08	-0.1161159	0.02849123	1.949784e-09	4.714506e-09
	4.532771e-10	6.438827e-10	0.01279652	-0.004179704	1.949784e-09	4.714506e-09	-0.1156533	0.02998709
2.5e+08	-0.1102454	0.0363238	-6.28326e-10	-4.786736e-10	0.0114266	-0.00538056	5.612028e-10	5.875051e-10
	-6.28326e-10	-4.786736e-10	-0.1095921	0.0378079	5.915414e-09	2.45504e-08	0.01179449	-0.004783548
	0.0114266	-0.00538056	5.915414e-09	2.45504e-08	-0.1100564	0.03658063	2.28254e-09	4.652599e-09
	5.612028e-10	5.875051e-10	0.01179449	-0.004783548	2.28254e-09	4.652599e-09	-0.1094695	0.03804231
2.6e+08	-0.1030207	0.04329186	-6.31915e-10	-3.783679e-10	0.01028622	-0.005780451	6.610884e-10	5.1161e-10
	-6.31915e-10	-3.783679e-10	-0.1022561	0.044717	6.422048e-09	2.498015e-08	0.0106974	-0.005215421
	0.01028622	-0.005780451	6.422048e-09	2.498015e-08	-0.1028172	0.0435412	2.597569e-09	4.532939e-09
	6.610884e-10	5.1161e-10	0.0106974	-0.005215421	2.597569e-09	4.532939e-09	-0.1021158	0.04494565
2.7e+08	-0.09481116	0.04896342	-6.084714e-10	-2.764145e-10	0.00908627	-0.005986633	7.494557e-10	4.174257e-10
	-6.084714e-10	-2.764145e-10	-0.09394961	0.05030856	6.864443e-09	2.532844e-08	0.009533525	-0.0054618
	0.00908627	-0.005986633	6.864443e-09	2.532844e-08	-0.09459518	0.04920253	2.884447e-09	4.356043e-09
	7.494557e-10	4.174257e-10	0.009533525	-0.0054618	2.884447e-09	4.356043e-09	-0.09379317	0.05052815
2.8e+08	-0.08583724	0.05320059	-5.577721e-10	-1.792863e-10	0.007858644	-0.005991124	8.23045e-10	3.067836e-10
	-5.577721e-10	-1.792863e-10	-0.08489731	0.054447	7.227581e-09	2.560606e-08	0.008333163	-0.005513539
	0.007858644	-0.005991124	7.227581e-09	2.560606e-08	-0.0856114	0.05342704	3.132171e-09	4.124342e-09
	8.23045e-10	3.067836e-10	0.008333163	-0.005513539	3.132171e-09	4.124342e-09	-0.08472691	0.05465444
2.9e+08	-0.0763387	0.05590172	-4.812629e-10	-9.334928e-11	0.006636471	-0.005790992	8.78915e-10	1.820721e-10
	-4.812629e-10	-9.334928e-11	-0.07534254	0.0570337	7.498371e-09	2.582658e-08	0.007128064	-0.005366248
	0.006636471	-0.005790992	7.498371e-09	2.582658e-08	-0.0761061	0.05611348	3.329526e-09	3.84248e-09
	8.78915e-10	1.820721e-10	0.007128064	-0.005366248	3.329526e-09	3.84248e-09	-0.07516097	0.05722623
3e+08	-0.0665688	0.05700412	-3.819734e-10	-2.439814e-11	0.00545336	-0.005388636	9.145316e-10	4.617622e-11
	-3.819734e-10	-2.439814e-11	-0.06554165	0.05800971	7.666133e-09	2.600592e-08	0.005950702	-0.005020599
	0.00545336	-0.005388636	7.666133e-09	2.600592e-08	-0.06633292	0.05719965	3.465561e-09	3.517537e-09
	9.145316e-10	4.617622e-11	0.005950702	-0.005020599	3.465561e-09	3.517537e-09	-0.06535222	0.05818505
3.1e+08	-0.05678806	0.05648605	-2.611147e-10	2.151999e-11	0.00434256	-0.004791956	9.27771e-10	-9.759779e-11
	-2.611147e-10	2.151999e-11	-0.05575766	0.05735764	7.723682e-09	2.616174e-08	0.004833487	-0.004482549
	0.00434256	-0.004791956	7.723682e-09	2.616174e-08	-0.05655275	0.05666442	3.533369e-09	3.157877e-09
	9.27771e-10	-9.759779e-11	0.004833487	-0.004482549	3.533369e-09	3.157877e-09	-0.05556417	0.05751403
3.2e+08	-0.04725784	0.05436766	-1.215887e-10	3.747294e-11	0.003336033	-0.004014388	9.170515e-10	-2.455469e-10
	-1.215887e-10	3.747294e-11	-0.04625361	0.05510247	7.66684e-09	2.631243e-08	0.003807882	-0.003763422
	0.003336033	-0.004014388	7.66684e-09	2.631243e-08	-0.04702715	0.05452859	3.526847e-09	2.772137e-09
	9.170515e-10	-2.455469e-10	0.003807882	-0.003763422	3.526847e-09	2.772137e-09	-0.04606025	0.05523882
3.3e+08	-0.0382335	0.05071096	2.325439e-11	2.309978e-11	0.002463491	-0.003074778	8.816213e-10	-3.937415e-10
	2.325439e-11	2.309978e-11	-0.03728577	0.05131136	7.492608e-09	2.647819e-08	0.002903467	-0.002879841
	0.002463491	-0.003074778	7.492608e-09	2.647819e-08	-0.03801165	0.05085483	3.432098e-09	2.376349e-09
	8.816213e-10	-3.937415e-10	0.002903467	-0.002879841	3.432098e-09	2.376349e-09	-0.03709697	0.05142733
3.4e+08	-0.02995771	0.04561864	1.66555e-10	-2.155304e-11	0.001751407	-0.001997057	8.212098e-10	-5.381253e-10
	1.66555e-10	-2.155304e-11	-0.02909676	0.04609239	7.202829e-09	2.667942e-08	0.00214698	-0.001853472
	0.001751407	-0.001997057	7.202829e-09	2.667942e-08	-0.02974893	0.04574656	3.244681e-09	1.987176e-09
	8.212098e-10	-5.381253e-10	0.00214698	-0.001853472	3.244681e-09	1.987176e-09	-0.02891707	0.04618845
3.5e+08	-0.02265382	0.03923173	3.0191e-10	-9.474329e-11	0.001222065	-0.0008097216	7.361909e-10	-6.745813e-10
	3.0191e-10	-9.474329e-11	-0.02190893	0.03959202	6.802838e-09	2.693624e-08	0.00156137	-0.0007105734
	0.001222065	-0.0008097216	6.802838e-09	2.693624e-08	-0.02246221	0.03934556	2.963599e-09	1.622693e-09
	7.361909e-10	-6.745813e-10	0.00156137	-0.0007105734	2.963599e-09	1.622693e-09	-0.02174289	0.03966943
3.6e+08	-0.01651962	0.0317262	4.238312e-10	-1.933024e-10	0.0008926811	0.0004549009	6.275881e-10	-7.990177e-10
	4.238312e-10	-1.933024e-10	-0.01591805	0.03199154	6.30139e-09	2.72679e-08	0.001164922	0.0005186649
	0.0008926811	0.0004549009	6.30139e-09	2.72679e-08	-0.01634905	0.03182857	2.591717e-09	1.301587e-09
	6.275881e-10	-7.990177e-10	0.001164922	0.0005186649	2.591717e-09	1.301587e-09	-0.01577006	0.0320524
3.7e+08	-0.01172171	0.02330841	5.280762e-10	-3.130209e-10	0.0007746653	0.001761574	4.970774e-10	-9.074589e-10
	5.280762e-10	-3.130209e-10	-0.01128776	0.0235023	5.710493e-09	2.769221e-08	0.0009704976	0.001800974
	0.0007746653	0.001761574	5.710493e-09	2.769221e-08	-0.01157563	0.02340264	2.135965e-09	1.042227e-09
	4.970774e-10	-9.074589e-10	0.0009704976	0.001800974	2.135965e-09	1.042227e-09	-0.01116188	0.02354949
3.8e+08	-0.008390615	0.01420961	6.1183e-10	-4.491166e-10	0.0008730597	0.003073248	3.469841e-10	-9.961376e-10
	6.1183e-10	-4.491166e-10	-0.008144696	0.01436003	5.045162e-09	2.822504e-08	0.0009849464	0.003101032
	0.0008730597	0.003073248	5.045162e-09	2.822504e-08	-0.008271965	0.01429967	1.607295e-09	8.616705e-10
	3.469841e-10	-9.961376e-10	0.0009849464	0.003101032	1.607295e-09	8.616705e-10	-0.008044559	0.01439721
3.9e+08	-0.00661697	0.004679581	6.737164e-10	-5.967249e-10	0.001186207	0.004352281	1.802698e-10	-1.061593e-09
	6.737164e-10	-5.967249e-10	-0.006574796	0.004818337	4.323097e-09	2.887979e-08	0.001208734	0.004382614
	0.001186207	0.004352281	4.323097e-09	2.887979e-08	-0.006528064	0.004769995	1.020357e-09	7.746948e-10
	1.802698e-10	-1.061593e-09	0.001208734	0.004382614	1.020357e-09	7.746948e-10	-0.006503414	0.004849839
4e+08	-0.006448842	-0.005020386	7.136416e-10	-7.513469e-10	0.001705678	0.005561725	5.086014e-13	-1.100774e-09
	7.136416e-10	-7.513469e-10	-0.00662071	-0.004858483	3.564299e-09	2.966704e-08	0.001635814	0.005609835
	0.001705678	0.005561725	3.564299e-09	2.966704e-08	-0.006391249	-0.004924635	3.929145e-10	7.929261e-10
	5.086014e-13	-1.100774e-09	0.001635814	0.005609835	3.929145e-10	7.929261e-10	-0.006580374	-0.004827755
4.1e+08	-0.00789033	-0.01462487	7.324956e-10	-9.09205e-10	0.002416473	0.006666633	-1.881528e-10	-1.111151e-09
	7.324956e-10	-9.09205e-10	-0.008280566	-0.01440296	2.790622e-09	3.05941e-08	0.002253771	0.006748392
	0.002416473	0.006666633	2.790622e-09	3.05941e-08	-0.007864791	-0.01451847	-2.549498e-10	9.241484e-10
	-1.881528e-10	-1.111151e-09	0.002253771	0.006748392	-2.549498e-10	9.241484e-10	-0.008272729	-0.01436764
4.2e+08	-0.01090153	-0.02387187	7.317559e-10	-1.067456e-09	0.003297501	0.007635288	-3.810576e-10	-1.090833e-09
	7.317559e-10	-1.067456e-09	-0.01150811	-0.0235521	2.025268e-09	3.166474e-08	0.003044219	0.007766772
	0.003297501	0.007635288	2.025268e-09	3.166474e-08	-0.0109079	-0.02374932	-9.018031e-10	1.171849e-09
	-3.810576e-10	-1.090833e-09	0.003044219	0.007766772	-9.018031e-10	1.171849e-09	-0.0115333	-0.02350653
4.3e+08	-0.01539985	-0.03251027	7.130526e-10	-1.224234e-09	0.004322311	0.008440329	-5.731282e-10	-1.038677e-09
	7.130526e-10	-1.224234e-09	-0.01621419	-0.03205489	1.292235e-09	3.287895e-08	0.003983465	0.008637344
	0.004322311	0.008440329	1.292235e-09	3.287895e-08	-0.01543705	-0.03236603	-1.525904e-09	1.535038e-09
	-5.731282e-10	-1.038677e-09	0.003983465	0.008637344	-1.525904e-09	1.535038e-09	-0.01627196	-0.03199327
4.4e+08	-0.02126265	-0.04030686	6.777566e-10	-1.378534e-09	0.005460046	0.009059675	-7.589852e-10	-9.543957e-10
	6.777566e-10	-1.378534e-09	-0.02226965	-0.03967942	6.157123e-10	3.423271e-08	0.005043366	0.009337284
	0.005460046	0.009059675	6.157123e-10	3.423271e-08	-0.02132866	-0.04013552	-2.106241e-09	2.008356e-09
	-7.589852e-10	-9.543957e-10	0.005043366	0.009337284	-2.106241e-09	2.008356e-09	-0.02235854	-0.03959597
4.5e+08	-0.02833105	-0.04705276	6.266542e-10	-1.529933e-09	0.006676554	0.009477236	-9.330976e-10	-8.386422e-10
	6.266542e-10	-1.529933e-09	-0.02950928	-0.04621922	1.943886e-11	3.571801e-08	0.006192371	0.009849281
	0.006676554	0.009477236	1.943886e-11	3.571801e-08	-0.02842292	-0.04684919	-2.623489e-09	2.582439e-09
	-9.330976e-10	-8.386422e-10	0.006192371	0.009849281	-2.623489e-09	2.582439e-09	-0.02962683	-0.04610838
4.6e+08	-0.03641482	-0.05256903	5.597548e-10	-1.678221e-09	0.007935616	0.009683356	-1.089959e-09	-6.930664e-10
	5.597548e-10	-1.678221e-09	-0.03773697	-0.05149888	-4.739677e-10	3.732276e-08	0.007396657	0.01016201
	0.007935616	0.009683356	-4.739677e-10	3.732276e-08	-0.03652872	-0.05232855	-3.060797e-09	3.244514e-09
	-1.089959e-09	-6.930664e-10	0.007396657	0.01016201	-3.060797e-09	3.244514e-09	-0.03787975	-0.05135548
4.7e+08	-0.04529808	-0.0567112	4.762649e-10	-1.822964e-09	0.009200212	0.009674997	-1.224283e-09	-5.203324e-10
	4.762649e-10	-1.822964e-09	-0.04673155	-0.05537846	-8.436962e-10	3.903104e-08	0.008621315	0.01027035
	0.009200212	0.009674997	-8.436962e-10	3.903104e-08	-0.04542937	-0.05642973	-3.404369e-09	3.979144e-09
	-1.224283e-09	-5.203324e-10	0.008621315	0.01027035	-3.404369e-09	3.979144e-09	-0.04689522	-0.05519789
4.8e+08	-0.0547456	-0.05937274	3.74733e-10	-1.9631e-09	0.01043376	0.009455654	-1.331209e-09	-3.240921e-10
