!$
! Info: Touchstone file created by Circ.  Input file=Tx_8in_Rx_93ohms_TxVia_10mils_RxVia_20mils.circ
!$
# Hz S RI R 50
0	0.007409388	6.600931e-26	-4.325066e-05	-5.962951e-26	5.669399e-05	9.281087e-24	-4.326384e-05	1.558573e-24
	-4.325067e-05	-5.882148e-26	0.00741224	7.608603e-26	-4.325019e-05	-4.934589e-26	5.412392e-05	1.051322e-23
	5.674193e-05	9.286511e-24	-4.325018e-05	-5.018555e-26	0.007424255	6.619165e-26	-4.325175e-05	1.596666e-25
	-4.326383e-05	1.557671e-24	5.558058e-05	1.082062e-23	-4.325174e-05	1.586673e-25	0.007417841	7.257523e-26
1e+07	0.01021538	-0.0004826197	-1.747708e-06	-1.603628e-05	0.0002239481	0.001379911	-1.774259e-06	-1.645085e-05
	-1.747708e-06	-1.603628e-05	0.0108164	-0.0005749102	-5.138558e-06	-3.032131e-06	0.0002309487	0.001499754
	0.0002239524	0.001379908	-5.138558e-06	-3.032131e-06	0.01099198	-0.0001060237	-1.724007e-05	-4.025043e-06
	-1.77426e-06	-1.645085e-05	0.0002309813	0.001499742	-1.724007e-05	-4.025043e-06	0.0106096	-0.0005848335
2e+07	0.01231137	-0.00345173	-5.726918e-06	-1.070157e-05	0.0006198226	0.002770907	-6.213159e-06	-1.135259e-05
	-5.726918e-06	-1.070157e-05	0.01268486	-0.003817147	-2.012995e-05	-1.669363e-05	0.0005449657	0.002992196
	0.0006198216	0.002770904	-2.012995e-05	-1.669363e-05	0.01333218	-0.003139581	-1.832786e-05	3.08949e-06
	-6.213159e-06	-1.135259e-05	0.0005449629	0.002992175	-1.832786e-05	3.08949e-06	0.01252664	-0.003760567
3e+07	0.01308449	-0.007548241	-8.922373e-06	-8.731402e-06	0.001226923	0.004072938	-9.76314e-06	-9.358561e-06
	-8.922373e-06	-8.731402e-06	0.01326582	-0.007989886	-3.153522e-05	-1.718137e-05	0.00113905	0.004338775
	0.001226923	0.004072938	-3.153522e-05	-1.718137e-05	0.0142814	-0.00734881	-1.960854e-05	3.771362e-06
	-9.76314e-06	-9.358561e-06	0.001139045	0.004338772	-1.960854e-05	3.771362e-06	0.01314438	-0.007920991
4e+07	0.01282057	-0.0119358	-1.149488e-05	-6.720386e-06	0.002030845	0.005254425	-1.262477e-05	-7.226509e-06
	-1.149488e-05	-6.720386e-06	0.01282782	-0.01239001	-4.072292e-05	-1.370614e-05	0.001971075	0.005537963
	0.002030846	0.005254424	-4.072292e-05	-1.370614e-05	0.01414362	-0.01188769	-2.040475e-05	5.415409e-06
	-1.262477e-05	-7.226509e-06	0.001971075	0.005537965	-2.040475e-05	5.415409e-06	0.01273519	-0.01232513
5e+07	0.01164545	-0.01632134	-1.352129e-05	-4.4405e-06	0.003008879	0.006284451	-1.488904e-05	-4.760324e-06
	-1.352129e-05	-4.4405e-06	0.0114942	-0.01674548	-4.802886e-05	-7.842868e-06	0.002969368	0.006575821
	0.00300888	0.006284451	-4.802886e-05	-7.842868e-06	0.01305032	-0.01645056	-2.077192e-05	7.517783e-06
	-1.488904e-05	-4.760324e-06	0.002969367	0.006575821	-2.077192e-05	7.517783e-06	0.01142213	-0.01669251
6e+07	0.009654944	-0.02051036	-1.502175e-05	-1.882108e-06	0.004133244	0.007136881	-1.658039e-05	-1.962859e-06
	-1.502175e-05	-1.882108e-06	0.009361584	-0.02087056	-5.354811e-05	-2.638087e-07	0.004106603	0.007430338
	0.004133245	0.007136881	-5.354811e-05	-2.638087e-07	0.01109948	-0.02083383	-2.07241e-05	9.886453e-06
	-1.658039e-05	-1.962859e-06	0.0041066	0.007430339	-2.07241e-05	9.886453e-06	0.009303174	-0.02083373
7e+07	0.006942754	-0.02435289	-1.598858e-05	9.242005e-07	0.005372381	0.007790911	-1.769031e-05	1.130352e-06
	-1.598858e-05	9.242005e-07	0.0065259	-0.02462048	-5.725305e-05	8.644768e-06	0.005351494	0.008083108
	0.005372383	0.007790911	-5.725305e-05	8.644768e-06	0.008385682	-0.02488049	-2.026073e-05	1.241424e-05
	-1.769031e-05	1.130352e-06	0.005351489	0.008083111	-2.026073e-05	1.241424e-05	0.006474757	-0.0246026
8e+07	0.003608592	-0.02772823	-1.639044e-05	3.946795e-06	0.00669208	0.008231691	-1.818226e-05	4.485862e-06
	-1.639045e-05	3.946795e-06	0.00308995	-0.02787821	-5.902329e-05	1.864768e-05	0.006669829	0.008520603
	0.006692082	0.008231691	-5.902329e-05	1.864768e-05	0.005008538	-0.02846455	-1.949064e-05	1.484007e-05
	-1.818226e-05	4.485862e-06	0.006669824	0.008520607	-1.949064e-05	1.484007e-05	0.003039372	-0.02788093
9e+07	-0.0002395496	-0.03053935	-1.615163e-05	7.178538e-06	0.008057082	0.00845121	-1.796312e-05	8.109358e-06
	-1.615163e-05	7.178538e-06	-0.000833869	-0.03054902	-5.85778e-05	2.96767e-05	0.008025497	0.008734841
	0.008057083	0.008451209	-5.85778e-05	2.96767e-05	0.001073718	-0.03148632	-1.936829e-05	1.605734e-05
	-1.796312e-05	8.109358e-06	0.008025494	0.008734845	-1.936829e-05	1.605734e-05	-0.0008910535	-0.03057274
1e+08	-0.004481918	-0.03270766	-1.490001e-05	1.083755e-05	0.009437715	0.008454004	-1.660856e-05	1.227212e-05
	-1.490001e-05	1.083755e-05	-0.005111991	-0.0325482	-5.456996e-05	4.251815e-05	0.009381514	0.008723383
	0.009437716	0.008454004	-5.456996e-05	4.251815e-05	-0.003318855	-0.0338804	-1.953035e-05	1.687043e-05
	-1.660856e-05	1.227212e-05	0.009381514	0.008723383	-1.953035e-05	1.687043e-05	-0.005184892	-0.03259374
1.1e+08	-0.008988182	-0.03422281	-1.213091e-05	1.292874e-05	0.01075704	0.008258061	-1.34864e-05	1.469187e-05
	-1.213091e-05	1.292874e-05	-0.009594884	-0.03393467	-4.499429e-05	5.007681e-05	0.01069921	0.008491222
	0.01075704	0.008258061	-4.499429e-05	5.007681e-05	-0.008069982	-0.03550982	-1.893193e-05	1.686007e-05
	-1.34864e-05	1.469187e-05	0.01069921	0.008491222	-1.893193e-05	1.686007e-05	-0.009694014	-0.03398859
1.2e+08	-0.01367478	-0.03502464	-9.790565e-06	1.425384e-05	0.01199764	0.007833142	-1.158724e-05	1.56341e-05
	-9.790564e-06	1.425384e-05	-0.01426414	-0.03462555	-3.991626e-05	5.257313e-05	0.01194579	0.00804975
	0.01199764	0.007833142	-3.991626e-05	5.257313e-05	-0.0129681	-0.03636263	-1.802281e-05	1.727891e-05
	-1.158724e-05	1.56341e-05	0.01194579	0.008049749	-1.802281e-05	1.727891e-05	-0.01438659	-0.0346796
1.3e+08	-0.01841118	-0.03509495	-9.128423e-06	1.424461e-05	0.013133	0.007204565	-1.107372e-05	1.55239e-05
	-9.128423e-06	1.424461e-05	-0.01897779	-0.03459004	-3.775151e-05	5.281888e-05	0.0130884	0.007413842
	0.013133	0.007204565	-3.775151e-05	5.281888e-05	-0.01789961	-0.03644805	-1.700145e-05	1.78434e-05
	-1.107372e-05	1.55239e-05	0.0130884	0.007413842	-1.700145e-05	1.78434e-05	-0.01912201	-0.03463882
1.4e+08	-0.02307412	-0.03444108	-8.542795e-06	1.423265e-05	0.0141336	0.006395509	-1.047523e-05	1.55455e-05
	-8.542795e-06	1.423265e-05	-0.02360973	-0.0338339	-3.528456e-05	5.338515e-05	0.01409727	0.006603859
	0.0141336	0.006395509	-3.528456e-05	5.338515e-05	-0.02274267	-0.03578126	-1.590076e-05	1.843628e-05
	-1.047523e-05	1.55455e-05	0.01409727	0.006603859	-1.590076e-05	1.843628e-05	-0.02377381	-0.0338728
1.5e+08	-0.02754649	-0.03309031	-7.905928e-06	1.427955e-05	0.0149732	0.005432541	-9.815627e-06	1.564293e-05
	-7.905928e-06	1.427955e-05	-0.02804146	-0.03238476	-3.259277e-05	5.410731e-05	0.01494651	0.005644672
	0.0149732	0.005432541	-3.259277e-05	5.410731e-05	-0.02737984	-0.03439459	-1.473354e-05	1.903121e-05
	-9.815627e-06	1.564293e-05	0.01494651	0.005644672	-1.473354e-05	1.903121e-05	-0.02822298	-0.03240981
1.6e+08	-0.03171947	-0.03108797	-7.229579e-06	1.435777e-05	0.01562999	0.004345608	-9.107447e-06	1.578386e-05
	-7.229579e-06	1.435777e-05	-0.03216344	-0.03028906	-2.971837e-05	5.488546e-05	0.01561476	0.00456489
	0.01562999	0.004345608	-2.971837e-05	5.488546e-05	-0.03170156	-0.03233736	-1.351232e-05	1.959699e-05
	-9.107447e-06	1.578386e-05	0.01561476	0.004564891	-1.351232e-05	1.959699e-05	-0.03235944	-0.03029693
1.7e+08	-0.03549463	-0.02849551	-6.521156e-06	1.444886e-05	0.01608723	0.003167436	-8.35813e-06	1.594652e-05
	-6.521156e-06	1.444886e-05	-0.03587711	-0.02760985	-2.668981e-05	5.565101e-05	0.01608567	0.003396039
	0.01608723	0.003167436	-2.668981e-05	5.565101e-05	-0.03560877	-0.02967453	-1.224421e-05	2.011924e-05
	-8.35813e-06	1.594652e-05	0.01608567	0.003396039	-1.224421e-05	2.011924e-05	-0.03608421	-0.02759787
1.8e+08	-0.03878597	-0.02538844	-5.785896e-06	1.45396e-05	0.01633376	0.001932728	-7.572845e-06	1.611502e-05
	-5.785896e-06	1.45396e-05	-0.03909681	-0.02442442	-2.352933e-05	5.635351e-05	0.01634831	0.002171683
	0.01633376	0.001932728	-2.352933e-05	5.635351e-05	-0.03901498	-0.02648479	-1.093526e-05	2.058706e-05
	-7.572845e-06	1.611502e-05	0.01634831	0.002171683	-1.093526e-05	2.058706e-05	-0.03931127	-0.02439063
1.9e+08	-0.04152155	-0.02185407	-5.02798e-06	1.462004e-05	0.01636415	0.0006773479	-6.755729e-06	1.627723e-05
	-5.02798e-06	1.462004e-05	-0.04175141	-0.02082194	-2.02567e-05	5.69542e-05	0.01639729	0.000926529
	0.01636415	0.0006773479	-2.02567e-05	5.69542e-05	-0.04184803	-0.02285844	-9.591183e-06	2.099185e-05
	-6.755729e-06	1.627723e-05	0.01639729	0.0009265291	-9.591183e-06	2.099185e-05	-0.0419693	-0.02076512
2e+08	-0.04364583	-0.01798846	-4.251192e-06	1.468013e-05	0.01618094	-0.0005935094	-5.910432e-06	1.642258e-05
	-4.251192e-06	1.468013e-05	-0.04378577	-0.01690089	-1.689088e-05	5.74219e-05	0.01623291	-0.0003044848
	0.01618094	-0.0005935094	-1.689088e-05	5.74219e-05	-0.04405244	-0.01889433	-8.21773e-06	2.132593e-05
	-5.910432e-06	1.642258e-05	0.01623291	-0.0003044847	-8.21773e-06	2.132593e-05	-0.04400303	-0.01682055
2.1e+08	-0.04511789	-0.01389546	-3.459054e-06	1.471609e-05	0.0157839	-0.00181232	-5.040609e-06	1.654412e-05
	-3.459054e-06	1.471609e-05	-0.04516167	-0.0127664	-1.345079e-05	5.77328e-05	0.01586106	-0.001487085
	0.0157839	-0.00181232	-1.345079e-05	5.77328e-05	-0.04558761	-0.01469889	-6.820876e-06	2.158428e-05
	-5.040609e-06	1.654412e-05	0.01586106	-0.001487085	-6.820876e-06	2.158428e-05	-0.04537425	-0.01266278
2.2e+08	-0.04591487	-0.009682739	-2.654813e-06	1.472307e-05	0.01518534	-0.002943202	-4.149787e-06	1.663539e-05
	-2.654813e-06	1.472307e-05	-0.04585843	-0.008527423	-9.955627e-06	5.786757e-05	0.01529296	-0.002588525
	0.01518534	-0.002943202	-9.955627e-06	5.786757e-05	-0.04643121	-0.01038221	-5.406785e-06	2.17623e-05
	-4.149787e-06	1.663539e-05	0.01529296	-0.002588525	-5.406785e-06	2.17623e-05	-0.04606243	-0.008401481
2.3e+08	-0.04603138	-0.005459353	-1.84169e-06	1.469701e-05	0.01440307	-0.003954823	-3.241563e-06	1.669095e-05
	-1.84169e-06	1.469701e-05	-0.0458731	-0.00429399	-6.424953e-06	5.781104e-05	0.01454491	-0.0035784
	0.01440307	-0.003954823	-6.424953e-06	5.781104e-05	-0.04657863	-0.006055533	-3.981883e-06	2.18563e-05
	-3.241563e-06	1.669095e-05	0.01454491	-0.0035784	-3.981883e-06	2.18563e-05	-0.04606486	-0.004147358
2.4e+08	-0.0454793	-0.001333053	-1.023008e-06	1.463463e-05	0.01345961	-0.004819236	-2.319751e-06	1.670632e-05
	-1.023008e-06	1.463463e-05	-0.04522028	-0.0001744129	-2.878866e-06	5.755194e-05	0.01363778	-0.00442939
	0.01345961	-0.004819236	-2.878866e-06	5.755194e-05	-0.0460428	-0.001828614	-2.552865e-06	2.186353e-05
	-2.319751e-06	1.670632e-05	0.01363778	-0.00442939	-2.552865e-06	2.186353e-05	-0.04539646	-9.339654e-06
2.5e+08	-0.04428728	0.002592335	-2.021216e-07	1.453329e-05	0.0123816	-0.005512557	-1.388281e-06	1.66778e-05
	-2.021216e-07	1.453329e-05	-0.04393142	0.003727397	6.624177e-07	5.708233e-05	0.01259647	-0.00511793
	0.0123816	-0.005512557	6.624177e-07	5.708233e-05	-0.04485349	0.002192944	-1.126612e-06	2.178209e-05
	-1.388281e-06	1.66778e-05	0.01259647	-0.00511793	-1.126612e-06	2.178209e-05	-0.04408916	0.003908111
2.6e+08	-0.04249976	0.006219421	6.174144e-07	1.43908e-05	0.01119909	-0.006015551	-4.512585e-07	1.660241e-05
	6.174144e-07	1.43908e-05	-0.0420539	0.007314512	4.177842e-06	5.639572e-05	0.01144926	-0.005624781
	0.01119909	-0.006015551	4.177842e-06	5.639572e-05	-0.04305652	0.005910207	2.898529e-07	2.161098e-05
	-4.512585e-07	1.660241e-05	0.01144926	-0.005624781	2.898529e-07	2.161098e-05	-0.04219083	0.007507558
2.7e+08	-0.0401757	0.009459587	1.432191e-06	1.420577e-05	0.009944771	-0.0063141	4.87102e-07	1.647783e-05
	1.432191e-06	1.420577e-05	-0.03964955	0.01049922	7.647749e-06	5.549193e-05	0.0102271	-0.0059355
	0.009944771	-0.0063141	7.647749e-06	5.549193e-05	-0.04071232	0.009233243	1.689451e-06	2.134992e-05
	4.87102e-07	1.647783e-05	0.0102271	-0.0059355	1.689451e-06	2.134992e-05	-0.03976391	0.01070095
2.8e+08	-0.037387	0.0122351	2.238677e-06	1.397721e-05	0.008653124	-0.006399559	1.422477e-06	1.63024e-05
	2.238677e-06	1.397721e-05	-0.03679301	0.01320525	1.105258e-05	5.437218e-05	0.008962814	-0.006040795
	0.008653124	-0.006399559	1.105258e-05	5.437218e-05	-0.03789436	0.01208326	3.065107e-06	2.099951e-05
	1.422477e-06	1.63024e-05	0.008962814	-0.006040795	3.065107e-06	2.099951e-05	-0.03688371	0.01341174
2.9e+08	-0.03421656	0.01448091	3.033304e-06	1.370456e-05	0.00735955	-0.006268965	2.350497e-06	1.607507e-05
	3.033304e-06	1.370456e-05	-0.03356969	0.01536951	1.437332e-05	5.303979e-05	0.007690276	-0.005936757
	0.00735955	-0.006268965	1.437332e-05	5.303979e-05	-0.03468717	0.0143944	4.409844e-06	2.05611e-05
	2.350497e-06	1.607507e-05	0.007690276	-0.005936757	4.409844e-06	2.05611e-05	-0.03363632	0.0155767
3e+08	-0.03075611	0.0161462	3.812516e-06	1.338769e-05	0.006099448	-0.005925115	3.266791e-06	1.579531e-05
	3.812516e-06	1.338769e-05	-0.03007356	0.01694359	1.759176e-05	5.150025e-05	0.006443536	-0.005624967
	0.006099448	-0.005925115	1.759176e-05	5.150025e-05	-0.03118418	0.01611527	5.716855e-06	2.003679e-05
	3.266791e-06	1.579531e-05	0.006443536	-0.005624967	5.716855e-06	2.003679e-05	-0.03011642	0.01714738
3.1e+08	-0.02710385	0.01719549	4.572793e-06	1.302693e-05	0.004907295	-0.005376512	4.167035e-06	1.54632e-05
	4.572793e-06	1.302693e-05	-0.02640463	0.01789486	2.069076e-05	4.976125e-05	0.005255959	-0.005112464
	0.004907295	-0.005376512	2.069076e-05	4.976125e-05	-0.0274853	0.01721012	6.979597e-06	1.942938e-05
	4.167035e-06	1.54632e-05	0.005255959	-0.005112464	6.979597e-06	1.942938e-05	-0.02642473	0.01809122
3.2e+08	-0.02336199	0.01760948	5.310688e-06	1.262296e-05	0.00381575	-0.004637149	5.046998e-06	1.507929e-05
	5.310688e-06	1.262296e-05	-0.02266644	0.01820717	2.365432e-05	4.783217e-05	0.004159355	-0.004411583
	0.00381575	-0.004637149	2.365432e-05	4.783217e-05	-0.02369437	0.01765957	8.191845e-06	1.87423e-05
	5.046998e-06	1.507929e-05	0.004159355	-0.004411583	8.191845e-06	1.87423e-05	-0.02266546	0.01839229
3.3e+08	-0.01963406	0.01738536	6.022843e-06	1.217683e-05	0.002854778	-0.003726165	5.902574e-06	1.46446e-05
	6.022843e-06	1.217683e-05	-0.01896334	0.01788115	2.646776e-05	4.572393e-05	0.003183152	-0.003539653
	0.002854778	-0.003726165	2.646776e-05	4.572393e-05	-0.01991656	0.01746098	9.347746e-06	1.797956e-05
	5.902574e-06	1.46446e-05	0.003183152	-0.003539653	9.347746e-06	1.797956e-05	-0.01894361	0.01805152
3.4e+08	-0.01602235	0.01653681	6.706047e-06	1.168999e-05	0.00205085	-0.002667362	6.729862e-06	1.41606e-05
	6.706047e-06	1.168999e-05	-0.01539783	0.01693408	2.911786e-05	4.344892e-05	0.002353607	-0.002518567
	0.00205085	-0.002667362	2.911786e-05	4.344892e-05	-0.01625568	0.01662847	1.044191e-05	1.714574e-05
	6.729862e-06	1.41606e-05	0.002353607	-0.002518567	1.044191e-05	1.714574e-05	-0.01536228	0.01708663
3.5e+08	-0.01262532	0.01509355	7.357233e-06	1.116416e-05	0.001426212	-0.001488588	7.525161e-06	1.362916e-05
	7.357233e-06	1.116416e-05	-0.01206797	0.01539933	3.159288e-05	4.102056e-05	0.001693098	-0.001374226
	0.001426212	-0.001488588	3.159288e-05	4.102056e-05	-0.0128116	0.01519235	1.14694e-05	1.624581e-05
	7.525161e-06	1.362916e-05	0.001693098	-0.001374226	1.14694e-05	1.624581e-05	-0.01202003	0.0155315
3.6e+08	-0.009535082	0.0131005	7.973529e-06	1.060139e-05	0.0009982657	-0.0002210088	8.28504e-06	1.305249e-05
	7.973529e-06	1.060139e-05	-0.009064855	0.01332544	3.388267e-05	3.845321e-05	0.001219509	-0.0001358671
	0.0009982657	-0.0002210087	3.388267e-05	3.845321e-05	-0.009677683	0.01319834	1.242584e-05	1.52852e-05
	8.28504e-06	1.305249e-05	0.001219509	-0.0001358671	1.242584e-05	1.52852e-05	-0.009008362	0.01343526
3.7e+08	-0.006835123	0.01061652	8.552264e-06	1.000397e-05	0.0007790663	0.001101725	9.006342e-06	1.243311e-05
	8.552264e-06	1.000397e-05	-0.0064703	0.01077473	3.597866e-05	3.576188e-05	0.0009457242	0.001164701
	0.0007790663	0.001101725	3.597866e-05	3.576188e-05	-0.006938514	0.01070627	1.330735e-05	1.426961e-05
	9.006342e-06	1.243311e-05	0.0009457242	0.001164701	1.330735e-05	1.426961e-05	-0.006409414	0.01086091
3.8e+08	-0.004598181	0.007712864	9.090993e-06	9.374446e-06	0.0007749654	0.00244438	9.686207e-06	1.17738e-05
	9.090993e-06	9.374446e-06	-0.004354795	0.007821629	3.787384e-05	3.296202e-05	0.0008792548	0.002493951
	0.0007749654	0.00244438	3.787384e-05	3.296202e-05	-0.004667738	0.007788484	1.411064e-05	1.320502e-05
	9.686207e-06	1.17738e-05	0.0008792548	0.002493951	1.411064e-05	1.320502e-05	-0.004293868	0.007883597
3.9e+08	-0.002884458	0.004471241	9.587516e-06	8.715572e-06	0.0009864062	0.003771112	1.032209e-05	1.107753e-05
	9.587516e-06	8.715572e-06	-0.002775726	0.004550685	3.956277e-05	3.006936e-05	0.00102201	0.003817541
	0.0009864062	0.003771112	3.956277e-05	3.006936e-05	-0.002926257	0.004527878	1.483294e-05	1.209756e-05
	1.032209e-05	1.107753e-05	0.001022011	0.003817541	1.483294e-05	1.209756e-05	-0.002719181	0.004588618
4e+08	-0.00174013	0.0009816838	1.003988e-05	8.030268e-06	0.001407884	0.00504645	1.091175e-05	1.034745e-05
	1.003988e-05	8.030268e-06	-0.001775959	0.001054286	4.104146e-05	2.709966e-05	0.001370225	0.005101251
	0.001407884	0.00504645	4.104146e-05	2.709966e-05	-0.001760738	0.001015744	1.547207e-05	1.095351e-05
	1.091175e-05	1.034745e-05	0.001370225	0.005101251	1.547207e-05	1.095351e-05	-0.001728164	0.001069106
4.1e+08	-0.001196236	-0.002659833	1.044641e-05	7.321614e-06	0.002028077	0.006236295	1.145329e-05	9.586829e-06
	1.044641e-05	7.321614e-06	-0.00138281	-0.002569791	4.230738e-05	2.406865e-05	0.00191454	0.006311931
	0.002028077	0.006236295	4.230738e-05	2.406865e-05	-0.001202489	-0.002650654	1.602638e-05	9.779207e-06
	1.145329e-05	9.586829e-06	0.00191454	0.006311931	1.602638e-05	9.779207e-06	-0.001347947	-0.002576422
4.2e+08	-0.001267969	-0.006353902	1.080571e-05	6.592802e-06	0.002830143	0.007308869	1.194511e-05	8.798994e-06
	1.080571e-05	6.592802e-06	-0.001607424	-0.006220958	4.33593e-05	2.09918e-05	0.002640257	0.007418418
	0.002830143	0.007308869	4.33593e-05	2.09918e-05	-0.001266756	-0.006370624	1.649476e-05	8.581005e-06
	1.194511e-05	8.798994e-06	0.002640257	0.007418418	1.649476e-05	8.581005e-06	-0.001589368	-0.00624668
4.3e+08	-0.001954373	-0.01000027	1.111665e-05	5.847112e-06	0.003792178	0.008235627	1.238591e-05	7.987325e-06
	1.111665e-05	5.847112e-06	-0.002444587	-0.009798473	4.419722e-05	1.788424e-05	0.00352773	0.008392402
	0.003792178	0.008235627	4.419722e-05	1.788424e-05	-0.001952426	-0.01004267	1.687662e-05	7.365212e-06
	1.238591e-05	7.987325e-06	0.00352773	0.008392402	1.687662e-05	7.365212e-06	-0.002446785	-0.009840282
4.4e+08	-0.003238472	-0.01350045	1.137839e-05	5.087875e-06	0.00488783	0.008992051	1.277467e-05	7.155199e-06
	1.137839e-05	5.087875e-06	-0.003872963	-0.01320406	4.482219e-05	1.476066e-05	0.004552919	0.009209217
	0.00488783	0.008992051	4.482219e-05	1.476066e-05	-0.003242166	-0.01356712	1.717181e-05	6.138055e-06
	1.277467e-05	7.155199e-06	0.004552919	0.009209217	1.717181e-05	6.138055e-06	-0.003898333	-0.01325839
4.5e+08	-0.005087806	-0.01676021	1.159035e-05	4.318453e-06	0.006087034	0.009558356	1.311062e-05	6.305975e-06
	1.159035e-05	4.318453e-06	-0.005855759	-0.01634448	4.523628e-05	1.163526e-05	0.005688056	0.009848523
	0.006087034	0.009558356	4.523628e-05	1.163526e-05	-0.005102978	-0.01684869	1.73807e-05	4.90565e-06
	1.311062e-05	6.305975e-06	0.005688056	0.009848523	1.73807e-05	4.90565e-06	-0.005906597	-0.01640729
4.6e+08	-0.007455374	-0.01969205	1.175223e-05	3.542206e-06	0.007356865	0.009920035	1.33931e-05	5.442967e-06
	1.175223e-05	3.542206e-06	-0.008341798	-0.0191339	4.544233e-05	8.521715e-06	0.00690243	0.01029486
	0.007356865	0.009920035	4.544233e-05	8.521715e-06	-0.007487158	-0.01979893	1.750355e-05	3.673974e-06
	1.33931e-05	5.442967e-06	0.00690243	0.01029486	1.750355e-05	3.673974e-06	-0.008419681	-0.01920082
4.7e+08	-0.01028094	-0.02221733	1.186399e-05	2.762469e-06	0.008662466	0.01006827	1.362193e-05	4.569445e-06
	1.186399e-05	2.762469e-06	-0.01126694	-0.0214961	4.544384e-05	5.433184e-06	0.008163243	0.01053807
	0.008662466	0.01006827	4.544384e-05	5.433184e-06	-0.01033364	-0.02233843	1.754161e-05	2.448934e-06
	1.362193e-05	4.569445e-06	0.008163243	0.01053807	1.754161e-05	2.448934e-06	-0.01137272	-0.02156251
