!$
! Info: Touchstone file created by Circ.  Input file=Tx_8in_Rx_85ohms_TxVia_10mils_RxVia_20mils.circ
!$
# Hz S RI R 50
0	0.006522123	6.003727e-26	3.236078e-09	2.784017e-27	5.489954e-05	6.632045e-24	-3.543203e-09	4.673583e-25
	3.23607e-09	2.784184e-27	0.006521727	7.639495e-26	-3.04617e-09	4.216256e-25	5.433803e-05	9.23979e-24
	5.717307e-05	6.647387e-24	-3.044231e-09	4.213858e-25	0.0065147	5.240885e-26	1.254307e-08	1.379974e-29
	-3.540467e-09	4.670215e-25	5.579502e-05	9.509961e-24	1.254316e-08	1.364105e-29	0.006527339	7.286897e-26
1e+07	0.008530007	-0.007422709	5.076726e-09	8.067245e-09	0.0002375209	0.001488762	1.035037e-08	5.653327e-08
	5.076726e-09	8.067246e-09	0.008524085	-0.007423081	5.262362e-12	5.859019e-08	0.0002348057	0.001489469
	0.0002375689	0.001488735	5.262576e-12	5.859019e-08	0.008519444	-0.00741722	-9.612843e-09	4.559068e-08
	1.035037e-08	5.653327e-08	0.0002348381	0.001489457	-9.612844e-09	4.559068e-08	0.008513594	-0.007417684
2e+07	0.008826806	-0.01699493	7.882265e-09	1.400858e-08	0.0006444426	0.002884022	3.024175e-08	7.469751e-08
	7.882265e-09	1.400858e-08	0.008803581	-0.01699307	2.620485e-09	8.231439e-08	0.0006339502	0.002887015
	0.0006444342	0.002883997	2.620485e-09	8.231439e-08	0.008820842	-0.01697606	-4.309017e-09	4.692876e-08
	3.024175e-08	7.469751e-08	0.0006339471	0.002886994	-4.309018e-09	4.692876e-08	0.008798105	-0.01697414
3e+07	0.006728979	-0.02728535	1.121249e-08	1.913393e-08	0.001269486	0.004175123	6.12456e-08	8.799465e-08
	1.121249e-08	1.913393e-08	0.006677543	-0.02727571	7.9664e-09	1.099365e-07	0.001246792	0.004183085
	0.001269487	0.004175119	7.9664e-09	1.099365e-07	0.006725918	-0.02725787	1.597836e-09	5.428953e-08
	6.12456e-08	8.799465e-08	0.001246786	0.004183082	1.597836e-09	5.428953e-08	0.006676294	-0.02724834
4e+07	0.002610807	-0.03728149	1.497338e-08	2.326532e-08	0.002093421	0.005330483	9.448476e-08	9.272261e-08
	1.497338e-08	2.326532e-08	0.002521873	-0.03725576	1.09499e-08	1.369835e-07	0.002054838	0.005347155
	0.002093425	0.005330479	1.09499e-08	1.369835e-07	0.002609563	-0.037248	9.32368e-09	5.98098e-08
	9.448476e-08	9.272261e-08	0.002054838	0.005347156	9.32368e-09	5.98098e-08	0.002523668	-0.03722318
5e+07	-0.003286296	-0.04653986	1.897619e-08	2.636391e-08	0.003089049	0.006319869	1.291215e-07	8.933782e-08
	1.897619e-08	2.636391e-08	-0.003419831	-0.04648753	1.188406e-08	1.646677e-07	0.00303189	0.006349855
	0.003089051	0.006319867	1.188406e-08	1.646677e-07	-0.003288134	-0.04650102	1.819988e-08	6.220319e-08
	1.291215e-07	8.933782e-08	0.00303189	0.006349856	1.819988e-08	6.220319e-08	-0.003417347	-0.04645035
6e+07	-0.01072813	-0.05473781	2.302118e-08	2.840291e-08	0.004223997	0.007118179	1.640268e-07	7.727011e-08
	2.302118e-08	2.840291e-08	-0.01091075	-0.05464675	1.155972e-08	1.9343e-07	0.004146729	0.007166686
	0.004223997	0.00711818	1.155972e-08	1.9343e-07	-0.01073232	-0.05469286	2.721061e-08	6.141178e-08
	1.640268e-07	7.727011e-08	0.004146726	0.007166687	2.721061e-08	6.141178e-08	-0.01090883	-0.05460444
7e+07	-0.01946424	-0.06162315	2.689058e-08	2.937739e-08	0.005462198	0.007706512	1.974308e-07	5.61052e-08
	2.689058e-08	2.937739e-08	-0.01969752	-0.0614802	1.059938e-08	2.233938e-07	0.005364526	0.007779085
	0.005462199	0.007706517	1.059938e-08	2.233938e-07	-0.01947176	-0.06157097	3.535163e-08	5.783212e-08
	1.974308e-07	5.61052e-08	0.005364521	0.007779088	3.535163e-08	5.783212e-08	-0.01969699	-0.06143241
8e+07	-0.02922499	-0.0670016	3.035359e-08	2.932131e-08	0.006765272	0.008072822	2.272511e-07	2.593106e-08
	3.035359e-08	2.932131e-08	-0.02950745	-0.06679328	9.517581e-09	2.545792e-07	0.006648171	0.008175087
	0.006765274	0.008072827	9.51758e-09	2.545792e-07	-0.02923642	-0.06694113	4.179742e-08	5.209423e-08
	2.272511e-07	2.593106e-08	0.006648167	0.008175092	4.179742e-08	5.209423e-08	-0.02950934	-0.06673955
9e+07	-0.03972513	-0.07073335	3.317865e-08	2.831677e-08	0.008094049	0.00821234	2.513599e-07	-1.259714e-08
	3.317865e-08	2.831677e-08	-0.04005228	-0.07044644	8.715657e-09	2.869729e-07	0.007959767	0.008349755
	0.008094051	0.008212343	8.715657e-09	2.869729e-07	-0.03974093	-0.0706635	4.595563e-08	4.494683e-08
	2.513599e-07	-1.259714e-08	0.007959764	0.008349759	4.595563e-08	4.494683e-08	-0.04005777	-0.07038577
1e+08	-0.05067159	-0.0727334	3.514793e-08	2.649669e-08	0.009411439	0.008129034	2.67781e-07	-5.828128e-08
	3.514793e-08	2.649669e-08	-0.05103602	-0.0723556	8.599042e-09	3.204565e-07	0.009263458	0.008306631
	0.009411439	0.008129034	8.599042e-09	3.204565e-07	-0.05069223	-0.07265316	4.745134e-08	3.714118e-08
	2.67781e-07	-5.828128e-08	0.009263458	0.008306631	4.745134e-08	3.714118e-08	-0.05104616	-0.07228645
1.1e+08	-0.06176974	-0.07296197	3.607363e-08	2.406424e-08	0.01068483	0.00781932	2.766721e-07	-1.080724e-07
	3.607363e-08	2.406424e-08	-0.06216192	-0.07248102	7.639377e-09	3.564438e-07	0.01052721	0.008041088
	0.01068483	0.00781932	7.639377e-09	3.564438e-07	-0.06179451	-0.07286824	4.862999e-08	3.411893e-08
	2.766721e-07	-1.080724e-07	0.01052721	0.008041087	4.862999e-08	3.411893e-08	-0.06217597	-0.07240082
1.2e+08	-0.07271452	-0.07142311	3.582524e-08	2.122931e-08	0.01186574	0.007301963	2.755581e-07	-1.619118e-07
	3.582524e-08	2.122931e-08	-0.07312101	-0.07083048	7.658701e-09	3.933746e-07	0.01170435	0.007571634
	0.01186574	0.007301963	7.658701e-09	3.933746e-07	-0.07274251	-0.07131392	4.82563e-08	3.058829e-08
	2.755581e-07	-1.619118e-07	0.01170435	0.007571634	4.82563e-08	3.058829e-08	-0.07313783	-0.07073742
1.3e+08	-0.08322289	-0.0681823	3.430532e-08	1.822962e-08	0.01292492	0.006600044	2.63489e-07	-2.177992e-07
	3.430532e-08	1.822962e-08	-0.08362853	-0.06747209	8.926952e-09	4.310668e-07	0.01276641	0.006920013
	0.01292493	0.006600044	8.926952e-09	4.310668e-07	-0.08325264	-0.06805583	4.621018e-08	2.686222e-08
	2.63489e-07	-2.177992e-07	0.01276641	0.006920013	4.621018e-08	2.686222e-08	-0.08364674	-0.06736473
1.4e+08	-0.09302886	-0.06334643	3.146205e-08	1.532404e-08	0.01383599	0.005738803	2.399009e-07	-2.735584e-07
	3.146205e-08	1.532404e-08	-0.09341723	-0.06251572	1.167174e-08	4.692727e-07	0.01368749	0.006110072
	0.01383599	0.005738803	1.167174e-08	4.692727e-07	-0.09305831	-0.0632012	4.243084e-08	2.327827e-08
	2.399009e-07	-2.735584e-07	0.01368749	0.006110072	4.243084e-08	2.327827e-08	-0.09343505	-0.06239289
1.5e+08	-0.1018908	-0.05706147	2.729408e-08	1.2783e-08	0.01457715	0.004746579	2.046462e-07	-3.26908e-07
	2.729408e-08	1.2783e-08	-0.1022447	-0.0561105	1.606364e-08	5.076903e-07	0.01444607	0.005168708
	0.01457715	0.004746578	1.606364e-08	5.076903e-07	-0.1019174	-0.05689646	3.692219e-08	2.01868e-08
	2.046462e-07	-3.26908e-07	0.01444607	0.005168708	3.692219e-08	2.01868e-08	-0.10226	-0.05597144
1.6e+08	-0.1095964	-0.04950762	2.185316e-08	1.087855e-08	0.01513164	0.003654118	1.58009e-07	-3.755381e-07
	2.185316e-08	1.087855e-08	-0.1098986	-0.04843994	2.220444e-08	5.459764e-07	0.01502538	0.004125194
	0.01513164	0.003654118	2.220444e-08	5.459764e-07	-0.1096172	-0.04932243	2.975559e-08	1.79386e-08
	1.58009e-07	-3.755381e-07	0.01502538	0.004125194	2.975559e-08	1.79386e-08	-0.1099091	-0.04828436
1.7e+08	-0.1159671	-0.04089385	1.524455e-08	9.873851e-09	0.01548791	0.002493769	1.007068e-07	-4.171882e-07
	1.524455e-08	9.873851e-09	-0.1162007	-0.03971641	3.011847e-08	5.837628e-07	0.01541359	0.003010409
	0.01548791	0.002493769	3.011847e-08	5.837628e-07	-0.1159791	-0.04068876	2.106985e-08	1.687205e-08
	1.007068e-07	-4.171882e-07	0.01541359	0.003010409	2.106985e-08	1.687205e-08	-0.1162039	-0.03954454
1.8e+08	-0.1208611	-0.03145207	7.625175e-09	1.001276e-08	0.01563964	0.00129869	3.387814e-08	-4.497235e-07
	7.625175e-09	1.001276e-08	-0.1210102	-0.03017515	3.974742e-08	6.206739e-07	0.01560386	0.001856086
	0.01563964	0.00129869	3.974742e-08	6.206739e-07	-0.1208611	-0.03122809	1.106876e-08	1.730039e-08
	3.387814e-08	-4.497235e-07	0.01560386	0.001856086	1.106876e-08	1.730039e-08	-0.1210036	-0.02998776
1.9e+08	-0.1241754	-0.02143111	-8.002017e-10	1.150986e-08	0.01558567	0.0001020968	-4.094119e-08	-4.712082e-07
	-8.002016e-10	1.150986e-08	-0.124226	-0.02006813	5.094953e-08	6.563454e-07	0.0155942	0.0006941122
	0.01558567	0.0001020968	5.094953e-08	6.563454e-07	-0.1241607	-0.02118992	1.613606e-11	1.949965e-08
	-4.094119e-08	-4.712082e-07	0.0155942	0.0006941122	1.613607e-11	1.949965e-08	-0.1242072	-0.01986655
2e+08	-0.1258481	-0.01109057	-9.784861e-09	1.454139e-08	0.01532982	-0.001063417	-1.218541e-07	-4.799729e-07
	-9.784861e-09	1.454139e-08	-0.1257882	-0.009657829	6.350299e-08	6.904434e-07	0.01538737	-0.0004441068
	0.01532982	-0.001063417	6.350299e-08	6.904434e-07	-0.125816	-0.01083446	-1.177128e-08	2.369782e-08
	-1.218541e-07	-4.799729e-07	0.01538737	-0.0004441068	-1.177128e-08	2.369782e-08	-0.1257551	-0.009443881
2.1e+08	-0.1258583	-0.0006945828	-1.904756e-08	1.92375e-08	0.01488064	-0.002166514	-2.066477e-07	-4.746768e-07
	-1.904756e-08	1.92375e-08	-0.1256789	0.0007891322	7.711383e-08	7.226817e-07	0.01499065	-0.001528233
	0.01488064	-0.002166514	7.711383e-08	7.226817e-07	-0.1258065	-0.000426449	-2.393273e-08	3.006525e-08
	-2.066477e-07	-4.746768e-07	0.01499065	-0.001528233	-2.393273e-08	3.006525e-08	-0.1256297	0.001013144
2.2e+08	-0.124226	0.009494209	-2.828134e-08	2.567598e-08	0.01425119	-0.003177694	-2.928479e-07	-4.54362e-07
	-2.828134e-08	2.567598e-08	-0.1239215	0.01100815	9.142772e-08	7.528373e-07	0.01441559	-0.00252953
	0.01425119	-0.003177694	9.142772e-08	7.528373e-07	-0.124153	0.009771034	-3.607394e-08	3.870689e-08
	-2.928479e-07	-4.54362e-07	0.01441559	-0.00252953	-3.607394e-08	3.870689e-08	-0.1238547	0.01123952
2.3e+08	-0.1210117	0.01922071	-3.71634e-08	3.387771e-08	0.01345869	-0.004069827	-3.777829e-07	-4.185005e-07
	-3.71634e-08	3.387771e-08	-0.1205801	0.02074274	1.060451e-07	7.807627e-07	0.01367778	-0.003421368
	0.01345869	-0.004069827	1.060451e-07	7.807627e-07	-0.1209164	0.01950251	-4.777887e-08	4.96564e-08
	-3.777829e-07	-4.185005e-07	0.01367778	-0.003421368	-4.777887e-08	4.96564e-08	-0.1204948	0.02097843
2.4e+08	-0.1163139	0.02824307	-4.536556e-08	4.3804e-08	0.0125242	-0.004818671	-4.586541e-07	-3.670309e-07
	-4.536556e-08	4.3804e-08	-0.1157574	0.02975034	1.205385e-07	8.063938e-07	0.01279652	-0.004179704
	0.0125242	-0.004818671	1.205385e-07	8.063938e-07	-0.1161961	0.0285259	-5.862234e-08	6.287221e-08
	-4.586541e-07	-3.670309e-07	0.01279652	-0.004179704	-5.862234e-08	6.287221e-08	-0.1156533	0.02998709
2.5e+08	-0.1102675	0.03633824	-5.25652e-08	5.535583e-08	0.01147219	-0.005403354	-5.326133e-07	-3.003865e-07
	-5.25652e-08	5.535583e-08	-0.1095921	0.0378079	1.344716e-07	8.297545e-07	0.01179449	-0.004783548
	0.01147219	-0.005403354	1.344716e-07	8.297545e-07	-0.1101274	0.03661799	-6.818326e-08	7.82358e-08
	-5.326133e-07	-3.003865e-07	0.01179449	-0.004783548	-6.818326e-08	7.82358e-08	-0.1094695	0.03804231
2.6e+08	-0.1030397	0.04330702	-5.845609e-08	6.837502e-08	0.01033018	-0.005806845	-5.968471e-07	-2.195104e-07
	-5.845609e-08	6.837502e-08	-0.1022561	0.044717	1.474181e-07	8.509554e-07	0.0106974	-0.005215421
	0.01033018	-0.005806845	1.474181e-07	8.509554e-07	-0.1028786	0.04357962	-7.605821e-08	9.555218e-08
	-5.968471e-07	-2.195104e-07	0.0106974	-0.005215421	-7.605821e-08	9.555218e-08	-0.1021158	0.04494565
2.7e+08	-0.09482693	0.04897879	-6.275897e-08	8.264736e-08	0.009128153	-0.0060164	-6.486649e-07	-1.258582e-07
	-6.275897e-08	8.264736e-08	-0.09394961	0.05030856	1.589796e-07	8.701894e-07	0.009533525	-0.0054618
	0.009128153	-0.0060164	1.589796e-07	8.701894e-07	-0.09464663	0.0492403	-8.187483e-08	1.145526e-07
	-6.486649e-07	-1.258582e-07	0.009533525	-0.0054618	-8.187483e-08	1.145526e-07	-0.09379317	0.05052815
2.8e+08	-0.08584975	0.05321564	-6.523143e-08	9.790743e-08	0.007898027	-0.00602397	-6.855904e-07	-2.138605e-08
	-6.523143e-08	9.790743e-08	-0.08489731	0.054447	1.688016e-07	8.877229e-07	0.008333163	-0.005513539
	0.007898027	-0.00602397	1.688016e-07	8.877229e-07	-0.08565297	0.05346241	-8.530498e-08	1.348995e-07
	-6.855904e-07	-2.138605e-08	0.008333163	-0.005513539	-8.530498e-08	1.348995e-07	-0.08472691	0.05465444
2.9e+08	-0.07634804	0.05591591	-6.567693e-08	1.138452e-07	0.006672971	-0.005826559	-7.054539e-07	9.147692e-08
	-6.567693e-08	1.138452e-07	-0.07534254	0.0570337	1.765866e-07	9.038838e-07	0.007128064	-0.005366248
	0.006672971	-0.005826559	1.765866e-07	9.038838e-07	-0.07613812	0.0561447	-8.607698e-08	1.561939e-07
	-7.054539e-07	9.147692e-08	0.007128064	-0.005366248	-8.607698e-08	1.561939e-07	-0.07516097	0.05722623
3e+08	-0.0665751	0.05701693	-6.39525e-08	1.301143e-07	0.005486647	-0.005426507	-7.064829e-07	2.098741e-07
	-6.39525e-08	1.301143e-07	-0.06554165	0.05800971	1.821036e-07	9.190475e-07	0.005950702	-0.005020599
	0.005486647	-0.005426507	1.821036e-07	9.190475e-07	-0.06635605	0.05722505	-8.398692e-08	1.779845e-07
	-7.064829e-07	2.098741e-07	0.005950702	-0.005020599	-8.398692e-08	1.779845e-07	-0.06535222	0.05818505
3.1e+08	-0.05679156	0.05649699	-5.997513e-08	1.463407e-07	0.004372362	-0.004831661	-6.873874e-07	3.305842e-07
	-5.997513e-08	1.463407e-07	-0.05575766	0.05735764	1.851939e-07	9.336221e-07	0.004833487	-0.004482549
	0.004372362	-0.004831661	1.851939e-07	9.336221e-07	-0.05656793	0.05668242	-7.890828e-08	1.997795e-07
	-6.873874e-07	3.305842e-07	0.004833487	-0.004482549	-7.890828e-08	1.997795e-07	-0.05556417	0.05751403
3.2e+08	-0.04725882	0.05437631	-5.372652e-08	1.621337e-07	0.003362148	-0.004055414	-6.474358e-07	4.501018e-07
	-5.372652e-08	1.621337e-07	-0.04625361	0.05510247	1.85773e-07	9.480333e-07	0.003807882	-0.003763422
	0.003362148	-0.004055414	1.85773e-07	9.480333e-07	-0.0470356	0.05453777	-7.079989e-08	2.210592e-07
	-6.474358e-07	4.501018e-07	0.003807882	-0.003763422	-7.079989e-08	2.210592e-07	-0.04606025	0.05523882
3.3e+08	-0.03823236	0.0507169	-4.525635e-08	1.770967e-07	0.002485793	-0.003116577	-5.865182e-07	5.647356e-07
	-4.525635e-08	1.770967e-07	-0.03728577	0.05131136	1.838296e-07	9.627106e-07	0.002903467	-0.002879841
	0.002485793	-0.003116577	1.838296e-07	9.627106e-07	-0.03801482	0.05085402	-5.971158e-08	2.412913e-07
	-5.865182e-07	5.647356e-07	0.002903467	-0.002879841	-5.971158e-08	2.412913e-07	-0.03709697	0.05142733
3.4e+08	-0.02995491	0.0456215	-3.468313e-08	1.908386e-07	0.001769857	-0.00203906	-5.051919e-07	6.707205e-07
	-3.468313e-08	1.908386e-07	-0.02909676	0.04609239	1.794217e-07	9.780751e-07	0.00214698	-0.001853472
	0.001769857	-0.00203906	1.794217e-07	9.780751e-07	-0.02974846	0.04573486	-4.578733e-08	2.599461e-07
	-5.051919e-07	6.707205e-07	0.00214698	-0.001853472	-4.578733e-08	2.599461e-07	-0.02891707	0.04618845
3.5e+08	-0.02264989	0.03923125	-2.219373e-08	2.029859e-07	0.001236709	-0.0008513501	-4.047068e-07	7.643424e-07
	-2.219373e-08	2.029859e-07	-0.02190893	0.03959202	1.726705e-07	9.945296e-07	0.00156137	-0.0007105734
	0.001236709	-0.0008513501	1.726705e-07	9.945296e-07	-0.02245992	0.03932237	-2.926607e-08	2.765139e-07
	-4.047068e-07	7.643424e-07	0.00156137	-0.0007105734	-2.926607e-08	2.765139e-07	-0.02174289	0.03966943
3.6e+08	-0.01651513	0.03172219	-8.040892e-09	2.131938e-07	0.0009036574	0.0004142162	-2.870047e-07	8.420701e-07
	-8.040892e-09	2.131938e-07	-0.01591805	0.03199154	1.63755e-07	1.012451e-06	0.001164922	0.0005186649
	0.0009036574	0.0004142162	1.63755e-07	1.012451e-06	-0.01634684	0.03179357	-1.047891e-08	2.905215e-07
	-2.870047e-07	8.420701e-07	0.001164922	0.0005186649	-1.047891e-08	2.905215e-07	-0.01577006	0.0320524
3.7e+08	-0.01171723	0.02330081	7.461147e-09	2.211578e-07	0.0007822018	0.001722381	-1.54693e-07	9.006894e-07
	7.461147e-09	2.211578e-07	-0.01128776	0.0235023	1.529046e-07	1.032187e-06	0.0009704976	0.001800974
	0.0007822018	0.001722381	1.529046e-07	1.032187e-06	-0.01157547	0.02335587	1.015624e-08	3.015491e-07
	-1.54693e-07	9.006894e-07	0.0009704976	0.001800974	1.015624e-08	3.015491e-07	-0.01116188	0.02354949
3.8e+08	-0.008386754	0.01419846	2.394284e-08	2.266246e-07	0.0008774698	0.00303606	-1.09905e-08	9.374339e-07
	2.394284e-08	2.266246e-07	-0.008144696	0.01436003	1.403944e-07	1.054048e-06	0.0009849464	0.003101032
	0.0008774698	0.00303606	1.403944e-07	1.054048e-06	-0.008275812	0.01424152	3.214326e-08	3.092465e-07
	-1.09905e-08	9.374339e-07	0.0009849464	0.003101032	3.214326e-08	3.092465e-07	-0.008044559	0.01439721
3.9e+08	-0.006614315	0.004664998	4.09873e-08	2.294016e-07	0.001187884	0.004317556	1.403547e-07	9.501049e-07
	4.09873e-08	2.294016e-07	-0.006574796	0.004818337	1.265406e-07	1.078311e-06	0.001208734	0.004382614
	0.001187884	0.004317556	1.265406e-07	1.078311e-06	-0.006537783	0.004701204	5.491939e-08	3.133474e-07
	1.403547e-07	9.501049e-07	0.001208734	0.004382614	5.491939e-08	3.133474e-07	-0.006503414	0.004849839
4e+08	-0.006447953	-0.005038156	5.814014e-08	2.293663e-07	0.001705084	0.005529861	2.951722e-07	9.371759e-07
	5.814014e-08	2.293663e-07	-0.00662071	-0.004858483	1.116979e-07	1.105209e-06	0.001635814	0.005609835
	0.001705084	0.005529861	1.116979e-07	1.105209e-06	-0.006408564	-0.005003001	7.786966e-08	3.136829e-07
	2.951722e-07	9.371759e-07	0.001635814	0.005609835	7.786966e-08	3.136829e-07	-0.006580374	-0.004827755
4.1e+08	-0.00789172	-0.01464549	7.492089e-08	2.264733e-07	0.002414131	0.00663795	4.48997e-07	8.97874e-07
	7.492089e-08	2.264733e-07	-0.008280566	-0.01440296	9.62571e-08	1.134935e-06	0.002253771	0.006748392
	0.002414131	0.00663795	9.62571e-08	1.134935e-06	-0.007891223	-0.01460504	1.00344e-07	3.101912e-07
	4.48997e-07	8.97874e-07	0.002253771	0.006748392	1.00344e-07	3.101912e-07	-0.008272729	-0.01436764
4.2e+08	-0.01090565	-0.02389492	9.083611e-08	2.207601e-07	0.00329398	0.007610025	5.972146e-07	8.322352e-07
	9.083611e-08	2.207601e-07	-0.01150811	-0.0235521	8.064418e-08	1.167632e-06	0.003044219	0.007766772
	0.00329398	0.007610025	8.064418e-08	1.167632e-06	-0.01094471	-0.02384247	1.216763e-07	3.029256e-07
	5.972146e-07	8.322352e-07	0.003044219	0.007766772	1.216763e-07	3.029256e-07	-0.0115333	-0.02350653
4.3e+08	-0.01540706	-0.03253526	1.053937e-07	2.123509e-07	0.004318212	0.008418632	7.352152e-07	7.411294e-07
	1.053937e-07	2.123509e-07	-0.01621419	-0.03205489	6.531751e-08	1.20339e-06	0.003983465	0.008637344
	0.004318212	0.008418632	6.531751e-08	1.20339e-06	-0.01548519	-0.03246392	1.412053e-07	2.920577e-07
	7.352152e-07	7.411294e-07	0.003983465	0.008637344	1.412053e-07	2.920577e-07	-0.01627196	-0.03199327
4.4e+08	-0.02127324	-0.04033322	1.181185e-07	2.014569e-07	0.005455986	0.009041597	8.585505e-07	6.262538e-07
	1.181185e-07	2.014569e-07	-0.02226965	-0.03967942	5.076424e-08	1.242233e-06	0.005043366	0.009337284
	0.005455986	0.009041597	5.076424e-08	1.242233e-06	-0.02138875	-0.04023616	1.582965e-07	2.778777e-07
	8.585505e-07	6.262538e-07	0.005043366	0.009337284	1.582965e-07	2.778777e-07	-0.02235854	-0.03959597
4.5e+08	-0.02834519	-0.04707991	1.285681e-07	1.883754e-07	0.006673153	0.009462735	9.630874e-07	4.900948e-07
	1.285681e-07	1.883754e-07	-0.02950928	-0.04621922	3.749382e-08	1.284112e-06	0.006192371	0.009849281
	0.006673153	0.009462735	3.749382e-08	1.284112e-06	-0.02849523	-0.04695051	1.723637e-07	2.607899e-07
	9.630874e-07	4.900948e-07	0.006192371	0.009849281	1.723637e-07	2.607899e-07	-0.02962683	-0.04610838
4.6e+08	-0.03643258	-0.05259635	1.363489e-07	1.73484e-07	0.007933483	0.009672296	1.04515e-06	3.35861e-07
	1.363489e-07	1.73484e-07	-0.03773697	-0.05149888	2.602814e-08	1.328898e-06	0.007396657	0.01016201
	0.007933483	0.009672296	2.602814e-08	1.328898e-06	-0.03661314	-0.05242846	1.828904e-07	2.413042e-07
	1.04515e-06	3.35861e-07	0.007396657	0.01016201	1.828904e-07	2.413042e-07	-0.03787975	-0.05135548
4.7e+08	-0.04531942	-0.05673806	1.411314e-07	1.572331e-07	0.009199927	0.009667153	1.101645e-06	1.673891e-07
	1.411314e-07	1.572331e-07	-0.04673155	-0.05537846	1.688807e-08	1.376368e-06	0.008621315	0.01027035
	0.009199927	0.009667153	1.688807e-08	1.376368e-06	-0.04552541	-0.05652619	1.894493e-07	2.200232e-07
	1.101645e-06	1.673891e-07	0.008621315	0.01027035	1.894493e-07	2.200232e-07	-0.04689522	-0.05519789
4.8e+08	-0.05477038	-0.05939853	1.426643e-07	1.40134e-07	0.01043586	0.009450714	1.130166e-06	-1.097001e-08
	1.426643e-07	1.40134e-07	-0.05625333	-0.05775688	1.057623e-08	1.426202e-06	0.009831524	0.01017535
