!$
! Info: Touchstone file created by Circ.  Input file=Tx_8in_Rx_93ohms_TxVia_10mils_RxVia_20mils.circ
!$
# Hz S RI R 50
0	0.007412637	5.980317e-26	0.9924563	-6.189374e-26	5.468319e-05	7.544712e-24	-5.312045e-05	1.226145e-21
	0.9924563	-6.243418e-26	0.00741224	7.608603e-26	-5.298922e-05	1.210208e-21	5.412392e-05	1.051322e-23
	5.695665e-05	7.56214e-24	-5.293701e-05	1.203856e-21	0.007405162	5.220529e-26	0.9924263	-5.530051e-26
	-5.352981e-05	1.276319e-21	5.558058e-05	1.082062e-23	0.9924263	-5.784749e-26	0.007417841	7.257523e-26
1e+07	0.01082021	-0.0005737828	0.9852474	-0.08452607	0.0002334389	0.001499088	-0.0001031843	-5.012411e-05
	0.9852474	-0.08452607	0.0108164	-0.0005749102	-0.0001032061	-5.009938e-05	0.0002309487	0.001499754
	0.0002334872	0.001499061	-0.0001031686	-5.01214e-05	0.01061336	-0.0005836637	0.9854455	-0.08462834
	-0.0001031468	-5.014612e-05	0.0002309813	0.001499742	0.9854455	-0.08462834	0.0106096	-0.0005848335
2e+07	0.01270009	-0.003816384	0.9722172	-0.165446	0.0005545541	0.002989403	-4.841982e-05	-0.0001427447
	0.9722172	-0.165446	0.01268486	-0.003817147	-4.84089e-05	-0.0001427174	0.0005449657	0.002992196
	0.0005545462	0.002989378	-4.84107e-05	-0.0001427458	0.01254141	-0.003759967	0.9723365	-0.1657238
	-4.841267e-05	-0.0001427803	0.0005449629	0.002992175	0.9723365	-0.1657238	0.01252664	-0.003760567
3e+07	0.01329988	-0.007992988	0.9533614	-0.244019	0.001159819	0.004331454	-4.606287e-05	-0.0001791341
	0.9533614	-0.244019	0.01326582	-0.007989886	-4.605926e-05	-0.0001791287	0.00113905	0.004338775
	0.001159819	0.00433145	-4.606213e-05	-0.0001791326	0.01317669	-0.007924133	0.9533978	-0.2444107
	-4.606535e-05	-0.0001791402	0.001139045	0.004338772	0.9533978	-0.2444107	0.01314438	-0.007920991
4e+07	0.01288713	-0.01240234	0.9285705	-0.320355	0.002006466	0.005522781	-7.444016e-05	-0.0001959267
	0.9285705	-0.320355	0.01282782	-0.01239001	-7.444219e-05	-0.0001959209	0.001971075	0.005537963
	0.00200647	0.005522777	-7.44392e-05	-0.0001959203	0.01279157	-0.01233674	0.9285154	-0.3208397
	-7.443604e-05	-0.0001959226	0.001971075	0.005537965	0.9285154	-0.3208397	0.01273519	-0.01232513
5e+07	0.0115838	-0.01677389	0.8979415	-0.3941322	0.003021942	0.006548622	-8.83958e-05	-0.0002139037
	0.8979415	-0.3941322	0.0114942	-0.01674548	-8.839286e-05	-0.0002139073	0.002969368	0.006575821
	0.003021943	0.00654862	-8.839125e-05	-0.0002139074	0.0115076	-0.01671955	0.8977851	-0.3946927
	-8.839267e-05	-0.000213902	0.002969367	0.006575821	0.8977851	-0.3946927	0.01142213	-0.01669251
6e+07	0.009484813	-0.02092308	0.8616541	-0.4649622	0.0041779	0.007386396	-9.334129e-05	-0.0002400207
	0.8616541	-0.4649622	0.009361584	-0.02087056	-9.334345e-05	-0.0002400475	0.004106603	0.007430338
	0.004177899	0.007386398	-9.334649e-05	-0.0002400462	0.009420608	-0.02088401	0.8613877	-0.4655821
	-9.334673e-05	-0.0002400211	0.0041066	0.007430339	0.8613877	-0.4655821	0.009303174	-0.02083373
7e+07	0.00668421	-0.02470588	0.8199415	-0.5324444	0.005441951	0.008017356	-9.512746e-05	-0.0002781986
	0.8199415	-0.5324444	0.0065259	-0.02462048	-9.515188e-05	-0.0002782471	0.005351494	0.008083108
	0.005441952	0.008017361	-9.515836e-05	-0.0002782425	0.00662544	-0.02468418	0.8195581	-0.5331069
	-9.514184e-05	-0.0002781971	0.005351489	0.008083111	0.8195581	-0.5331069	0.006474757	-0.0246026
8e+07	0.003282794	-0.02800556	0.7730796	-0.5961856	0.006778743	0.008427855	-9.977802e-05	-0.0003301194
	0.7730796	-0.5961856	0.00308995	-0.02787821	-9.983284e-05	-0.0003301753	0.006669829	0.008520603
	0.006778744	0.00842786	-9.983965e-05	-0.000330168	0.003223196	-0.02800227	0.7725737	-0.5968737
	-9.97959e-05	-0.0003301144	0.006669824	0.008520607	0.7725737	-0.5968737	0.003039372	-0.02788093
9e+07	-0.0006090378	-0.03072726	0.7213787	-0.6558116	0.008151009	0.008610013	-0.0001132268	-0.0003955167
	0.7213787	-0.6558116	-0.000833869	-0.03054902	-0.0001133043	-0.0003955635	0.008025497	0.008734841
	0.008151012	0.008610016	-0.0001133085	-0.0003955571	-0.0006758852	-0.03074271	0.7207475	-0.6565076
	-0.00011324	-0.0003955108	0.008025494	0.008734845	0.7207475	-0.6565076	-0.0008910535	-0.03057274
1e+08	-0.004859701	-0.03278577	0.6651657	-0.7109855	0.009520635	0.008561715	-0.0001408846	-0.0004719561
	0.6651657	-0.7109855	-0.005111991	-0.0325482	-0.0001409628	-0.0004719857	0.009381514	0.008723383
	0.009520635	0.008561714	-0.0001409627	-0.0004719859	-0.004942299	-0.03282128	0.6644106	-0.711669
	-0.0001408845	-0.0004719563	0.009381514	0.008723383	0.6644106	-0.711669	-0.005184892	-0.03259374
1.1e+08	-0.009320636	-0.03424036	0.6047852	-0.7612703	0.0108484	0.008288893	-0.0001863221	-0.0005572842
	0.6047852	-0.7612703	-0.009594884	-0.03393467	-0.0001864541	-0.0005573067	0.01069921	0.008491222
	0.0108484	0.008288892	-0.0001864541	-0.0005573069	-0.009429666	-0.03428192	0.603913	-0.7619359
	-0.000186322	-0.0005572845	0.01069921	0.008491222	0.603913	-0.7619359	-0.009694014	-0.03398859
1.2e+08	-0.01397663	-0.03500562	0.5407521	-0.806415	0.0120998	0.007803082	-0.0002558687	-0.0006474558
	0.5407521	-0.806415	-0.01426414	-0.03462555	-0.0002560425	-0.0006474526	0.01194579	0.00804975
	0.0120998	0.007803082	-0.0002560425	-0.0006474528	-0.01410933	-0.03504487	0.5397574	-0.8070508
	-0.0002558687	-0.0006474559	0.01194579	0.008049749	0.5397574	-0.8070508	-0.01438659	-0.0346796
1.3e+08	-0.01868691	-0.03504904	0.4734734	-0.8461841	0.01324122	0.007120343	-0.0003521811	-0.0007357535
	0.4734734	-0.8461841	-0.01897779	-0.03459004	-0.0003523859	-0.0007357148	0.0130884	0.007413842
	0.01324122	0.007120343	-0.000352386	-0.000735715	-0.01884169	-0.0350803	0.472355	-0.8467752
	-0.0003521812	-0.0007357536	0.0130884	0.007413842	0.472355	-0.8467752	-0.01912201	-0.03463882
1.4e+08	-0.02332631	-0.03437448	0.4033885	-0.8803599	0.01424239	0.006262276	-0.000476311	-0.0008152195
	0.4033885	-0.8803599	-0.02360973	-0.0338339	-0.0004765386	-0.0008151392	0.01409727	0.006603859
	0.01424239	0.006262276	-0.0004765386	-0.0008151393	-0.02350104	-0.03439285	0.4021474	-0.8808908
	-0.000476311	-0.0008152197	0.01409727	0.006603859	0.4021474	-0.8808908	-0.02377381	-0.0338728
1.5e+08	-0.02777694	-0.03300751	0.3309532	-0.908758	0.01507711	0.005255048	-0.0006275572	-0.0008787107
	0.3309532	-0.908758	-0.02804146	-0.03238476	-0.0006278012	-0.0008785837	0.01494651	0.005644672
	0.01507711	0.005255048	-0.0006278012	-0.0008785837	-0.02796878	-0.03300881	0.3295924	-0.9092129
	-0.0006275572	-0.0008787107	0.01494651	0.005644672	0.3295924	-0.9092129	-0.02822298	-0.03240981
1.6e+08	-0.03192953	-0.03099243	0.2566355	-0.9312301	0.01572396	0.004128611	-0.0008034615	-0.0009192914
	0.2566355	-0.9312301	-0.03216344	-0.03028906	-0.0008037159	-0.0009191127	0.01561476	0.00456489
	0.01572396	0.00412861	-0.000803716	-0.0009191127	-0.03213505	-0.03097321	0.2551596	-0.9315934
	-0.0008034615	-0.0009192915	0.01561476	0.004564891	0.2551596	-0.9315934	-0.03235944	-0.03029693
1.7e+08	-0.0356854	-0.02839	0.1809118	-0.9476647	0.01616674	0.002915838	-0.0009999052	-0.000930637
	0.1809118	-0.9476647	-0.03587711	-0.02760985	-0.001000163	-0.0009304012	0.01608567	0.003396039
	0.01616674	0.002915838	-0.001000163	-0.0009304012	-0.03590066	-0.02834764	0.1793274	-0.9479211
	-0.0009999052	-0.0009306371	0.01608567	0.003396039	0.1793274	-0.9479211	-0.03608421	-0.02759787
1.8e+08	-0.03895833	-0.02527528	0.1042639	-0.9579876	0.01639493	0.001651624	-0.001211297	-0.0009074069
	0.1042639	-0.9579876	-0.03909681	-0.02442442	-0.001211551	-0.0009071086	0.01634831	0.002171683
	0.01639493	0.001651624	-0.001211551	-0.0009071086	-0.03917908	-0.02520798	0.1025792	-0.9581223
	-0.001211298	-0.0009074069	0.01634831	0.002171683	0.1025792	-0.9581223	-0.03931127	-0.02439063
1.9e+08	-0.04167626	-0.02173525	0.02717606	-0.9621619	0.01640383	0.0003719334	-0.001430844	-0.0008455625
	0.02717606	-0.9621619	-0.04175141	-0.02082194	-0.001431084	-0.0008451973	0.01639729	0.000926529
	0.01640383	0.0003719333	-0.001431084	-0.0008451973	-0.04189804	-0.02164209	0.02540096	-0.9621606
	-0.001430844	-0.0008455625	0.01639729	0.0009265291	0.02540096	-0.9621606	-0.0419693	-0.02076512
2e+08	-0.04378266	-0.01786637	-0.04986796	-0.9601877	0.01619461	-0.0008871515	-0.001650882	-0.0007426136
	-0.04986796	-0.9601877	-0.04378577	-0.01690089	-0.001651096	-0.0007421785	0.01623291	-0.0003044848
	0.01619461	-0.0008871516	-0.001651096	-0.0007421785	-0.044001	-0.01774727	-0.0517219	-0.9600372
	-0.001650882	-0.0007426136	0.01623291	-0.0003044847	-0.0517219	-0.9600372	-0.04400303	-0.01682055
2.1e+08	-0.04523753	-0.01377195	-0.1263874	-0.9521018	0.01577429	-0.00209037	-0.001863256	-0.0005977782
	-0.1263874	-0.9521018	-0.04516167	-0.0127664	-0.001863431	-0.0005972726	0.01586106	-0.001487085
	0.01577429	-0.00209037	-0.001863431	-0.0005972726	-0.04544804	-0.01362766	-0.1283071	-0.9517897
	-0.001863256	-0.0005977783	0.01586106	-0.001487085	-0.1283071	-0.9517897	-0.04537425	-0.01266278
2.2e+08	-0.04601809	-0.009559493	-0.2019072	-0.937977	0.01515541	-0.00320419	-0.002059723	-0.0004120507
	-0.2019072	-0.937977	-0.04585843	-0.008527423	-0.002059845	-0.0004114765	0.01529296	-0.002588525
	0.01515541	-0.00320419	-0.002059845	-0.0004114765	-0.04621662	-0.009391527	-0.2038782	-0.9374922
	-0.002059723	-0.0004120507	0.01529296	-0.002588525	-0.2038782	-0.9374922	-0.04606243	-0.008401481
2.3e+08	-0.04611896	-0.005337911	-0.2759604	-0.9179215	0.01435573	-0.004197653	-0.002232359	-0.0001881736
	-0.2759604	-0.9179215	-0.0458731	-0.00429399	-0.002232414	-0.0001875355	0.01454491	-0.0035784
	0.01435573	-0.004197653	-0.002232414	-0.0001875355	-0.04630171	-0.005148515	-0.2779669	-0.9172543
	-0.002232359	-0.0001881736	0.01454491	-0.0035784	-0.2779669	-0.9172543	-0.04606486	-0.004147358
2.4e+08	-0.04555208	-0.001214852	-0.3480905	-0.8920784	0.0133977	-0.005043155	-0.002373942	6.948263e-05
	-0.3480905	-0.8920784	-0.04522028	-0.0001744129	-0.002373917	7.017677e-05	0.01363778	-0.00442939
	0.0133977	-0.005043155	-0.002373917	7.017676e-05	-0.04571573	-0.001006907	-0.3501155	-0.8912203
	-0.002373942	6.948262e-05	0.01363778	-0.00442939	-0.3501155	-0.8912203	-0.04539646	-9.339654e-06
2.5e+08	-0.04434615	0.002705957	-0.4178538	-0.860624	0.01230788	-0.00571713	-0.002478296	0.0003551237
	-0.4178538	-0.860624	-0.04393142	0.003727397	-0.00247818	0.0003558634	0.01259647	-0.00511793
	0.01230788	-0.00571713	-0.00247818	0.0003558634	-0.0444879	0.002929018	-0.4198792	-0.8595684
	-0.002478296	0.0003551237	0.01259647	-0.00511793	-0.4198792	-0.8595684	-0.04408916	0.003908111
2.6e+08	-0.04254568	0.006327269	-0.4848217	-0.823768	0.01111619	-0.006200638	-0.00254058	0.0006618088
	-0.4848217	-0.823768	-0.0420539	0.007314512	-0.002540361	0.0006625813	0.01144926	-0.005624781
	0.01111619	-0.006200638	-0.002540361	0.0006625813	-0.04266337	0.006561519	-0.4868285	-0.8225095
	-0.00254058	0.0006618088	0.01144926	-0.005624781	-0.4868285	-0.8225095	-0.04219083	0.007507558
2.7e+08	-0.04020968	0.009560533	-0.5485827	-0.7817511	0.009855217	-0.006479838	-0.002557495	0.0009817838
	-0.5485827	-0.7817511	-0.03964955	0.01049922	-0.002557167	0.0009825744	0.0102271	-0.0059355
	0.009855217	-0.006479838	-0.002557167	0.0009825744	-0.04030189	0.00980174	-0.5505512	-0.7802864
	-0.002557495	0.0009817838	0.0102271	-0.0059355	-0.5505512	-0.7802864	-0.03976391	0.01070095
2.8e+08	-0.03741012	0.01232811	-0.6087449	-0.7348451	0.008559303	-0.006546334	-0.002527415	0.001306852
	-0.6087449	-0.7348451	-0.03679301	0.01320525	-0.002526973	0.001307644	0.008962814	-0.006040795
	0.008559303	-0.006546334	-0.002526973	0.001307644	-0.03747616	0.01257183	-0.6106546	-0.7331727
	-0.002527415	0.001306852	0.008962814	-0.006040795	-0.6106546	-0.7331727	-0.03688371	0.01341174
2.9e+08	-0.03422996	0.01456507	-0.6649378	-0.6833507	0.007263692	-0.006397391	-0.002450427	0.001628759
	-0.6649378	-0.6833507	-0.03356969	0.01536951	-0.002449868	0.001629537	0.007690276	-0.005936757
	0.007263692	-0.006397391	-0.002449868	0.001629537	-0.03426993	0.01480677	-0.6667679	-0.6814711
	-0.002450427	0.001628759	0.007690276	-0.005936757	-0.6667679	-0.6814711	-0.03363632	0.0155767
3e+08	-0.030761	0.0162207	-0.7168148	-0.6275965	0.006003614	-0.006036018	-0.002328273	0.001939577
	-0.7168148	-0.6275965	-0.03007356	0.01694359	-0.002327599	0.001940324	0.006443536	-0.005624967
	0.006003614	-0.006036018	-0.002327599	0.001940324	-0.03077579	0.0164559	-0.7185442	-0.6255121
	-0.002328273	0.001939577	0.006443536	-0.005624967	-0.7185442	-0.6255121	-0.03011642	0.01714738
3.1e+08	-0.02710152	0.01725967	-0.7640552	-0.5679373	0.004813365	-0.0054709	-0.002164217	0.00223206
	-0.7640552	-0.5679373	-0.02640463	0.01789486	-0.002163432	0.00223276	0.005255959	-0.005112464
	0.004813365	-0.0054709	-0.002163432	0.00223276	-0.02709279	0.01748406	-0.7656626	-0.5656526
	-0.002164217	0.00223206	0.005255959	-0.005112464	-0.7656626	-0.5656526	-0.02642473	0.01809122
3.2e+08	-0.02335374	0.01766279	-0.806366	-0.5047522	0.003725406	-0.00471619	-0.001962824	0.002499954
	-0.806366	-0.5047522	-0.02266644	0.01820717	-0.001961935	0.002500593	0.004159355	-0.004411583
	0.003725406	-0.00471619	-0.001961935	0.002500593	-0.0233239	0.01787237	-0.8078303	-0.5022738
	-0.001962824	0.002499954	0.004159355	-0.004411583	-0.8078303	-0.5022738	-0.02266546	0.01839229
3.3e+08	-0.01962128	0.01742742	-0.8434844	-0.438443	0.002769499	-0.003791166	-0.00172968	0.002738245
	-0.8434844	-0.438443	-0.01896334	0.01788115	-0.001728695	0.00273881	0.003183152	-0.003539653
	0.002769499	-0.003791166	-0.001728695	0.00273881	-0.0195734	0.01761862	-0.8447845	-0.4357795
	-0.00172968	0.002738245	0.003183152	-0.003539653	-0.8447845	-0.4357795	-0.01894361	0.01805152
3.4e+08	-0.01600643	0.01656739	-0.8751792	-0.3694316	0.0019719	-0.002719738	-0.001471063	0.002943332
	-0.8751792	-0.3694316	-0.01539783	0.01693408	-0.001469992	0.002943813	0.002353607	-0.002518567
	0.0019719	-0.002719738	-0.001469992	0.002943813	-0.01594421	0.01673719	-0.8762949	-0.3665938
	-0.001471063	0.002943332	0.002353607	-0.002518567	-0.8762949	-0.3665938	-0.01536228	0.01708663
3.5e+08	-0.01260767	0.01511258	-0.9012529	-0.2981578	0.001354635	-0.001529836	-0.001193585	0.003113115
	-0.9012529	-0.2981578	-0.01206797	0.01539933	-0.001192439	0.003113503	0.001693098	-0.001374226
	0.001354635	-0.001529836	-0.001192439	0.003113503	-0.01253529	0.01525861	-0.9021644	-0.2951587
	-0.001193585	0.003113115	0.001693098	-0.001374226	-0.9021644	-0.2951587	-0.01202003	0.0155315
3.6e+08	-0.00951711	0.01310808	-0.9215435	-0.2250769	0.0009348843	-0.0002526819	-0.0009038293	0.003246993
	-0.9215435	-0.2250769	-0.009064855	0.01332544	-0.0009026193	0.003247283	0.001219509	-0.0001358671
	0.0009348843	-0.0002526819	-0.0009026193	0.003247283	-0.009439166	0.01322869	-0.9222319	-0.2219313
	-0.0009038293	0.003246993	0.001219509	-0.0001358671	-0.9222319	-0.2219313	-0.009008362	0.01343526
3.7e+08	-0.006818194	0.01061293	-0.9359254	-0.1506563	0.0007244799	0.001078046	-0.0006080004	0.003345777
	-0.9359254	-0.1506563	-0.0064703	0.01077473	-0.000606738	0.003345965	0.0009457242	0.001164701
	0.0007244799	0.001078046	-0.000606738	0.003345965	-0.006739543	0.01070727	-0.9363729	-0.1473813
	-0.0006080004	0.003345777	0.0009457242	0.001164701	-0.9363729	-0.1473813	-0.006409414	0.01086091
3.8e+08	-0.004583615	0.00769854	-0.9443111	-0.07537336	0.0007295549	0.002427115	-0.000311611	0.003411522
	-0.9443111	-0.07537336	-0.004354795	0.007821629	-0.000310306	0.003411608	0.0008792548	0.002493951
	0.0007295549	0.002427115	-0.0003103061	0.003411608	-0.004509246	0.007766594	-0.9445013	-0.07198774
	-0.000311611	0.003411522	0.0008792548	0.002493951	-0.9445013	-0.07198774	-0.004293868	0.007883597
3.9e+08	-0.002873503	0.004446782	-0.9466519	0.0002886288	0.000950341	0.003758708	-1.922132e-05	0.003447287
	-0.9466519	0.0002886288	-0.002775726	0.004550685	-1.788248e-05	0.003447271	0.00102201	0.003817541
	0.000950341	0.003758708	-1.788248e-05	0.003447271	-0.002808389	0.004489398	-0.9465698	0.003764054
	-1.922133e-05	0.003447287	0.001022011	0.003817541	-0.9465698	0.003764054	-0.002719181	0.004588618
4e+08	-0.001733937	0.0009478439	-0.9429386	0.0758432	0.001381132	0.005037407	0.0002657511	0.003456845
	-0.9429386	0.0758432	-0.001775959	0.001054286	0.0002671171	0.003456727	0.001370225	0.005101251
	0.001381132	0.005037407	0.0002671171	0.003456727	-0.001682891	0.0009667139	-0.9425711	0.07938598
	0.0002657511	0.003456845	0.001370225	0.005101251	-0.9425711	0.07938598	-0.001728164	0.001069106
4.1e+08	-0.001195841	-0.002702158	-0.9332021	0.1508044	0.002010419	0.006229189	0.0005411427	0.003444352
	-0.9332021	0.1508044	-0.00138281	-0.002569791	0.0005425311	0.003444133	0.00191454	0.006311931
	0.002010419	0.006229189	0.0005425311	0.003444133	-0.001163369	-0.002704522	-0.9325377	0.1543905
	0.0005411427	0.003444352	0.00191454	0.006311931	-0.9325377	0.1543905	-0.001347947	-0.002576422
4.2e+08	-0.001274271	-0.006403689	-0.9175127	0.2246901	0.002821188	0.007302377	0.0008060678	0.003414006
	-0.9175127	0.2246901	-0.001607424	-0.006220958	0.0008074756	0.003413689	0.002640257	0.007418418
	0.002821188	0.007302377	0.0008074756	0.003413689	-0.001264436	-0.006424016	-0.9165421	0.228294
	0.0008060678	0.003414006	0.002640257	0.007418418	-0.9165421	0.228294	-0.001589368	-0.00624668
4.3e+08	-0.001968118	-0.01005639	-0.8959804	0.2970257	0.003791385	0.008228539	0.001060857	0.003369717
	-0.8959804	0.2970257	-0.002444587	-0.009798473	0.001062283	0.0033693	0.00352773	0.008392402
	0.003791385	0.008228539	0.001062283	0.0033693	-0.00198441	-0.01009073	-0.8946967	0.3006207
	0.001060857	0.003369717	0.00352773	0.008392402	-0.8946967	0.3006207	-0.002446785	-0.009840282
4.4e+08	-0.003260238	-0.01356169	-0.8687537	0.3673472	0.004894527	0.008983295	0.001306914	0.003314794
	-0.8687537	0.3673472	-0.003872963	-0.01320406	0.001308358	0.003314276	0.004552919	0.009209217
	0.004894527	0.008983295	0.001308358	0.003314276	-0.003305458	-0.01360551	-0.8671522	0.3709056
	0.001306914	0.003314794	0.004552919	0.009209217	-0.8671522	0.3709056	-0.003898333	-0.01325839
4.5e+08	-0.005117991	-0.01682531	-0.8360188	0.4352051	0.006100443	0.009547	0.001546497	0.003251693
	-0.8360188	0.4352051	-0.005855759	-0.01634448	0.00154796	0.00325107	0.005688056	0.009848523
	0.006100443	0.009547	0.00154796	0.00325107	-0.005194162	-0.01687361	-0.8340974	0.4386984
	0.001546497	0.003251693	0.005688056	0.009848523	-0.8340974	0.4386984	-0.005906597	-0.01640729
4.6e+08	-0.007494193	-0.0197597	-0.7979978	0.5001672	0.007376125	0.009905305	0.001782448	0.003181821
	-0.7979978	0.5001672	-0.008341798	-0.0191339	0.00178393	0.003181087	0.00690243	0.01029486
	0.007376125	0.009905305	0.00178393	0.003181087	-0.007602461	-0.0198072	-0.795757	0.5035663
	0.001782448	0.003181821	0.00690243	0.01029486	-0.795757	0.5035663	-0.008419681	-0.01920082
4.7e+08	-0.01032842	-0.02228623	-0.7549474	0.5618218	0.008686657	0.01004954	0.002017882	0.003105422
	-0.7549474	0.5618218	-0.01126694	-0.0214961	0.002019383	0.003104567	0.008163243	0.01053807
	0.008686657	0.01004954	0.002019383	0.003104567	-0.01046905	-0.02232744	-0.7523904	0.5650973
	0.002017882	0.003105422	0.008163243	0.01053807	-0.7523904	0.5650973	-0.01137272	-0.02156251
4.8e+08	-0.01354866	-0.02433715	-0.7071564	0.6197805	0.009996202	0.009976972	0.002255852	0.003021541
	-0.7071564	0.6197805	-0.01455586	-0.02336639	0.00225737	0.003020554	0.009436534	0.01057356
	0.009996202	0.009976972	0.00225737	0.003020554	-0.013721	-0.02436658	-0.7042891	0.622903
	0.002255852	0.003021541	0.009436534	0.01057356	-0.7042891	0.622903	-0.01468961	-0.02342755
4.9e+08	-0.01707322	-0.02585727	-0.6549435	0.6736809	0.011269	0.009690818	0.002499021	0.002928077
	-0.6549435	0.6736809	-0.01812405	-0.02469318	0.00250055	0.002926944	0.01068812	0.01040236
	0.011269	0.009690818	0.00250055	0.002926944	-0.0172757	-0.02586954	-0.6517746	0.6766211
	0.002499021	0.002928077	0.01068812	0.01040236	-0.6517746	0.6766211	-0.01828505	-0.02474437
5e+08	-0.02081294	-0.02680528	-0.5986551	0.7231886	0.01247039	0.00920017	0.002749356	0.002821918
	-0.5986551	0.7231886	-0.02188014	-0.02543925	0.002750888	0.002820624	0.01188452	0.01003113
	0.01247039	0.00920017	0.002750888	0.002820624	-0.02104307	-0.02679531	-0.595196	0.7259177
