!$
! Info: Touchstone file created by Circ.  Input file=Tx_8in_Rx_93ohms_TxVia_10mils_RxVia_20mils.circ
!$
# Hz S RI R 50
0	0.007412896	5.313036e-26	-1.747895e-11	4.092967e-27	5.45176e-05	7.678428e-24	-2.155891e-08	2.640169e-24
	-1.74647e-11	4.091951e-27	0.00741224	7.608603e-26	1.629836e-11	1.809915e-28	5.412392e-05	1.051322e-23
	5.26282e-05	7.570235e-24	1.626318e-11	1.813356e-28	0.007426909	5.529014e-26	1.741564e-08	7.409839e-27
	-2.155964e-08	2.640259e-24	5.558058e-05	1.082062e-23	1.741616e-08	7.408687e-27	0.007417841	7.257523e-26
1e+07	0.01097738	-9.322596e-05	3.542198e-11	-4.622315e-11	0.0002231692	0.001370636	-6.431062e-09	1.920918e-08
	3.542198e-11	-4.622345e-11	0.0108164	-0.0005749102	-3.137619e-12	-7.663791e-11	0.0002309487	0.001499754
	0.0002231304	0.001370661	-3.137664e-12	-7.663761e-11	0.01022938	-0.0004997869	-8.40066e-09	1.885771e-08
	-6.431062e-09	1.920918e-08	0.0002309813	0.001499742	-8.40066e-09	1.885771e-08	0.0106096	-0.0005848335
2e+07	0.01331856	-0.003112452	4.219864e-11	-5.942887e-11	0.0006260441	0.002754248	-5.512409e-09	2.327733e-08
	4.219834e-11	-5.942907e-11	0.01268486	-0.003817147	8.505177e-12	-1.826488e-10	0.0005449657	0.002992196
	0.0006260515	0.002754266	8.505379e-12	-1.826486e-10	0.01232167	-0.003486772	-1.057175e-08	1.929096e-08
	-5.512409e-09	2.327733e-08	0.0005449629	0.002992175	-1.057175e-08	1.929096e-08	0.01252664	-0.003760567
3e+07	0.0142716	-0.007306664	4.536359e-11	-1.299675e-10	0.001238047	0.004053151	-4.792215e-10	1.792746e-08
	4.536354e-11	-1.299675e-10	0.01326582	-0.007989886	-4.608674e-11	-2.105115e-10	0.00113905	0.004338775
	0.001238045	0.004053152	-4.608664e-11	-2.105116e-10	0.01308801	-0.007600595	-6.268523e-09	2.19804e-08
	-4.792215e-10	1.792746e-08	0.001139045	0.004338772	-6.268523e-09	2.19804e-08	0.01314438	-0.007920991
4e+07	0.0141404	-0.01183086	4.652309e-11	-1.888492e-10	0.002045736	0.005232602	1.761913e-09	1.500948e-08
	4.652313e-11	-1.888492e-10	0.01282782	-0.01239001	-2.487812e-11	-2.713852e-10	0.001971075	0.005537963
	0.002045731	0.005232604	-2.487813e-11	-2.713853e-10	0.01281435	-0.01200442	-5.942135e-10	1.905047e-08
	1.761913e-09	1.500948e-08	0.001971075	0.005537965	-5.942135e-10	1.905047e-08	0.01273519	-0.01232513
5e+07	0.01305632	-0.01637996	5.855649e-11	-2.470974e-10	0.003026915	0.006261135	4.061909e-09	1.439034e-08
	5.855651e-11	-2.470975e-10	0.0114942	-0.01674548	-6.603154e-11	-3.233109e-10	0.002969368	0.006575821
	0.003026914	0.006261137	-6.603154e-11	-3.233109e-10	0.01162662	-0.0164047	2.756383e-09	1.393196e-08
	4.061909e-09	1.439034e-08	0.002969367	0.006575821	2.756383e-09	1.393196e-08	0.01142213	-0.01669251
6e+07	0.01111722	-0.02075086	8.367e-11	-3.152213e-10	0.004154055	0.007112372	9.922563e-09	1.378511e-08
	8.367001e-11	-3.152212e-10	0.009361584	-0.02087056	-1.007925e-10	-3.491338e-10	0.004106603	0.007430338
	0.004154056	0.00711237	-1.007926e-10	-3.491338e-10	0.009620848	-0.02060638	4.111381e-09	8.872543e-09
	9.922563e-09	1.378511e-08	0.0041066	0.007430339	4.111381e-09	8.872543e-09	0.009303174	-0.02083373
7e+07	0.008417456	-0.02478708	1.19083e-10	-3.926907e-10	0.005395738	0.007765417	1.515707e-08	5.71962e-09
	1.190831e-10	-3.926906e-10	0.0065259	-0.02462048	-1.298467e-10	-3.732617e-10	0.005351494	0.008083108
	0.005395738	0.007765411	-1.298468e-10	-3.732618e-10	0.006891063	-0.02445896	4.217968e-09	4.550812e-09
	1.515707e-08	5.71962e-09	0.005351489	0.008083111	4.217968e-09	4.550812e-09	0.006474757	-0.0246026
8e+07	0.005056291	-0.02836306	1.566567e-10	-4.577005e-10	0.006717879	0.008205431	1.259492e-08	-7.961641e-10
	1.566568e-10	-4.577005e-10	0.00308995	-0.02787821	-1.607842e-10	-4.061818e-10	0.006669829	0.008520603
	0.006717878	0.008205424	-1.607843e-10	-4.061818e-10	0.003537444	-0.02784132	3.578955e-09	1.119737e-09
	1.259492e-08	-7.961641e-10	0.006669824	0.008520607	3.578955e-09	1.119737e-09	0.003039372	-0.02788093
9e+07	0.001138985	-0.0313795	1.462092e-10	-5.080233e-10	0.008085432	0.008424519	9.817281e-09	-2.932553e-09
	1.462093e-10	-5.080233e-10	-0.000833869	-0.03054902	-1.862372e-10	-4.574384e-10	0.008025497	0.008734841
	0.00808543	0.008424515	-1.862372e-10	-4.574384e-10	-0.0003314765	-0.03065608	2.461628e-09	-1.416924e-09
	9.817281e-09	-2.932553e-09	0.008025494	0.008734845	2.461628e-09	-1.416924e-09	-0.0008910535	-0.03057274
1e+08	-0.003234906	-0.03377119	9.050514e-11	-6.480463e-10	0.009469553	0.008427911	7.824812e-09	-3.775533e-09
	9.050514e-11	-6.480463e-10	-0.005111991	-0.0325482	-1.879757e-10	-5.208045e-10	0.009381514	0.008723383
	0.009469552	0.008427912	-1.879757e-10	-5.208045e-10	-0.004595342	-0.03282444	1.01811e-09	-3.201848e-09
	7.824812e-09	-3.775533e-09	0.009381514	0.008723383	1.01811e-09	-3.201848e-09	-0.005184892	-0.03259374
1.1e+08	-0.007967567	-0.03540126	8.598783e-11	-7.410174e-10	0.01078961	0.008234708	8.026533e-09	-5.42762e-09
	8.598783e-11	-7.410174e-10	-0.009594884	-0.03393467	-2.018537e-10	-5.492216e-10	0.01069921	0.008491222
	0.01078961	0.008234708	-2.018537e-10	-5.492216e-10	-0.009122251	-0.03433627	1.040383e-09	-3.746297e-09
	8.026533e-09	-5.42762e-09	0.01069921	0.008491222	1.040383e-09	-3.746297e-09	-0.009694014	-0.03398859
1.2e+08	-0.01284696	-0.0362581	7.145024e-11	-8.339662e-10	0.01203004	0.007811092	7.932997e-09	-7.192155e-09
	7.145024e-11	-8.339662e-10	-0.01426414	-0.03462555	-2.119829e-10	-5.752303e-10	0.01194579	0.00804975
	0.01203004	0.007811092	-2.119829e-10	-5.752303e-10	-0.01382957	-0.03513119	1.006948e-09	-4.313651e-09
	7.932997e-09	-7.192155e-09	0.01194579	0.008049749	1.006948e-09	-4.313651e-09	-0.01438659	-0.0346796
1.3e+08	-0.01776022	-0.03635105	4.725479e-11	-9.269925e-10	0.01316499	0.007183263	7.516646e-09	-9.013308e-09
	4.725479e-11	-9.269925e-10	-0.01897779	-0.03459004	-2.178731e-10	-5.99905e-10	0.0130884	0.007413842
	0.01316499	0.007183263	-2.178731e-10	-5.99905e-10	-0.01858589	-0.0351908	9.123941e-10	-4.895136e-09
	7.516646e-09	-9.013308e-09	0.0130884	0.007413842	9.123941e-10	-4.895136e-09	-0.01912201	-0.03463882
1.4e+08	-0.02258632	-0.03569525	1.251705e-11	-1.019056e-09	0.01416506	0.006374612	6.760365e-09	-1.082861e-08
	1.251705e-11	-1.019056e-09	-0.02360973	-0.0338339	-2.193871e-10	-6.244709e-10	0.01409727	0.006603859
	0.01416506	0.006374612	-2.193871e-10	-6.244709e-10	-0.02326704	-0.03452253	7.518326e-10	-5.480008e-09
	6.760365e-09	-1.082861e-08	0.01409727	0.006603859	7.518326e-10	-5.480008e-09	-0.02377381	-0.0338728
1.5e+08	-0.02720856	-0.03432268	-3.266642e-11	-1.107661e-09	0.01500404	0.005411813	5.658782e-09	-1.257178e-08
	-3.266642e-11	-1.107661e-09	-0.02804146	-0.03238476	-2.164672e-10	-6.496512e-10	0.01494651	0.005644672
	0.01500404	0.005411813	-2.164672e-10	-6.496512e-10	-0.02775513	-0.03315402	5.232206e-10	-6.055224e-09
	5.658782e-09	-1.257178e-08	0.01494651	0.005644672	5.232206e-10	-6.055224e-09	-0.02822298	-0.03240981
1.6e+08	-0.031518	-0.03228222	-8.809817e-11	-1.190661e-09	0.01566012	0.004324882	4.219073e-09	-1.417494e-08
	-8.809817e-11	-1.190661e-09	-0.03216344	-0.03028906	-2.092614e-10	-6.764342e-10	0.01561476	0.00456489
	0.01566012	0.004324882	-2.092614e-10	-6.764342e-10	-0.03194067	-0.03113112	2.266424e-10	-6.607614e-09
	4.219073e-09	-1.417494e-08	0.01561476	0.004564891	2.266424e-10	-6.607614e-09	-0.03235944	-0.03029693
1.7e+08	-0.03541604	-0.02963824	-1.530944e-10	-1.265816e-09	0.0161166	0.003146589	2.461314e-09	-1.557102e-08
	-1.530944e-10	-1.265816e-09	-0.03587711	-0.02760985	-1.980997e-10	-7.057688e-10	0.01608567	0.003396039
	0.0161166	0.00314659	-1.980997e-10	-7.057688e-10	-0.03572474	-0.02851595	-1.35213e-10	-7.123805e-09
	2.461314e-09	-1.557102e-08	0.01608567	0.003396039	-1.35213e-10	-7.123805e-09	-0.03608421	-0.02759787
1.8e+08	-0.03881652	-0.02646883	-2.264288e-10	-1.33093e-09	0.01636229	0.001911673	4.183731e-10	-1.669619e-08
	-2.264288e-10	-1.33093e-09	-0.03909681	-0.02442442	-1.834823e-10	-7.385321e-10	0.01634831	0.002171683
	0.01636229	0.001911673	-1.834823e-10	-7.385321e-10	-0.03902097	-0.02538471	-5.569752e-10	-7.590758e-09
	4.183731e-10	-1.669619e-08	0.01634831	0.002171683	-5.569752e-10	-7.590758e-09	-0.03931127	-0.02439063
1.9e+08	-0.04164748	-0.02286362	-3.063263e-10	-1.384e-09	0.01639177	0.0006559524	-1.864661e-09	-1.749219e-08
	-3.063263e-10	-1.384e-09	-0.04175141	-0.02082194	-1.660658e-10	-7.755036e-10	0.01639729	0.000926529
	0.01639177	0.0006559525	-1.660658e-10	-7.755036e-10	-0.04175723	-0.02182549	-1.030638e-09	-7.996317e-09
	-1.864661e-09	-1.749219e-08	0.01639729	0.0009265291	-1.030638e-09	-7.996317e-09	-0.0419693	-0.02076512
2e+08	-0.04385261	-0.01892142	-3.905006e-10	-1.423368e-09	0.01620551	-0.000584581	-4.331493e-09	-1.790868e-08
	-3.905006e-10	-1.423368e-09	-0.04378577	-0.01690089	-1.466452e-10	-8.173406e-10	0.01623291	-0.0003044848
	0.01620551	-0.0005845809	-1.466452e-10	-8.173406e-10	-0.04387703	-0.01793572	-1.545722e-09	-8.329747e-09
	-4.331493e-09	-1.790868e-08	0.01623291	-0.0003044847	-1.545722e-09	-8.329747e-09	-0.04400303	-0.01682055
2.1e+08	-0.04539265	-0.0147473	-4.762222e-10	-1.447872e-09	0.01580966	-0.001788888	-6.91591e-09	-1.790522e-08
	-4.762222e-10	-1.447872e-09	-0.04516167	-0.0127664	-1.261089e-10	-8.645482e-10	0.01586106	-0.001487085
	0.01580966	-0.001788888	-1.261089e-10	-8.645482e-10	-0.04534094	-0.01381928	-2.089366e-09	-8.58188e-09
	-6.91591e-09	-1.790522e-08	0.01586106	-0.001487085	-2.089366e-09	-8.58188e-09	-0.04537425	-0.01266278
2.2e+08	-0.04624521	-0.01045043	-5.604639e-10	-1.456935e-09	0.01521298	-0.002923282	-9.543788e-09	-1.745317e-08
	-5.604639e-10	-1.456935e-09	-0.04585843	-0.008527423	-1.054536e-10	-9.17482e-10	0.01529296	-0.002588525
	0.01521298	-0.002923282	-1.054536e-10	-9.17482e-10	-0.04612633	-0.009584249	-2.646853e-09	-8.746261e-09
	-9.543788e-09	-1.745317e-08	0.01529296	-0.002588525	-2.646853e-09	-8.746261e-09	-0.04606243	-0.008401481
2.3e+08	-0.04640489	-0.006141837	-6.400462e-10	-1.45064e-09	0.01443209	-0.003938498	-1.213525e-08	-1.653707e-08
	-6.400462e-10	-1.45064e-09	-0.0458731	-0.00429399	-8.577972e-11	-9.76329e-10	0.01454491	-0.0035784
	0.01443209	-0.003938498	-8.577972e-11	-9.76329e-10	-0.04622758	-0.005340712	-3.202506e-09	-8.819671e-09
	-1.213525e-08	-1.653707e-08	0.01454491	-0.0035784	-3.202506e-09	-8.819671e-09	-0.04606486	-0.004147358
2.4e+08	-0.04588425	-0.001930753	-7.117737e-10	-1.429796e-09	0.01348949	-0.004806535	-1.460673e-08	-1.51558e-08
	-7.117737e-10	-1.429796e-09	-0.04522028	-0.0001744129	-6.820037e-11	-1.041074e-09	0.01363778	-0.00442939
	0.01348949	-0.004806535	-6.820037e-11	-1.041074e-09	-0.04565701	-0.001197018	-3.7397e-09	-8.801438e-09
	-1.460673e-08	-1.51558e-08	0.01363778	-0.00442939	-3.7397e-09	-8.801438e-09	-0.04539646	-9.339654e-06
2.5e+08	-0.0447127	0.00207769	-7.726248e-10	-1.395921e-09	0.01241185	-0.005503445	-1.687362e-08	-1.332326e-08
	-7.726248e-10	-1.395921e-09	-0.04393142	0.003727397	-5.3836e-11	-1.111502e-09	0.01259647	-0.00511793
	0.01241185	-0.005503445	-5.3836e-11	-1.111502e-09	-0.04444375	0.002742485	-4.241598e-09	-8.694017e-09
	-1.687362e-08	-1.332326e-08	0.01259647	-0.00511793	-4.241598e-09	-8.694017e-09	-0.04408916	0.003908111
2.6e+08	-0.04293553	0.00578495	-8.19918e-10	-1.35119e-09	0.01122924	-0.006009934	-1.8853e-08	-1.106864e-08
	-8.19918e-10	-1.35119e-09	-0.0420539	0.007314512	-4.377701e-11	-1.1872e-09	0.01144926	-0.005624781
	0.01122924	-0.006009934	-4.377701e-11	-1.1872e-09	-0.04263283	0.00637998	-4.691755e-09	-8.503012e-09
	-1.8853e-08	-1.106864e-08	0.01144926	-0.005624781	-4.691755e-09	-8.503012e-09	-0.04219083	0.007507558
2.7e+08	-0.04061265	0.009101415	-8.514686e-10	-1.298337e-09	0.009974366	-0.006311829	-2.046632e-08	-8.43623e-09
	-8.514686e-10	-1.298337e-09	-0.03964955	0.01049922	-3.906159e-11	-1.267548e-09	0.0102271	-0.0059355
	0.009974366	-0.006311829	-3.906159e-11	-1.267548e-09	-0.04028385	0.009626513	-5.074709e-09	-8.237084e-09
	-2.046632e-08	-8.43623e-09	0.0102271	-0.0059355	-5.074709e-09	-8.237084e-09	-0.03976391	0.01070095
2.8e+08	-0.03781694	0.0119485	-8.657018e-10	-1.24053e-09	0.008681756	-0.006400432	-2.164214e-08	-5.484676e-09
	-8.657018e-10	-1.24053e-09	-0.03679301	0.01320525	-4.06269e-11	-1.351731e-09	0.008962814	-0.006040795
	0.008681756	-0.006400432	-4.06269e-11	-1.351731e-09	-0.03746941	0.01240412	-5.376557e-09	-7.907742e-09
	-2.164214e-08	-5.484676e-09	0.008962814	-0.006040795	-5.376557e-09	-7.907742e-09	-0.03688371	0.01341174
2.9e+08	-0.03463232	0.01426049	-8.617348e-10	-1.181213e-09	0.007386841	-0.006272734	-2.231871e-08	-2.285859e-09
	-8.617348e-10	-1.181213e-09	-0.03356969	0.01536951	-4.927526e-11	-1.438753e-09	0.007690276	-0.005936757
	0.007386841	-0.006272734	-4.927526e-11	-1.438753e-09	-0.03427313	0.01464767	-5.585465e-09	-7.529024e-09
	-2.231871e-08	-2.285859e-09	0.007690276	-0.005936757	-5.585465e-09	-7.529024e-09	-0.03363632	0.0155767
3e+08	-0.03115157	0.01598601	-8.39415e-10	-1.123938e-09	0.006125063	-0.00593149	-2.244637e-08	1.076763e-09
	-8.39415e-10	-1.123938e-09	-0.03007356	0.01694359	-6.563925e-11	-1.52746e-09	0.006443536	-0.005624967
	0.006125063	-0.00593149	-6.563925e-11	-1.52746e-09	-0.03078748	0.01630631	-5.692111e-09	-7.117094e-09
	-2.244637e-08	1.076763e-09	0.006443536	-0.005624967	-5.692111e-09	-7.117094e-09	-0.03011642	0.01714738
3.1e+08	-0.02747396	0.01708922	-7.993136e-10	-1.072196e-09	0.004930946	-0.005385164	-2.198968e-08	4.510213e-09
	-7.993136e-10	-1.072196e-09	-0.02640463	0.01789486	-9.014884e-11	-1.616563e-09	0.005255959	-0.005112464
	0.004930946	-0.005385164	-9.014884e-11	-1.616563e-09	-0.0271114	0.01734475	-5.690045e-09	-6.689761e-09
	-2.198968e-08	4.510213e-09	0.005255959	-0.005112464	-5.690045e-09	-6.689761e-09	-0.02642473	0.01809122
3.2e+08	-0.02370274	0.01755055	-7.426746e-10	-1.029258e-09	0.003837198	-0.004647719	-2.092921e-08	7.91445e-09
	-7.426746e-10	-1.029258e-09	-0.02266644	0.01820717	-1.230025e-10	-1.704676e-09	0.004159355	-0.004411583
	0.003837198	-0.004647719	-1.230025e-10	-1.704676e-09	-0.02334779	0.01774391	-5.575942e-09	-6.265955e-09
	-2.092921e-08	7.91445e-09	0.004159355	-0.004411583	-5.575942e-09	-6.265955e-09	-0.02266546	0.01839229
3.3e+08	-0.01994247	0.01736709	-6.713295e-10	-9.980439e-10	0.002873839	-0.003738273	-1.926287e-08	1.118516e-08
	-6.713295e-10	-9.980439e-10	-0.01896334	0.01788115	-1.641445e-10	-1.790357e-09	0.003183152	-0.003539653
	0.002873839	-0.003738273	-1.641445e-10	-1.790357e-09	-0.01960085	0.01750135	-5.349767e-09	-5.865159e-09
	-1.926287e-08	1.118516e-08	0.003183152	-0.003539653	-5.349767e-09	-5.865159e-09	-0.01894361	0.01805152
3.4e+08	-0.01629644	0.01655254	-5.875855e-10	-9.810207e-10	0.002067395	-0.002680608	-1.700677e-08	1.42168e-08
	-5.875855e-10	-9.810207e-10	-0.01539783	0.01693408	-2.132509e-10	-1.872159e-09	0.002353607	-0.002518567
	0.002067395	-0.002680608	-2.132509e-10	-1.872159e-09	-0.01597347	0.01663126	-5.014826e-09	-5.50684e-09
	-1.700677e-08	1.42168e-08	0.002353607	-0.002518567	-5.014826e-09	-5.50684e-09	-0.01536228	0.01708663
3.5e+08	-0.01286404	0.01513678	-4.940968e-10	-9.801365e-10	0.001440172	-0.001502564	-1.419556e-08	1.69058e-08
	-4.940968e-10	-9.801365e-10	-0.01206797	0.01539933	-2.697235e-10	-1.948678e-09	0.001693098	-0.001374226
	0.001440172	-0.001502564	-2.697235e-10	-1.948678e-09	-0.01256462	0.01516393	-4.57772e-09	-5.209883e-09
	-1.419556e-08	1.69058e-08	0.001693098	-0.001374226	-4.57772e-09	-5.209883e-09	-0.01202003	0.0155315
3.6e+08	-0.009738265	0.01316495	-3.93735e-10	-9.967959e-10	0.001009629	-0.0002353044	-1.088217e-08	1.915385e-08
	-3.93735e-10	-9.967959e-10	-0.009064855	0.01332544	-3.32696e-10	-2.018606e-09	0.001219509	-0.0001358671
	0.001009629	-0.0002353044	-3.32696e-10	-2.018606e-09	-0.009466832	0.01314494	-4.04822e-09	-4.992051e-09
	-1.088217e-08	1.915385e-08	0.001219509	-0.0001358671	-4.04822e-09	-4.992051e-09	-0.009008362	0.01343526
3.7e+08	-0.007003405	0.01069629	-2.894672e-10	-1.031869e-09	0.0007878782	0.001087511	-7.136944e-09	2.087116e-08
	-2.894672e-10	-1.031869e-09	-0.0064703	0.01077473	-4.010504e-10	-2.080791e-09	0.0009457242	0.001164701
	0.0007878782	0.001087511	-4.010504e-10	-2.080791e-09	-0.006763871	0.0106339	-3.439043e-09	-4.86948e-09
	-7.136944e-09	2.087116e-08	0.0009457242	0.001164701	-3.439043e-09	-4.86948e-09	-0.006409414	0.01086091
3.8e+08	-0.00473292	0.007802463	-1.842531e-10	-1.08573e-09	0.0007813289	0.002430637	-3.046228e-09	2.197955e-08
	-1.842531e-10	-1.08573e-09	-0.004354795	0.007821629	-4.734448e-10	-2.134279e-09	0.0008792548	0.002493951
	0.0007813289	0.002430637	-4.734448e-10	-2.134279e-09	-0.004528654	0.007702825	-2.765571e-09	-4.85622e-09
	-3.046228e-09	2.197955e-08	0.0008792548	0.002493951	-2.765571e-09	-4.85622e-09	-0.004293868	0.007883597
3.9e+08	-0.002987643	0.004565696	-8.096823e-11	-1.158315e-09	0.0009904778	0.003758206	1.289628e-09	2.241533e-08
	-8.096823e-11	-1.158315e-09	-0.002775726	0.004550685	-5.483519e-10	-2.178364e-09	0.00102201	0.003817541
	0.0009904778	0.003758206	-5.483519e-10	-2.178364e-09	-0.002821419	0.004434243	-2.0455e-09	-4.963828e-09
	1.289628e-09	2.241533e-08	0.001022011	0.003817541	-2.0455e-09	-4.963828e-09	-0.002719181	0.004588618
4e+08	-0.001814283	0.001076582	1.76441e-11	-1.249186e-09	0.001409871	0.005034718	5.758786e-09	2.213176e-08
	1.76441e-11	-1.249186e-09	-0.001775959	0.001054286	-6.241066e-10	-2.212622e-09	0.001370225	0.005101251
	0.001409871	0.005034718	-6.241066e-10	-2.212622e-09	-0.001688241	0.000918992	-1.298447e-09	-5.201017e-09
	5.758786e-09	2.213176e-08	0.001370225	0.005101251	-1.298447e-09	-5.201017e-09	-0.001728164	0.001069106
4.1e+08	-0.001244313	-0.002568294	1.089925e-10	-1.357599e-09	0.00202823	0.006226036	1.024086e-08	2.110111e-08
	1.089925e-10	-1.357599e-09	-0.00138281	-0.002569791	-6.989613e-10	-2.236941e-09	0.00191454	0.006311931
	0.00202823	0.006226036	-6.989613e-10	-2.236941e-09	-0.00115992	-0.002746167	-5.45501e-10	-5.573367e-09
	1.024086e-08	2.110111e-08	0.00191454	0.006311931	-5.45501e-10	-5.573367e-09	-0.001347947	-0.002576422
4.2e+08	-0.001293256	-0.00626889	1.906338e-10	-1.482547e-09	0.002828753	0.007300343	1.461024e-08	1.931618e-08
	1.906338e-10	-1.482547e-09	-0.001607424	-0.006220958	-7.711467e-10	-2.251533e-09	0.002640257	0.007418418
	0.002828753	0.007300343	-7.711467e-10	-2.251533e-09	-0.001251278	-0.006461084	1.912486e-10	-6.083092e-09
	1.461024e-08	1.931618e-08	0.002640257	0.007418418	1.912486e-10	-6.083092e-09	-0.001589368	-0.00624668
4.3e+08	-0.001960386	-0.009924309	2.602551e-10	-1.6228e-09	0.003789571	0.008229044	1.873967e-08	1.679121e-08
	2.602551e-10	-1.6228e-09	-0.002444587	-0.009798473	-8.389346e-10	-2.256939e-09	0.00352773	0.008392402
	0.003789571	0.008229044	-8.389346e-10	-2.256939e-09	-0.001960865	-0.01012483	8.892266e-10	-6.728873e-09
	1.873967e-08	1.679121e-08	0.00352773	0.008392402	8.892266e-10	-6.728873e-09	-0.002446785	-0.009840282
4.4e+08	-0.003228854	-0.01343541	3.156496e-10	-1.776901e-09	0.004884356	0.008987571	2.250392e-08	1.356215e-08
	3.156496e-10	-1.776901e-09	-0.003872963	-0.01320406	-9.007016e-10	-2.254019e-09	0.004552919	0.009209217
	0.004884356	0.008987571	-9.007016e-10	-2.254019e-09	-0.003271095	-0.01363833	1.525908e-09	-7.505759e-09
	2.250392e-08	1.356215e-08	0.004552919	0.009209217	1.525908e-09	-7.505759e-09	-0.003898333	-0.01325839
4.5e+08	-0.005066233	-0.01670734	3.547065e-10	-1.943146e-09	0.006083063	0.009556084	2.578362e-08	9.686281e-09
	3.547065e-10	-1.943146e-09	-0.005855759	-0.01634448	-9.549872e-10	-2.243928e-09	0.005688056	0.009848523
	0.006083063	0.009556084	-9.549872e-10	-2.243928e-09	-0.005148807	-0.0169069	2.079384e-09	-8.405132e-09
	2.578362e-08	9.686281e-09	0.005688056	0.009848523	2.079384e-09	-8.405132e-09	-0.005906597	-0.01640729
4.6e+08	-0.00742545	-0.01965202	3.743679e-10	-2.12063e-09	0.007352775	0.00992002	2.846492e-08	5.239462e-09
	3.743679e-10	-2.12063e-09	-0.008341798	-0.0191339	-1.000815e-09	-2.228107e-09	0.00690243	0.01029486
	0.007352775	0.00992002	-1.000815e-09	-2.228107e-09	-0.00754622	-0.01984264	2.528055e-09	-9.415825e-09
	2.846492e-08	5.239462e-09	0.00690243	0.01029486	2.528055e-09	-9.415825e-09	-0.008419681	-0.01920082
4.7e+08	-0.01024616	-0.02219023	3.731985e-10	-2.306468e-09	0.008658639	0.0100705	3.045363e-08	3.20567e-10
