!$
! Info: Touchstone file created by Circ.  Input file=Tx_8in_Rx_100ohms_TxVia_10mils_RxVia_20mils.circ
!$
# Hz S RI R 50
0	0.008373256	5.311912e-26	-1.744681e-11	4.089164e-27	5.450181e-05	8.680153e-24	-2.151721e-08	2.635074e-24
	-1.743258e-11	4.088149e-27	0.008372588	7.606876e-26	1.626295e-11	1.848003e-28	5.410677e-05	1.188651e-23
	5.261249e-05	8.557826e-24	1.622784e-11	1.851436e-28	0.008387216	5.527771e-26	1.738195e-08	7.410235e-27
	-2.151794e-08	2.635163e-24	5.556307e-05	1.223407e-23	1.738247e-08	7.409085e-27	0.008378179	7.255937e-26
1e+07	0.01140409	0.005656777	3.80466e-11	-4.97146e-11	0.0002047342	0.001465553	-6.474421e-09	1.918543e-08
	3.804661e-11	-4.97149e-11	0.01222343	0.005468027	2.139255e-12	-7.557335e-11	0.0004872464	0.001510424
	0.0002046952	0.001465578	2.13921e-12	-7.557305e-11	0.0118711	0.005441254	-8.426704e-09	1.879817e-08
	-6.474421e-09	1.918543e-08	0.0004872791	0.001510412	-8.426704e-09	1.879817e-08	0.01211577	0.005480197
2e+07	0.01531708	0.008602768	5.35354e-11	-6.371432e-11	0.0005610559	0.00291985	-5.612065e-09	2.324297e-08
	5.353509e-11	-6.371453e-11	0.01575661	0.008014421	2.172342e-11	-1.720896e-10	0.0007366714	0.003113847
	0.000561063	0.002919868	2.172362e-11	-1.720894e-10	0.01546225	0.008102745	-1.064548e-08	1.919947e-08
	-5.612065e-09	2.324297e-08	0.000736669	0.003113826	-1.064548e-08	1.919947e-08	0.0156838	0.008079418
3e+07	0.01870798	0.009855473	6.070128e-11	-1.345194e-10	0.001141497	0.004263821	-6.000112e-10	1.792542e-08
	6.070124e-11	-1.345194e-10	0.01884436	0.00917877	-2.67849e-11	-1.923134e-10	0.001236248	0.004512154
	0.001141494	0.004263822	-2.67848e-11	-1.923134e-10	0.01860441	0.009306868	-6.434425e-09	2.188798e-08
	-6.000112e-10	1.792542e-08	0.001236243	0.004512151	-6.434425e-09	2.188798e-08	0.01880306	0.009264005
4e+07	0.02182482	0.01027607	6.505075e-11	-1.968279e-10	0.001925943	0.005483016	1.616288e-09	1.503048e-08
	6.50508e-11	-1.968279e-10	0.02170408	0.009610885	-4.333271e-12	-2.498379e-10	0.001973979	0.005761167
	0.001925938	0.005483019	-4.33328e-12	-2.49838e-10	0.02151908	0.009757057	-8.213038e-10	1.90114e-08
	1.616288e-09	1.503048e-08	0.001973979	0.005761168	-8.213039e-10	1.90114e-08	0.02169243	0.009703792
5e+07	0.02471486	0.01007089	7.959243e-11	-2.624441e-10	0.002889909	0.006550129	3.871221e-09	1.444623e-08
	7.959245e-11	-2.624441e-10	0.02437633	0.0094788	-4.678178e-11	-3.011167e-10	0.003024626	0.00679247
	0.002889908	0.00655013	-4.678177e-11	-3.011167e-10	0.02424713	0.009628965	2.512429e-09	1.395794e-08
	3.871221e-09	1.444623e-08	0.003024626	0.00679247	2.512429e-09	1.395794e-08	0.02439122	0.009571954
6e+07	0.0273738	0.009346383	1.033263e-10	-3.396012e-10	0.004005269	0.007440436	9.678675e-09	1.394769e-08
	1.033263e-10	-3.396012e-10	0.02685626	0.008872724	-8.705955e-11	-3.222597e-10	0.004202516	0.007632428
	0.00400527	0.007440434	-8.705957e-11	-3.222597e-10	0.02678224	0.009014131	3.878269e-09	8.954038e-09
	9.678675e-09	1.394769e-08	0.004202513	0.007632429	3.878269e-09	8.954038e-09	0.02689517	0.008960781
7e+07	0.02977902	0.008176163	1.292131e-10	-4.218722e-10	0.005251291	0.008126556	1.499315e-08	6.025054e-09
	1.292132e-10	-4.218721e-10	0.02912249	0.007855656	-1.224955e-10	-3.387037e-10	0.005477725	0.008266305
	0.005251292	0.008126551	-1.224955e-10	-3.387037e-10	0.02910148	0.00797662	4.004618e-09	4.676513e-09
	1.499315e-08	6.025054e-09	0.00547772	0.008266307	4.004618e-09	4.676513e-09	0.02918272	0.007933689
8e+07	0.03190157	0.00662147	1.586188e-10	-4.837558e-10	0.006583758	0.0085975	1.253491e-08	-4.75477e-10
	1.586189e-10	-4.837558e-10	0.03114846	0.006481088	-1.598407e-10	-3.613299e-10	0.006817204	0.008682859
	0.006583758	0.008597494	-1.598407e-10	-3.6133e-10	0.03117668	0.006570889	3.391471e-09	1.283324e-09
	1.253491e-08	-4.75477e-10	0.006817199	0.008682862	3.391471e-09	1.283324e-09	0.03122629	0.006544671
9e+07	0.03371098	0.004738532	1.424276e-10	-5.309574e-10	0.007964603	0.008845893	9.795649e-09	-2.614515e-09
	1.424276e-10	-5.309575e-10	0.03290836	0.004800434	-1.905506e-10	-3.993064e-10	0.008185389	0.008875066
	0.007964602	0.008845889	-1.905506e-10	-3.993064e-10	0.03298036	0.004849161	2.301779e-09	-1.226461e-09
	9.795649e-09	-2.614515e-09	0.008185386	0.008875069	2.301779e-09	-1.226461e-09	0.03299903	0.004846044
1e+08	0.03517308	0.002577807	8.335833e-11	-6.665116e-10	0.009361067	0.008871045	7.823068e-09	-3.450071e-09
	8.335833e-11	-6.665116e-10	0.03439041	0.002874108	-1.96675e-10	-4.450343e-10	0.009540818	0.008837004
	0.009361067	0.008871045	-1.96675e-10	-4.450343e-10	0.03449787	0.002871643	8.821577e-10	-2.995677e-09
	7.823068e-09	-3.450071e-09	0.009540818	0.008837004	8.821577e-10	-2.995677e-09	0.0344873	0.002898414
1.1e+08	0.03625737	0.0002262377	7.408177e-11	-7.537443e-10	0.01074129	0.008653278	8.073156e-09	-5.043585e-09
	7.408177e-11	-7.537443e-10	0.03559171	0.0006620736	-2.130539e-10	-4.572105e-10	0.01083915	0.008607368
	0.01074129	0.008653278	-2.130539e-10	-4.572105e-10	0.03572357	0.0006062018	9.004357e-10	-3.489553e-09
	8.073156e-09	-5.043585e-09	0.01083915	0.008607368	9.004357e-10	-3.489553e-09	0.03568792	0.000670374
1.2e+08	0.03698296	-0.002263323	5.610012e-11	-8.432004e-10	0.01204721	0.00821131	8.040219e-09	-6.765507e-09
	5.610012e-11	-8.432004e-10	0.03640885	-0.001732996	-2.199685e-10	-4.737971e-10	0.0120822	0.008181174
	0.01204721	0.008211311	-2.199685e-10	-4.737971e-10	0.03655919	-0.001844474	8.710665e-10	-4.00196e-09
	8.040219e-09	-6.765507e-09	0.0120822	0.008181174	8.710665e-10	-4.00196e-09	0.03650431	-0.001738505
1.3e+08	0.03733452	-0.004843748	2.999614e-11	-9.310666e-10	0.01324881	0.007564348	7.697887e-09	-8.55408e-09
	2.999614e-11	-9.310666e-10	0.03684593	-0.004239391	-2.217214e-10	-4.885972e-10	0.01323215	0.007564594
	0.01324881	0.007564348	-2.217214e-10	-4.885972e-10	0.03700716	-0.004408788	7.90085e-10	-4.52611e-09
	7.697887e-09	-8.55408e-09	0.01323215	0.007564594	7.90085e-10	-4.52611e-09	0.03693931	-0.004257731
1.4e+08	0.03730793	-0.007461749	-4.050136e-12	-1.01637e-09	0.01431594	0.006733339	7.027345e-09	-1.035089e-08
	-4.050137e-12	-1.01637e-09	0.03690219	-0.006798154	-2.178406e-10	-5.029453e-10	0.0142582	0.006774257
	0.01431594	0.00673334	-2.178406e-10	-5.029453e-10	0.03706627	-0.007026656	6.540297e-10	-5.053027e-09
	7.027345e-09	-1.035089e-08	0.0142582	0.006774257	6.540297e-10	-5.053027e-09	0.03699204	-0.006828383
1.5e+08	0.0369061	-0.01006367	-4.580511e-11	-1.097982e-09	0.01522168	0.005743312	6.020523e-09	-1.209325e-08
	-4.580511e-11	-1.097982e-09	0.03658173	-0.00935298	-2.081598e-10	-5.18152e-10	0.0151335	0.005832164
	0.01522168	0.005743312	-2.081598e-10	-5.18152e-10	0.03674049	-0.009640502	4.60993e-10	-5.572806e-09
	6.020523e-09	-1.209325e-08	0.0151335	0.005832164	4.60993e-10	-5.572806e-09	0.03666668	-0.009394052
1.6e+08	0.03613875	-0.01259679	-9.490576e-11	-1.174698e-09	0.01594329	0.00462307	4.680967e-09	-1.371634e-08
	-9.490576e-11	-1.174698e-09	0.03589473	-0.01184972	-1.927772e-10	-5.355214e-10	0.01583544	0.004764561
	0.01594329	0.00462307	-1.927772e-10	-5.355214e-10	0.03604004	-0.01219486	2.10857e-10	-6.075001e-09
	4.680967e-09	-1.371634e-08	0.01583544	0.004764561	2.10857e-10	-6.075001e-09	0.03597354	-0.01190047
1.7e+08	0.03502234	-0.01501034	-1.508194e-10	-1.245285e-09	0.01646287	0.003404557	3.024319e-09	-1.515534e-08
	-1.508194e-10	-1.245285e-09	0.03485771	-0.01423677	-1.72045e-10	-5.563234e-10	0.0163461	0.003601063
	0.01646287	0.003404557	-1.72045e-10	-5.563234e-10	0.03498169	-0.01463678	-9.457703e-11	-6.548972e-09
	3.024319e-09	-1.515534e-08	0.0163461	0.003601063	-9.457703e-11	-6.548972e-09	0.03492929	-0.0142959
1.8e+08	0.03357985	-0.01725643	-2.128165e-10	-1.308513e-09	0.01676784	0.002122084	1.078377e-09	-1.634771e-08
	-2.128165e-10	-1.308513e-09	0.03349346	-0.01646577	-1.465605e-10	-5.817548e-10	0.01665266	0.0023738
	0.01676784	0.002122084	-1.465605e-10	-5.817548e-10	0.03358868	-0.01691655	-4.515304e-10	-6.984239e-09
	1.078377e-09	-1.634771e-08	0.01665266	0.0023738	-4.515304e-10	-6.984239e-09	0.03355693	-0.01653187
1.9e+08	0.03184047	-0.01929094	-2.802376e-10	-1.363191e-09	0.0168513	0.000811452	-1.117251e-09	-1.723537e-08
	-2.802376e-10	-1.363191e-09	0.0318308	-0.01849231	-1.172336e-10	-6.129414e-10	0.0167477	0.001116541
	0.0168513	0.0008114521	-1.172336e-10	-6.129414e-10	0.03189049	-0.01898848	-8.545414e-10	-7.37085e-09
	-1.117251e-09	-1.723537e-08	0.0167477	0.001116541	-8.545414e-10	-7.37085e-09	0.03188546	-0.01856387
2e+08	0.02983906	-0.02107443	-3.518173e-10	-1.408077e-09	0.01671217	-0.0004909563	-3.511913e-09	-1.776691e-08
	-3.518173e-10	-1.408077e-09	0.02990402	-0.02027677	-8.508476e-11	-6.5076e-10	0.01662935	-0.0001362097
	0.01671217	-0.0004909562	-8.508476e-11	-6.5076e-10	0.02992236	-0.0208117	-1.295875e-09	-7.699607e-09
	-3.511913e-09	-1.776691e-08	0.01662935	-0.0001362097	-1.295875e-09	-7.699607e-09	0.02994944	-0.0203522
2.1e+08	0.02761549	-0.02257286	-4.258696e-10	-1.442143e-09	0.01635526	-0.001749125	-6.045062e-09	-1.78996e-08
	-4.258696e-10	-1.442143e-09	0.02775233	-0.02178496	-5.125993e-11	-6.959021e-10	0.01630137	-0.001350119
	0.01635526	-0.001749125	-5.125993e-11	-6.959021e-10	0.0277246	-0.02235095	-1.765855e-09	-7.962642e-09
	-6.045062e-09	-1.78996e-08	0.01630137	-0.001350119	-1.765855e-09	-7.962642e-09	0.02778828	-0.02186262
2.2e+08	0.02521386	-0.02375834	-5.006709e-10	-1.464584e-09	0.01579108	-0.002928338	-8.647747e-09	-1.760122e-08
	-5.006709e-10	-1.464584e-09	0.02541902	-0.02298876	-1.71078e-11	-7.488791e-10	0.01577297	-0.002491931
	0.01579108	-0.002928338	-1.71078e-11	-7.488791e-10	0.02534188	-0.02357721	-2.253445e-09	-8.153703e-09
	-8.647747e-09	-1.760122e-08	0.01577297	-0.002491931	-2.253445e-09	-8.153703e-09	0.02544557	-0.02306701
2.3e+08	0.02268165	-0.02460961	-5.742567e-10	-1.474848e-09	0.01503563	-0.003996084	-1.124445e-08	-1.685159e-08
	-5.742567e-10	-1.474848e-09	0.02295068	-0.02386668	1.59207e-11	-8.09953e-10	0.01505864	-0.003530335
	0.01503563	-0.003996084	1.59207e-11	-8.09953e-10	0.0228223	-0.0244683	-2.746297e-09	-8.268425e-09
	-1.124445e-08	-1.685159e-08	0.01505864	-0.003530335	-2.746297e-09	-8.268425e-09	0.02296814	-0.02394389
2.4e+08	0.02006869	-0.02511255	-6.444529e-10	-1.472708e-09	0.01410991	-0.00492291	-1.375519e-08	-1.564388e-08
	-6.444529e-10	-1.472708e-09	0.02039615	-0.02440417	4.631826e-11	-8.791185e-10	0.01417767	-0.004436784
	0.01410991	-0.00492291	4.631826e-11	-8.791185e-10	0.02021639	-0.02500928	-3.231069e-09	-8.304597e-09
	-1.375519e-08	-1.564388e-08	0.01417767	-0.004436784	-3.231069e-09	-8.304597e-09	0.0204051	-0.02447878
2.5e+08	0.01742614	-0.02526038	-7.089244e-10	-1.458324e-09	0.01303939	-0.005683187	-1.609787e-08	-1.398547e-08
	-7.089244e-10	-1.458324e-09	0.01780562	-0.02459393	7.257073e-11	-9.560921e-10	0.01315375	-0.005186242
	0.01303939	-0.005683187	7.257073e-11	-9.560921e-10	0.01757607	-0.02519273	-3.693801e-09	-8.262376e-09
	-1.609787e-08	-1.398547e-08	0.01315375	-0.005186242	-3.693801e-09	-8.262376e-09	0.01780688	-0.02466449
2.6e+08	0.01480544	-0.02505383	-7.652474e-10	-1.432309e-09	0.01185333	-0.006255786	-1.819079e-08	-1.189842e-08
	-7.652474e-10	-1.432309e-09	0.0152295	-0.02443598	9.32077e-11	-1.040312e-09	0.01201422	-0.005757838
	0.01185333	-0.006255786	9.32077e-11	-1.040312e-09	0.01495355	-0.02501888	-4.120337e-09	-8.144437e-09
	-1.819079e-08	-1.189842e-08	0.01201422	-0.005757838	-4.120337e-09	-8.144437e-09	0.01522414	-0.0245012
2.7e+08	0.01225716	-0.02450106	-8.11001e-10	-1.395777e-09	0.01058401	-0.006624628	-1.995524e-08	-9.419508e-09
	-8.11001e-10	-1.395777e-09	0.01271741	-0.02393763	1.068532e-10	-1.130948e-09	0.01078947	-0.006135405
	0.01058401	-0.006624628	1.068532e-10	-1.130948e-09	0.01240024	-0.02449557	-4.496785e-09	-7.956041e-09
	-1.995524e-08	-9.419508e-09	0.01078947	-0.006135405	-4.496785e-09	-7.956041e-09	0.01270671	-0.0239964
2.8e+08	0.00983001	-0.02361749	-8.438774e-10	-1.350365e-09	0.00926584	-0.006779104	-2.131818e-08	-6.599852e-09
	-8.438774e-10	-1.350365e-09	0.01031718	-0.02311322	1.12274e-10	-1.226915e-09	0.009512019	-0.006307908
	0.00926584	-0.006779104	1.12274e-10	-1.226915e-09	0.009965611	-0.023638	-4.809994e-09	-7.705032e-09
	-2.131818e-08	-6.599852e-09	0.009512019	-0.006307908	-4.809994e-09	-7.705032e-09	0.0103026	-0.02316466
2.9e+08	0.00756973	-0.02242539	-8.61803e-10	-1.298236e-09	0.007934473	-0.006714351	-2.221479e-08	-3.503971e-09
	-8.61803e-10	-1.298236e-09	0.008073769	-0.02198384	1.084249e-10	-1.326904e-09	0.008215762	-0.00626972
	0.007934473	-0.006714351	1.084249e-10	-1.326904e-09	0.007696195	-0.02246841	-5.048039e-09	-7.401728e-09
	-2.221479e-08	-3.503971e-09	0.008215762	-0.00626972	-5.048039e-09	-7.401728e-09	0.008056908	-0.02202733
3e+08	0.005518161	-0.02095343	-8.630657e-10	-1.242049e-09	0.006625838	-0.006431369	-2.259094e-08	-2.084464e-10
	-8.630657e-10	-1.242049e-09	0.006028417	-0.02057676	9.448877e-11	-1.429412e-09	0.006935003	-0.006020764
	0.006625838	-0.006431369	9.448877e-11	-1.429412e-09	0.005634546	-0.0210155	-5.200698e-09	-7.058724e-09
	-2.259094e-08	-2.084464e-10	0.006935003	-0.006020764	-5.200698e-09	-7.058724e-09	0.006010968	-0.02061195
3.1e+08	0.003712356	-0.01923596	-8.464389e-10	-1.184895e-09	0.005375189	-0.005936986	-2.240537e-08	3.199896e-09
	-8.464389e-10	-1.184895e-09	0.004217739	-0.01892485	6.991021e-11	-1.532786e-09	0.005703582	-0.00556651
	0.005375189	-0.005936986	6.991021e-11	-1.532786e-09	0.003818374	-0.01931383	-5.259889e-09	-6.690606e-09
	-2.240537e-08	3.199896e-09	0.005703582	-0.00556651	-5.259889e-09	-6.690606e-09	0.004201447	-0.0189517
3.2e+08	0.002183781	-0.01731229	-8.112927e-10	-1.1302e-09	0.004216164	-0.005243666	-2.163166e-08	6.626205e-09
	-8.112927e-10	-1.1302e-09	0.002672991	-0.01706578	3.442183e-11	-1.635266e-09	0.004553975	-0.004917817
	0.004216164	-0.005243666	3.442183e-11	-1.635266e-09	0.002279728	-0.01740297	-5.22006e-09	-6.313564e-09
	-2.163166e-08	6.626205e-09	0.004553975	-0.004917817	-5.22006e-09	-6.313564e-09	0.0026596	-0.01708454
3.3e+08	0.0009576763	-0.01522574	-7.576831e-10	-1.081599e-09	0.003179892	-0.004369167	-2.025969e-08	9.970186e-09
	-7.576831e-10	-1.081599e-09	0.001419443	-0.01504123	-1.193738e-11	-1.735039e-09	0.003516447	-0.004090635
	0.003179892	-0.004369167	-1.193738e-11	-1.735039e-09	0.001044342	-0.0153266	-5.078504e-09	-5.944942e-09
	-2.025969e-08	9.970186e-09	0.003516447	-0.004090635	-5.078504e-09	-5.944942e-09	0.001410639	-0.01505246
3.4e+08	5.253687e-05	-0.01302273	-6.864124e-10	-1.042787e-09	0.002294168	-0.003336056	-1.829673e-08	1.312896e-08
	-6.864124e-10	-1.042787e-09	0.0004758786	-0.0128959	-6.881266e-11	-1.830289e-09	0.00261825	-0.003105579
	0.002294168	-0.003336056	-6.881266e-11	-1.830289e-09	0.0001311067	-0.01313155	-4.835594e-09	-5.602709e-09
	-1.829673e-08	1.312896e-08	0.00261825	-0.003105579	-4.835594e-09	-5.602709e-09	0.0004732482	-0.01290042
3.5e+08	-0.0005202515	-0.01075167	-5.990514e-10	-1.017351e-09	0.001582718	-0.002171095	-1.576794e-08	1.600015e-08
	-5.990514e-10	-1.017351e-09	-0.0001457607	-0.01067651	-1.355331e-10	-1.919253e-09	0.001882921	-0.001987367
	0.001582718	-0.002171095	-1.355331e-10	-1.919253e-09	-0.0004482941	-0.01086669	-4.494906e-09	-5.304898e-09
	-1.576794e-08	1.600015e-08	0.001882921	-0.001987367	-4.494906e-09	-5.304898e-09	-0.0001407842	-0.01067545
3.6e+08	-0.0007566139	-0.00846195	-4.979237e-10	-1.008598e-09	0.001064577	-0.0009045238	-1.27162e-08	1.848463e-08
	-4.979237e-10	-1.008598e-09	-0.0004405675	-0.008430814	-2.11139e-10	-2.000244e-09	0.001329667	-0.0007641681
	0.001064577	-0.0009045239	-2.11139e-10	-2.000244e-09	-0.0006895916	-0.00858186	-4.063183e-09	-5.069118e-09
	-1.27162e-08	1.848463e-08	0.001329667	-0.0007641681	-4.063183e-09	-5.069118e-09	-0.0004267476	-0.00842552
3.7e+08	-0.000659821	-0.006202764	-3.860413e-10	-1.019387e-09	0.000753593	0.0004307599	-9.202186e-09	2.049073e-08
	-3.860413e-10	-1.019387e-09	-0.0004107147	-0.006206492	-2.943423e-10	-2.071818e-09	0.000972873	0.000533158
	0.000753593	0.0004307599	-2.943423e-10	-2.071818e-09	-0.000595959	-0.006326757	-3.550431e-09	-4.911693e-09
	-9.202186e-09	2.049073e-08	0.000972873	0.000533158	-3.550431e-09	-4.911693e-09	-0.0003870511	-0.006198521
3.8e+08	-0.0002403596	-0.00402207	-2.670079e-10	-1.051976e-09	0.0006580677	0.001800078	-5.302511e-09	2.193653e-08
	-2.670079e-10	-1.051976e-09	-6.533716e-05	-0.004050132	-3.836159e-10	-2.132701e-09	0.0008217385	0.001871873
	0.0006580678	0.001800078	-3.836159e-10	-2.132701e-09	-0.0001778828	-0.004149799	-2.969511e-09	-4.847284e-09
	-5.302511e-09	2.193653e-08	0.0008217385	0.001871873	-2.969511e-09	-4.847284e-09	-3.109945e-05	-0.004041206
3.9e+08	0.0004843597	-0.00196552	-1.448833e-10	-1.107899e-09	0.0007805551	0.003167901	-1.108156e-09	2.275278e-08
	-1.448833e-10	-1.107899e-09	0.0005797377	-0.002006211	-4.772103e-10	-2.181863e-09	0.0008800517	0.003218227
	0.0007805551	0.003167901	-4.772103e-10	-2.181863e-09	0.0005471387	-0.002097067	-2.335869e-09	-4.888354e-09
	-1.108156e-09	2.275278e-08	0.0008800517	0.003218227	-2.335869e-09	-4.888354e-09	0.0006249842	-0.001998171
4e+08	0.00149045	-7.545286e-05	-2.401961e-11	-1.187874e-09	0.001117805	0.00449879	3.277699e-09	2.288551e-08
	-2.401961e-11	-1.187874e-09	0.001502408	-0.000116137	-5.731913e-10	-2.218569e-09	0.001146107	0.004538345
	0.001117805	0.00449879	-5.731913e-10	-2.218569e-09	0.001555054	-0.0002112955	-1.667131e-09	-5.044689e-09
	3.277699e-09	2.288551e-08	0.001146107	0.004538345	-1.667131e-09	-5.044689e-09	0.001558785	-0.0001108908
4.1e+08	0.00274814	0.001610016	9.111854e-11	-1.291751e-09	0.001660866	0.00575834	7.742327e-09	2.22981e-08
	9.111853e-11	-1.291751e-09	0.002674853	0.001582634	-6.694903e-10	-2.242409e-09	0.001612768	0.005799117
	0.001660866	0.00575834	-6.694903e-10	-2.242409e-09	0.002815861	0.001469063	-9.826172e-10	-5.323031e-09
	7.742327e-09	2.22981e-08	0.001612768	0.005799117	-9.826172e-10	-5.323031e-09	0.002742158	0.001583163
4.2e+08	0.004222495	0.003057806	1.961415e-10	-1.418509e-09	0.002395335	0.00691408	1.216647e-08	2.097295e-08
	1.961415e-10	-1.418509e-09	0.004064208	0.003057376	-7.63959e-10	-2.253325e-09	0.002267671	0.006969056
	0.002395335	0.00691408	-7.63959e-10	-2.253325e-09	0.004294337	0.002910657	-3.027836e-10	-5.726803e-09
	1.216647e-08	2.097295e-08	0.002267671	0.006969056	-3.027836e-10	-5.726803e-09	0.004141916	0.003051306
4.3e+08	0.005874247	0.004240571	2.869164e-10	-1.566287e-09	0.003301753	0.007936335	1.642765e-08	1.891256e-08
	2.869164e-10	-1.566287e-09	0.005633348	0.004280771	-8.544298e-10	-2.251626e-09	0.003093566	0.008019114
	0.003301753	0.007936335	-8.544298e-10	-2.251626e-09	0.00595089	0.004085937	3.51366e-10	-6.255936e-09
	1.642765e-08	1.891256e-08	0.003093566	0.008019114	3.51366e-10	-6.255936e-09	0.00572062	0.004266312
4.4e+08	0.007660722	0.005137248	3.597337e-10	-1.732471e-09	0.004356131	0.008798993	2.040357e-08	1.614e-08
	3.597337e-10	-1.732471e-09	0.007341762	0.005231443	-9.387781e-10	-2.237991e-09	0.00406878	0.008923433
	0.004356131	0.008798993	-9.387781e-10	-2.237991e-09	0.007742494	0.004973714	9.588899e-10	-6.906819e-09
	2.040357e-08	1.614e-08	0.00406878	0.008923433	9.588899e-10	-6.906819e-09	0.007437463	0.005206952
4.5e+08	0.009536832	0.005733477	4.114479e-10	-1.913796e-09	0.005530588	0.009480187	2.397564e-08	1.269883e-08
	4.114479e-10	-1.913796e-09	0.009146487	0.005894371	-1.014987e-09	-2.213462e-09	0.005167794	0.009660003
	0.005530588	0.009480187	-1.014987e-09	-2.213462e-09	0.009623699	0.005559577	1.499514e-09	-7.672344e-09
	2.397564e-08	1.269883e-08	0.005167794	0.009660003	1.499514e-09	-7.672344e-09	0.009249211	0.005858399
4.6e+08	0.01145611	0.006021846	4.395993e-10	-2.10648e-09	0.006794095	0.00996286	2.703245e-08	8.652405e-09
	4.395993e-10	-2.10648e-09	0.01100309	0.006261141	-1.081206e-09	-2.17943e-09	0.006361917	0.01021122
	0.006794095	0.00996286	-1.081206e-09	-2.17943e-09	0.01154768	0.005836141	1.954225e-09	-8.54205e-09
	2.703245e-08	8.652405e-09	0.006361917	0.01021122	1.954225e-09	-8.54205e-09	0.01111119	0.006212477
4.7e+08	0.0133718	0.006001959	4.402536e-10	-2.307996e-09	0.008113292	0.0102352	2.946856e-08	4.080932e-09
	4.402536e-10	-2.307996e-09	0.01286668	0.006330058	-1.136076e-09	-2.137591e-09	0.007620039	0.01056434
