!$
! Info: Touchstone file created by Circ.  Input file=Tx_8in_Rx_100ohms_TxVia_10mils_RxVia_20mils.circ
!$
# Hz S RI R 50
0	0.008372987	5.978588e-26	3.224341e-09	3.562834e-27	5.466362e-05	8.528952e-24	-3.530142e-09	4.657607e-25
	3.224333e-09	3.56299e-27	0.008372588	7.606876e-26	-3.093378e-09	4.272263e-25	5.410677e-05	1.188651e-23
	5.693701e-05	8.54863e-24	-3.091448e-09	4.269876e-25	0.008365456	5.21915e-26	1.255669e-08	1.464908e-29
	-3.527417e-09	4.654252e-25	5.556307e-05	1.223407e-23	1.255678e-08	1.448987e-29	0.008378179	7.255937e-26
1e+07	0.01222541	0.005469647	5.13555e-09	7.952658e-09	0.0004895614	0.001509858	9.98437e-09	5.629022e-08
	5.135551e-09	7.952659e-09	0.01222343	0.005468027	1.749791e-10	5.772568e-08	0.0004872464	0.001510424
	0.0004896099	0.001509832	1.749793e-10	5.772568e-08	0.01211771	0.005481886	-1.010316e-08	4.517735e-08
	9.984371e-09	5.629022e-08	0.0004872791	0.001510412	-1.010316e-08	4.517735e-08	0.01211577	0.005480197
2e+07	0.01576478	0.008017235	8.170837e-09	1.374678e-08	0.0007455329	0.003111328	2.924604e-08	7.464986e-08
	8.170836e-09	1.374678e-08	0.01575661	0.008014421	4.624424e-09	7.999285e-08	0.0007366714	0.003113847
	0.0007455255	0.003111303	4.624425e-09	7.999285e-08	0.01569154	0.008082095	-4.942904e-09	4.60642e-08
	2.924604e-08	7.464986e-08	0.000736669	0.003113826	-4.942905e-09	4.60642e-08	0.0156838	0.008079418
3e+07	0.01886315	0.00918108	1.184207e-08	1.86624e-08	0.00125545	0.004505423	5.94747e-08	8.863414e-08
	1.184207e-08	1.86624e-08	0.01884436	0.00917877	1.309265e-08	1.055014e-07	0.001236248	0.004512154
	0.001255451	0.00450542	1.309265e-08	1.055014e-07	0.01882012	0.009266301	9.877009e-10	5.301183e-08
	5.94747e-08	8.863414e-08	0.001236243	0.004512151	9.877008e-10	5.301183e-08	0.01880306	0.009264005
4e+07	0.02173744	0.009609828	1.60303e-08	2.250137e-08	0.002006728	0.00574712	9.203535e-08	9.454144e-08
	1.60303e-08	2.250137e-08	0.02170408	0.009610885	2.020706e-08	1.295144e-07	0.001973979	0.005761167
	0.002006732	0.005747116	2.020706e-08	1.295144e-07	0.02172291	0.009703479	8.864191e-09	5.8154e-08
	9.203535e-08	9.454144e-08	0.001973979	0.005761168	8.864191e-09	5.8154e-08	0.02169243	0.009703792
5e+07	0.02442745	0.009470568	2.05006e-08	2.518559e-08	0.003073394	0.006767434	1.262527e-07	9.281598e-08
	2.05006e-08	2.518559e-08	0.02437633	0.0094788	2.601845e-08	1.529979e-07	0.003024626	0.00679247
	0.003073395	0.006767431	2.601845e-08	1.529979e-07	0.0244383	0.009565108	1.803977e-08	6.014273e-08
	1.262527e-07	9.281598e-08	0.003024626	0.00679247	1.803977e-08	6.014273e-08	0.02439122	0.009571954
6e+07	0.02692739	0.008852779	2.505785e-08	2.670852e-08	0.004268826	0.007592068	1.612017e-07	8.284781e-08
	2.505785e-08	2.670852e-08	0.02685626	0.008872724	3.103539e-08	1.762162e-07	0.004202516	0.007632428
	0.004268826	0.007592069	3.103539e-08	1.762162e-07	0.02696064	0.008943059	2.757942e-08	5.888635e-08
	1.612017e-07	8.284781e-08	0.004202513	0.007632429	2.757943e-08	5.888635e-08	0.02689517	0.008960781
7e+07	0.02921482	0.007818984	2.946994e-08	2.705942e-08	0.005562106	0.008205952	1.953078e-07	6.410296e-08
	2.946994e-08	2.705942e-08	0.02912249	0.007855656	3.555639e-08	1.991689e-07	0.005477725	0.008266305
	0.005562106	0.008205956	3.555638e-08	1.991689e-07	0.02926758	0.007900755	3.653722e-08	5.470145e-08
	1.953078e-07	6.410296e-08	0.00547772	0.008266307	3.653722e-08	5.470145e-08	0.02918272	0.007933689
8e+07	0.03126204	0.006422463	3.349184e-08	2.626615e-08	0.00691915	0.008597708	2.266489e-07	3.647879e-08
	3.349184e-08	2.626615e-08	0.03114846	0.006481088	3.97483e-08	2.218182e-07	0.006817204	0.008682859
	0.006919152	0.008597712	3.974829e-08	2.218182e-07	0.03133103	0.00649191	4.414848e-08	4.812369e-08
	2.266489e-07	3.647879e-08	0.006817199	0.008682862	4.414848e-08	4.812369e-08	0.03122629	0.006544671
9e+07	0.03304214	0.004714642	3.687758e-08	2.44048e-08	0.008303344	0.008760373	2.531935e-07	3.785539e-10
	3.687758e-08	2.44048e-08	0.03290836	0.004800434	4.364513e-08	2.441744e-07	0.008185389	0.008875066
	0.008303345	0.008760375	4.364513e-08	2.441744e-07	0.03312334	0.004768346	4.9887e-08	3.981179e-08
	2.531935e-07	3.785537e-10	0.008185386	0.008875069	4.9887e-08	3.981179e-08	0.03299903	0.004846044
1e+08	0.03454221	0.002756171	3.939131e-08	2.160428e-08	0.009672202	0.008688271	2.729783e-07	-4.329903e-08
	3.939131e-08	2.160428e-08	0.03439041	0.002874108	4.728793e-08	2.662035e-07	0.009540818	0.008837004
	0.009672202	0.008688271	4.728793e-08	2.662035e-07	0.03462964	0.002790323	5.349318e-08	3.04641e-08
	2.729783e-07	-4.329903e-08	0.009540818	0.008837004	5.349318e-08	3.04641e-08	0.0344873	0.002898414
1.1e+08	0.03575911	0.000506169	4.084131e-08	1.805636e-08	0.01098083	0.008420911	2.859377e-07	-9.163048e-08
	4.084131e-08	1.805636e-08	0.03559171	0.0006620736	4.843847e-08	2.894634e-07	0.01083915	0.008607368
	0.01098083	0.008420911	4.843847e-08	2.894634e-07	0.03584563	0.0005267912	5.543204e-08	2.583442e-08
	2.859377e-07	-9.163048e-08	0.01083915	0.008607368	5.543204e-08	2.583442e-08	0.03568792	0.000670374
1.2e+08	0.03658697	-0.001930751	4.106518e-08	1.395752e-08	0.01222942	0.007953424	2.896306e-07	-1.4485e-07
	4.106518e-08	1.395752e-08	0.03640885	-0.001732996	4.898543e-08	3.127133e-07	0.0120822	0.008181174
	0.01222942	0.007953424	4.898543e-08	3.127133e-07	0.03667244	-0.001921425	5.572521e-08	2.047417e-08
	2.896306e-07	-1.4485e-07	0.0120822	0.008181174	5.572521e-08	2.047417e-08	0.03650431	-0.001738505
1.3e+08	0.03702925	-0.004481918	3.993642e-08	9.544491e-09	0.01337945	0.007293039	2.82918e-07	-2.011907e-07
	3.993642e-08	9.544491e-09	0.03684593	-0.004239391	4.895494e-08	3.360609e-07	0.01323215	0.007564594
	0.01337945	0.007293038	4.895494e-08	3.360609e-07	0.0371124	-0.004482709	5.420509e-08	1.469935e-08
	2.82918e-07	-2.011907e-07	0.01323215	0.007564594	5.420509e-08	1.469935e-08	0.03693931	-0.004257731
1.4e+08	0.03708467	-0.007087369	3.737093e-08	5.077496e-09	0.01439963	0.006457492	2.649907e-07	-2.586503e-07
	3.737093e-08	5.077496e-09	0.03690219	-0.006798154	4.838092e-08	3.596136e-07	0.0142582	0.006774257
	0.01439963	0.006457492	4.838092e-08	3.596136e-07	0.03716428	-0.007097094	5.076042e-08	8.858216e-09
	2.649907e-07	-2.586503e-07	0.0142582	0.006774257	5.076042e-08	8.858216e-09	0.03699204	-0.006828383
1.5e+08	0.03675696	-0.009689709	3.333182e-08	8.344601e-10	0.01526278	0.005469956	2.354144e-07	-3.150568e-07
	3.333182e-08	8.344601e-10	0.03658173	-0.00935298	4.731007e-08	3.834739e-07	0.0151335	0.005832164
	0.01526278	0.005469956	4.731007e-08	3.834739e-07	0.03683203	-0.009707126	4.534311e-08	3.322783e-09
	2.354144e-07	-3.150568e-07	0.0151335	0.005832164	4.534311e-08	3.322783e-09	0.03666668	-0.009394052
1.6e+08	0.03605607	-0.01223362	2.783329e-08	-2.897092e-09	0.01594618	0.004357887	1.94164e-07	-3.681387e-07
	2.783329e-08	-2.897092e-09	0.03589473	-0.01184972	4.580306e-08	4.077378e-07	0.01583544	0.004764561
	0.01594618	0.004357887	4.580306e-08	4.077378e-07	0.03612581	-0.01225746	3.797357e-08	-1.522212e-09
	1.94164e-07	-3.681387e-07	0.01583544	0.004764561	3.797357e-08	-1.522212e-09	0.03597354	-0.01190047
1.7e+08	0.03499849	-0.01466627	2.094303e-08	-5.82919e-09	0.01643199	0.003152133	1.416442e-07	-4.156015e-07
	2.094303e-08	-5.82919e-09	0.03485771	-0.01423677	4.393485e-08	4.324926e-07	0.0163461	0.003601063
	0.01643199	0.003152133	4.393485e-08	4.324926e-07	0.03506232	-0.01469527	2.874392e-08	-5.29173e-09
	1.416442e-07	-4.156015e-07	0.0163461	0.003601063	2.874392e-08	-5.29173e-09	0.03492929	-0.0142959
1.8e+08	0.0336072	-0.01693802	1.278285e-08	-7.683155e-09	0.01670771	0.001886047	7.869456e-08	-4.552077e-07
	1.278285e-08	-7.683155e-09	0.03349346	-0.01646577	4.179441e-08	4.578146e-07	0.01665266	0.0023738
	0.01670771	0.001886046	4.179441e-08	4.578146e-07	0.03366474	-0.01697091	1.78187e-08	-7.613589e-09
	7.869456e-08	-4.552077e-07	0.01665266	0.0023738	1.78187e-08	-7.613589e-09	0.03355693	-0.01653187
1.9e+08	0.03191142	-0.01900324	3.527555e-09	-8.199567e-09	0.01676644	0.0005945705	6.580543e-09	-4.848575e-07
	3.527555e-09	-8.199567e-09	0.0318308	-0.01849231	3.948368e-08	4.837663e-07	0.0167477	0.001116541
	0.01676644	0.0005945704	3.948368e-08	4.837663e-07	0.03196248	-0.01903878	5.433235e-09	-8.141868e-09
	6.580543e-09	-4.848575e-07	0.0167477	0.001116541	5.433235e-09	-8.141868e-09	0.03188546	-0.01856387
2e+08	0.02994611	-0.02082108	-6.598091e-09	-7.148101e-09	0.0166071	-0.0006867039	-7.30311e-08	-5.026682e-07
	-6.598091e-09	-7.148101e-09	0.02990402	-0.02027677	3.711595e-08	5.103943e-07	0.01662935	-0.0001362097
	0.0166071	-0.0006867039	3.711595e-08	5.103943e-07	0.02999066	-0.02085807	-8.110639e-09	-6.570081e-09
	-7.30311e-08	-5.026682e-07	0.01662935	-0.0001362097	-8.110639e-09	-6.570081e-09	0.02994944	-0.0203522
2.1e+08	0.02775134	-0.02235626	-1.732419e-08	-4.336917e-09	0.01623437	-0.001922487	-1.581112e-07	-5.070482e-07
	-1.732419e-08	-4.336917e-09	0.02775233	-0.02178496	3.481354e-08	5.377265e-07	0.01630137	-0.001350119
	0.01623437	-0.001922487	3.481354e-08	5.377265e-07	0.02778953	-0.02239353	-2.24512e-08	-2.643653e-09
	-1.581112e-07	-5.070482e-07	0.01630137	-0.001350119	-2.24512e-08	-2.643653e-09	0.02778828	-0.02186262
2.2e+08	0.02537153	-0.02357974	-2.834231e-08	3.787537e-10	0.01565864	-0.003078733	-2.463204e-07	-4.967639e-07
	-2.834231e-08	3.787537e-10	0.02541902	-0.02298876	3.2705e-08	5.657703e-07	0.01577297	-0.002491931
	0.01565864	-0.003078733	3.2705e-08	5.657703e-07	0.02540365	-0.02361618	-3.717585e-08	3.828729e-09
	-2.463204e-07	-4.967639e-07	0.01577297	-0.002491931	-3.717585e-08	3.828729e-09	0.02544557	-0.02306701
2.3e+08	0.02285452	-0.02446924	-3.931367e-08	7.089124e-09	0.01489568	-0.004123542	-3.350735e-07	-4.709972e-07
	-3.931367e-08	7.089124e-09	0.02295068	-0.02386668	3.092173e-08	5.945112e-07	0.01505864	-0.003530335
	0.01489568	-0.004123542	3.092173e-08	5.945112e-07	0.02288105	-0.02450381	-5.183225e-08	1.296534e-08
	-3.350735e-07	-4.709972e-07	0.01505864	-0.003530335	-5.183225e-08	1.296534e-08	0.02296814	-0.02394389
2.4e+08	0.02025062	-0.02500971	-4.987884e-08	1.582381e-08	0.01396622	-0.00502801	-4.21614e-07	-4.29391e-07
	-4.987884e-08	1.582381e-08	0.02039615	-0.02440417	2.959429e-08	6.239116e-07	0.01417767	-0.004436784
	0.01396622	-0.00502801	2.959429e-08	6.239116e-07	0.02027217	-0.02504146	-6.594126e-08	2.480359e-08
	-4.21614e-07	-4.29391e-07	0.01417767	-0.004436784	-6.594126e-08	2.480359e-08	0.0204051	-0.02447878
2.5e+08	0.01761154	-0.02519359	-5.966861e-08	2.654747e-08	0.01289541	-0.005766994	-5.030966e-07	-3.720816e-07
	-5.966861e-08	2.654747e-08	0.01780562	-0.02459393	2.884834e-08	6.539106e-07	0.01315375	-0.005186242
	0.01289541	-0.005766994	2.884834e-08	6.539106e-07	0.01762889	-0.02522169	-7.901147e-08	3.929452e-08
	-5.030966e-07	-3.720816e-07	0.01315375	-0.005186242	-7.901147e-08	3.929452e-08	0.01780688	-0.02466449
2.6e+08	0.01498932	-0.0250209	-6.831571e-08	3.915746e-08	0.01171216	-0.006319786	-5.766754e-07	-2.997164e-07
	-6.831571e-08	3.915746e-08	0.0152295	-0.02443598	2.880047e-08	6.844246e-07	0.01201422	-0.005757838
	0.01171216	-0.006319786	2.880047e-08	6.844246e-07	0.01500334	-0.02504467	-9.05548e-08	5.629986e-08
	-5.766754e-07	-2.997164e-07	0.01201422	-0.005757838	-9.05548e-08	5.629986e-08	0.01522414	-0.0245012
2.7e+08	0.01243522	-0.02449926	-7.546721e-08	5.348355e-08	0.01044833	-0.006670658	-6.395955e-07	-2.134551e-07
	-7.546721e-08	5.348355e-08	0.01271741	-0.02393763	2.955399e-08	7.153484e-07	0.01078947	-0.006135405
	0.01044833	-0.006670658	2.955399e-08	7.153484e-07	0.01244691	-0.02451817	-1.001028e-07	7.559205e-08
	-6.395955e-07	-2.134551e-07	0.01078947	-0.006135405	-1.001028e-07	7.559205e-08	0.01270671	-0.0239964
2.8e+08	0.009998608	-0.02364363	-8.079693e-08	6.929004e-08	0.009137928	-0.006809283	-6.892844e-07	-1.149557e-07
	-8.079693e-08	6.929004e-08	0.01031718	-0.02311322	3.11949e-08	7.465573e-07	0.009512019	-0.006307908
	0.009137928	-0.006809283	3.11949e-08	7.465573e-07	0.01000904	-0.02365734	-1.072228e-07	9.685707e-08
	-6.892844e-07	-1.149557e-07	0.009512019	-0.006307908	-1.072228e-07	9.685707e-08	0.0103026	-0.02316466
2.9e+08	0.007725965	-0.02247598	-8.401763e-08	8.628012e-08	0.007816156	-0.006731006	-7.234411e-07	-6.343435e-09
	-8.401763e-08	8.628012e-08	0.008073769	-0.02198384	3.378814e-08	7.779101e-07	0.008215762	-0.00626972
	0.007816156	-0.006731006	3.378814e-08	7.779101e-07	0.007736267	-0.02248434	-1.115342e-07	1.197005e-07
	-7.234411e-07	-6.343435e-09	0.008215762	-0.00626972	-1.115342e-07	1.197005e-07	0.008056908	-0.02202733
3e+08	0.005659846	-0.02102476	-8.489245e-08	1.041026e-07	0.0065185	-0.006436965	-7.401195e-07	1.098356e-07
	-8.489245e-08	1.041026e-07	0.006028417	-0.02057676	3.737441e-08	8.092525e-07	0.006935003	-0.006020764
	0.006518499	-0.006436965	3.737441e-08	8.092525e-07	0.00567115	-0.02102782	-1.127231e-07	1.436562e-07
	-7.401195e-07	1.098356e-07	0.006935003	-0.006020764	-1.127231e-07	1.436562e-07	0.006010968	-0.02061195
3.1e+08	0.003838008	-0.01932425	-8.324513e-08	1.223606e-07	0.005279766	-0.005934058	-7.378039e-07	2.306759e-07
	-8.324513e-08	1.223606e-07	0.004217739	-0.01892485	4.196755e-08	8.404217e-07	0.005703582	-0.00556651
	0.005279766	-0.005934058	4.196755e-08	8.404217e-07	0.003851427	-0.01932226	-1.105555e-07	1.681985e-07
	-7.378039e-07	2.306759e-07	0.005703582	-0.00556651	-1.105555e-07	1.681985e-07	0.004201447	-0.0189517
3.2e+08	0.002292599	-0.01741375	-7.89686e-08	1.406229e-07	0.004133162	-0.005234753	-7.154731e-07	3.529867e-07
	-7.89686e-08	1.406229e-07	0.002672991	-0.01706578	4.755284e-08	8.712508e-07	0.004553975	-0.004917817
	0.004133162	-0.005234753	4.755284e-08	8.712508e-07	0.00230919	-0.01740718	-1.048886e-07	1.927558e-07
	-7.154731e-07	3.529867e-07	0.004553975	-0.004917817	-1.048886e-07	1.927558e-07	0.0026596	-0.01708454
3.3e+08	0.001049503	-0.01533672	-7.203158e-08	1.584356e-07	0.0031094	-0.004356747	-6.726518e-07	4.733781e-07
	-7.203158e-08	1.584356e-07	0.001419443	-0.01504123	5.408609e-08	9.015746e-07	0.003516447	-0.004090635
	0.0031094	-0.004356747	5.408609e-08	9.015746e-07	0.001070225	-0.01532621	-9.567965e-08	2.167273e-07
	-6.726518e-07	4.733781e-07	0.003516447	-0.004090635	-9.567965e-08	2.167273e-07	0.001410639	-0.01505246
3.4e+08	0.0001278047	-0.01313977	-6.248285e-08	1.753364e-07	0.00223589	-0.00332249	-6.09447e-07	5.883556e-07
	-6.248285e-08	1.753364e-07	0.0004758786	-0.0128959	6.149378e-08	9.312341e-07	0.00261825	-0.003105579
	0.00223589	-0.00332249	6.149378e-08	9.312341e-07	0.0001534942	-0.01312613	-8.299085e-08	2.395003e-07
	-6.09447e-07	5.883556e-07	0.00261825	-0.003105579	-8.299085e-08	2.395003e-07	0.0004732482	-0.01290042
3.5e+08	-0.0004605822	-0.01087161	-5.045293e-08	1.908689e-07	0.001536006	-0.002158577	-5.265669e-07	6.944211e-07
	-5.045293e-08	1.908689e-07	-0.0001457607	-0.01067651	6.967427e-08	9.600828e-07	0.001882921	-0.001987367
	0.001536006	-0.002158577	6.967427e-08	9.600828e-07	-0.0004292469	-0.0108558	-6.699219e-08	2.604698e-07
	-5.265669e-07	6.944211e-07	0.001882921	-0.001987367	-6.699219e-08	2.604698e-07	-0.0001407842	-0.01067545
3.6e+08	-0.0007111237	-0.008581962	-3.615308e-08	2.045972e-07	0.00102847	-0.0008950319	-4.253236e-07	7.881769e-07
	-3.615308e-08	2.045972e-07	-0.0004405675	-0.008430814	7.849991e-08	9.879908e-07	0.001329667	-0.0007641681
	0.00102847	-0.0008950319	7.849991e-08	9.879908e-07	-0.0006736432	-0.008565059	-4.796004e-08	2.790568e-07
	-4.253236e-07	7.881769e-07	0.001329667	-0.0007641681	-4.796004e-08	2.790568e-07	-0.0004267476	-0.00842552
3.7e+08	-0.0006267099	-0.006320434	-1.987163e-08	2.161203e-07	0.0007268648	0.0004354977	-3.076164e-07	8.664304e-07
	-1.987163e-08	2.161203e-07	-0.0004107147	-0.006206492	8.782021e-08	1.01485e-06	0.000972873	0.000533158
	0.0007268648	0.0004354977	8.782021e-08	1.01485e-06	-0.0005827835	-0.006303595	-2.627248e-08	2.947278e-07
	-3.076164e-07	8.664304e-07	0.000972873	0.000533158	-2.627248e-08	2.947278e-07	-0.0003870511	-0.006198521
3.8e+08	-0.0002175278	-0.004135428	-1.967609e-09	2.250862e-07	0.0006392753	0.001798615	-1.758974e-07	9.262947e-07
	-1.967609e-09	2.250862e-07	-6.533716e-05	-0.004050132	9.746575e-08	1.040579e-06	0.0008217385	0.001871873
	0.0006392753	0.001798615	9.746575e-08	1.040579e-06	-0.0001670664	-0.004119854	-2.401333e-09	3.070126e-07
	-1.758974e-07	9.262947e-07	0.0008217385	0.001871873	-2.401333e-09	3.070126e-07	-3.109945e-05	-0.004041206
3.9e+08	0.0004992267	-0.002073059	1.713803e-08	2.312038e-07	0.00076809	0.003159091	-3.312039e-08	9.652848e-07
	1.713803e-08	2.312038e-07	0.0005797377	-0.002006211	1.072529e-07	1.065124e-06	0.0008800517	0.003218227
	0.00076809	0.003159091	1.072529e-07	1.065124e-06	0.0005560949	-0.002059961	2.309916e-08	3.155206e-07
	-3.312039e-08	9.652848e-07	0.0008800517	0.003218227	2.309916e-08	3.155206e-07	0.0006249842	-0.001998171
4e+08	0.001499797	-0.0001761489	3.697336e-08	2.342539e-07	0.001109947	0.004481803	1.173275e-07	9.814027e-07
	3.697336e-08	2.342539e-07	0.001502408	-0.000116137	1.169889e-07	1.088463e-06	0.001146107	0.004538345
	0.001109947	0.004481803	1.169889e-07	1.088463e-06	0.001562728	-0.000166707	4.960636e-08	3.199547e-07
	1.173275e-07	9.814027e-07	0.001146107	0.004538345	4.960636e-08	3.199547e-07	0.001558785	-0.0001108908
4.1e+08	0.00275446	0.001516708	5.70282e-08	2.340976e-07	0.001655834	0.005732664	2.717084e-07	9.732121e-07
	5.70282e-08	2.340976e-07	0.002674853	0.001582634	1.264777e-07	1.110607e-06	0.001612768	0.005799117
	0.001655834	0.005732664	1.264777e-07	1.110607e-06	0.0028229	0.001521384	7.644568e-08	3.201235e-07
	2.717084e-07	9.732121e-07	0.001612768	0.005799117	7.644568e-08	3.201235e-07	0.002742158	0.001583163
4.2e+08	0.004228248	0.002971967	7.676823e-08	2.306828e-07	0.002391341	0.006879521	4.26028e-07	9.398981e-07
	7.676823e-08	2.306828e-07	0.004064208	0.003057376	1.355253e-07	1.131599e-06	0.002267671	0.006969056
	0.002391341	0.006879521	1.355253e-07	1.131599e-06	0.00430145	0.002970871	1.029089e-07	3.159496e-07
	4.26028e-07	9.398981e-07	0.002267671	0.006969056	1.029089e-07	3.159496e-07	0.004141916	0.003051306
4.3e+08	0.005881788	0.004161842	9.565003e-08	2.240477e-07	0.003297052	0.007893003	5.761407e-07	8.813107e-07
	9.565003e-08	2.240477e-07	0.005633348	0.004280771	1.439453e-07	1.151516e-06	0.003093566	0.008019114
	0.003297052	0.007893003	1.439453e-07	1.151516e-06	0.005958831	0.004154106	1.282737e-07	3.074746e-07
	5.761407e-07	8.813107e-07	0.003093566	0.008019114	1.282737e-07	3.074746e-07	0.00572062	0.004266312
4.4e+08	0.007672231	0.00506487	1.131365e-07	2.143219e-07	0.004349064	0.008747285	7.178616e-07	7.979908e-07
	1.131365e-07	2.143219e-07	0.007341762	0.005231443	1.515646e-07	1.170463e-06	0.00406878	0.008923433
	0.004349064	0.008747285	1.515646e-07	1.170463e-06	0.007752047	0.005049792	1.518242e-07	2.948616e-07
	7.178616e-07	7.979908e-07	0.00406878	0.008923433	1.518242e-07	2.948616e-07	0.007437463	0.005206952
4.5e+08	0.009554258	0.005666331	1.287122e-07	2.017249e-07	0.005519628	0.009420763	8.470816e-07	6.911768e-07
	1.287122e-07	2.017249e-07	0.009146487	0.005894371	1.582284e-07	1.188575e-06	0.005167794	0.009660003
	0.005519628	0.009420763	1.582284e-07	1.188575e-06	0.009635658	0.005643403	1.72871e-07	2.783931e-07
	8.470816e-07	6.911768e-07	0.005167794	0.009660003	1.72871e-07	2.783931e-07	0.009249211	0.005858399
4.6e+08	0.01148112	0.00595851	1.418983e-07	1.865617e-07	0.006777881	0.009896614	9.598847e-07	5.627924e-07
	1.418983e-07	1.865617e-07	0.01100309	0.006261141	1.63804e-07	1.206012e-06	0.006361917	0.01021122
	0.006777881	0.009896614	1.63804e-07	1.206012e-06	0.01156284	0.005927432	1.907713e-07	2.584665e-07
	9.598847e-07	5.627924e-07	0.006361917	0.01021122	1.907713e-07	2.584665e-07	0.01111119	0.006212477
4.7e+08	0.01340572	0.005940798	1.522667e-07	1.692165e-07	0.008090661	0.01016322	1.052661e-06	4.154142e-07
	1.522667e-07	1.692165e-07	0.01286668	0.006330058	1.681851e-07	1.222952e-06	0.007620039	0.01056434
	0.008090661	0.01016322	1.681851e-07	1.222952e-06	0.01348645	0.005901462	2.049471e-07	2.35585e-07
	1.052661e-06	4.154142e-07	0.007620039	0.01056434	2.049471e-07	2.35585e-07	0.01297834	0.006267734
4.8e+08	0.01528166	0.005619629	1.594524e-07	1.501436e-07	0.009423378	0.01021449	1.122217e-06	2.522211e-07
