!$
! Info: Touchstone file created by Circ.  Input file=Tx_8in_Rx_100ohms_TxVia_10mils_RxVia_20mils.circ
!$
# Hz S RI R 50
0	0.008371929	5.5079e-26	-4.325955e-05	1.784561e-25	5.601741e-05	8.871827e-24	-4.328517e-05	2.977271e-24
	-4.325957e-05	1.795457e-25	0.008372588	7.606876e-26	-4.325235e-05	6.982383e-26	5.410677e-05	1.188651e-23
	5.471661e-05	8.644419e-24	-4.325234e-05	6.991796e-26	0.008387193	5.768565e-26	-4.326207e-05	3.667306e-25
	-4.328516e-05	2.976222e-24	5.556307e-05	1.223407e-23	-4.326205e-05	3.6483e-25	0.008378179	7.255937e-26
1e+07	0.01210032	0.005477336	-0.0001529954	1.259698e-05	0.0004898257	0.001512046	-5.833711e-05	-5.158415e-06
	-0.0001529954	1.259698e-05	0.01222343	0.005468027	-1.224374e-05	9.778087e-05	0.0004872464	0.001510424
	0.0004897816	0.001512049	-1.224374e-05	9.778087e-05	0.01224083	0.005469847	-0.0001530131	1.256917e-05
	-5.833711e-05	-5.158413e-06	0.0004872791	0.001510412	-0.0001530131	1.256917e-05	0.01211577	0.005480197
2e+07	0.01567234	0.008074788	-0.0001223406	-4.913089e-05	0.0007463417	0.003115636	-4.61359e-05	-1.069955e-05
	-0.0001223406	-4.913089e-05	0.01575661	0.008014421	-4.600059e-05	0.0001624197	0.0007366714	0.003113847
	0.0007463315	0.003115664	-4.600059e-05	0.0001624197	0.01578173	0.008016223	-0.0001223705	-4.91923e-05
	-4.61359e-05	-1.069955e-05	0.000736669	0.003113826	-0.0001223705	-4.91923e-05	0.0156838	0.008079418
3e+07	0.01879734	0.009255458	-0.0001015731	-6.899712e-05	0.001257109	0.00451167	-3.872104e-05	-1.793262e-05
	-0.0001015731	-6.899712e-05	0.01884436	0.00917877	-9.968182e-05	0.0001926907	0.001236248	0.004512154
	0.001257109	0.004511674	-9.968182e-05	0.0001926907	0.01888177	0.009178087	-0.0001016232	-6.909798e-05
	-3.872104e-05	-1.793262e-05	0.001236243	0.004512151	-0.0001016232	-6.909798e-05	0.01880306	0.009264005
4e+07	0.02169501	0.009691549	-8.639196e-05	-7.991103e-05	0.002009529	0.005755126	-3.302736e-05	-2.163109e-05
	-8.639196e-05	-7.991103e-05	0.02170408	0.009610885	-0.0001429542	0.0002150331	0.001973979	0.005761167
	0.002009525	0.005755124	-0.0001429542	0.0002150331	0.02175767	0.009603979	-8.646513e-05	-8.006001e-05
	-3.302736e-05	-2.163109e-05	0.001973979	0.005761168	-8.646513e-05	-8.006001e-05	0.02169243	0.009703792
5e+07	0.02440567	0.00955389	-7.449839e-05	-8.668071e-05	0.003077585	0.006776952	-2.833553e-05	-2.386249e-05
	-7.449839e-05	-8.668071e-05	0.02437633	0.0094788	-0.0001799986	0.0002346548	0.003024626	0.00679247
	0.003077583	0.006776951	-0.0001799986	0.0002346548	0.02444888	0.009460978	-7.460143e-05	-8.688562e-05
	-2.833553e-05	-2.386249e-05	0.003024626	0.00679247	-7.460143e-05	-8.688562e-05	0.02439122	0.009571954
6e+07	0.0269236	0.008933559	-6.459833e-05	-9.093576e-05	0.004274596	0.007602803	-2.427821e-05	-2.534136e-05
	-6.459833e-05	-9.093575e-05	0.02685626	0.008872724	-0.0002130831	0.0002533274	0.004202516	0.007632428
	0.004274602	0.007602801	-0.0002130831	0.0002533274	0.02694936	0.008838684	-6.474142e-05	-9.120351e-05
	-2.427821e-05	-2.534136e-05	0.004202513	0.007632429	-6.474142e-05	-9.120351e-05	0.02689517	0.008960781
7e+07	0.0292263	0.007894026	-7.377294e-05	-8.148676e-05	0.005569586	0.008217589	-2.036695e-05	-2.62238e-05
	-7.377294e-05	-8.148676e-05	0.02912249	0.007855656	-0.0002435896	0.0002717365	0.005477725	0.008266305
	0.005569597	0.008217582	-0.0002435896	0.0002717365	0.02923641	0.007799809	-7.396496e-05	-8.180798e-05
	-2.036695e-05	-2.62238e-05	0.00547772	0.008266307	-7.396495e-05	-8.180798e-05	0.02918272	0.007933689
8e+07	0.03128588	0.006489206	-9.195014e-05	-5.912269e-05	0.006928417	0.008609916	-2.35847e-05	-2.105784e-05
	-9.195014e-05	-5.912269e-05	0.03114846	0.006481088	-0.0002731222	0.0002895719	0.006817204	0.008682859
	0.006928428	0.008609906	-0.0002731222	0.0002895719	0.03128218	0.006397849	-9.219068e-05	-5.949321e-05
	-2.35847e-05	-2.105784e-05	0.006817199	0.008682862	-9.219068e-05	-5.949321e-05	0.03122629	0.006544671
9e+07	0.0330751	0.004770939	-0.0001035541	-3.244372e-05	0.008314414	0.008772813	-2.710148e-05	-1.306139e-05
	-0.0001035541	-3.244372e-05	0.03290836	0.004800434	-0.0003045096	0.0003054132	0.008185389	0.008875066
	0.008314421	0.008772804	-0.0003045096	0.0003054132	0.03305967	0.004684477	-0.000103855	-3.286413e-05
	-2.710148e-05	-1.306139e-05	0.008185386	0.008875069	-0.000103855	-3.286413e-05	0.03299903	0.004846044
1e+08	0.03457951	0.002799283	-0.0001049692	2.961278e-07	0.00968503	0.008700608	-2.729751e-05	-3.374393e-06
	-0.0001049692	2.961277e-07	0.03439041	0.002874108	-0.0003486658	0.0003108523	0.009540818	0.008837004
	0.009685029	0.008700608	-0.0003486658	0.0003108523	0.03455593	0.002720587	-0.0001053429	-1.763707e-07
	-2.729751e-05	-3.374393e-06	0.009540818	0.008837004	-0.0001053429	-1.763706e-07	0.0344873	0.002898414
1.1e+08	0.03579403	0.0005419806	-9.183504e-05	1.982904e-05	0.01099521	0.008432865	-2.29556e-05	1.696926e-06
	-9.183504e-05	1.982904e-05	0.03559171	0.0006620736	-0.0003593697	0.0002857964	0.01083915	0.008607368
	0.01099521	0.008432866	-0.0003593697	0.0002857964	0.03576867	0.0004649413	-9.230765e-05	1.930467e-05
	-2.29556e-05	1.696926e-06	0.01083915	0.008607368	-9.230765e-05	1.930467e-05	0.03568792	0.000670374
1.2e+08	0.0366212	-0.001899689	-8.191488e-05	3.321556e-05	0.01224525	0.007964702	-1.998622e-05	4.802953e-06
	-8.191488e-05	3.321556e-05	0.03640885	-0.001732996	-0.0003566321	0.0002774993	0.0120822	0.008181174
	0.01224525	0.007964702	-0.0003566321	0.0002774993	0.03659047	-0.001977047	-8.25068e-05	3.266068e-05
	-1.998622e-05	4.802953e-06	0.0120822	0.008181174	-8.25068e-05	3.266068e-05	0.03650431	-0.001738505
1.3e+08	0.03706313	-0.004454724	-7.236038e-05	4.395798e-05	0.01339656	0.007303346	-1.740712e-05	7.089823e-06
	-7.236038e-05	4.395798e-05	0.03684593	-0.004239391	-0.0003498893	0.0002748226	0.01323215	0.007564594
	0.01339656	0.007303346	-0.0003498893	0.0002748226	0.03702516	-0.004532152	-7.308714e-05	4.339522e-05
	-1.740712e-05	7.089823e-06	0.01323215	0.007564594	-7.308714e-05	4.339522e-05	0.03693931	-0.004257731
1.4e+08	0.03711827	-0.007063549	-6.270303e-05	5.273475e-05	0.01441775	0.006466571	-1.505101e-05	8.817317e-06
	-6.270303e-05	5.273475e-05	0.03690219	-0.006798154	-0.0003409582	0.0002749189	0.0142582	0.006774257
	0.01441775	0.006466571	-0.0003409582	0.0002749189	0.03707188	-0.007140073	-6.357567e-05	5.219022e-05
	-1.505101e-05	8.817317e-06	0.0142582	0.006774257	-6.357567e-05	5.219022e-05	0.03699204	-0.006828383
1.5e+08	0.03679024	-0.009668938	-5.28132e-05	5.980808e-05	0.0152816	0.005477606	-1.285385e-05	1.012277e-05
	-5.28132e-05	5.980808e-05	0.03658173	-0.00935298	-0.0003307659	0.0002763668	0.0151335	0.005832164
	0.0152816	0.005477606	-0.0003307659	0.0002763668	0.03673478	-0.009743239	-5.383737e-05	5.931095e-05
	-1.285385e-05	1.012277e-05	0.0151335	0.005832164	-5.383737e-05	5.931095e-05	0.03666668	-0.009394052
1.6e+08	0.03608891	-0.01221566	-4.26981e-05	6.528802e-05	0.01596533	0.004363975	-1.078628e-05	1.109024e-05
	-4.26981e-05	6.528802e-05	0.03589473	-0.01184972	-0.0003199604	0.0002783602	0.01583544	0.004764561
	0.01596533	0.004363975	-0.0003199604	0.0002783602	0.03602418	-0.01228627	-4.387321e-05	6.48694e-05
	-1.078628e-05	1.109024e-05	0.01583544	0.004764561	-4.387321e-05	6.48694e-05	0.03597354	-0.01190047
1.7e+08	0.03503073	-0.01465092	-3.243987e-05	6.922541e-05	0.0164511	0.003156602	-8.833727e-06	1.177729e-05
	-3.243987e-05	6.922541e-05	0.03485771	-0.01423677	-0.0003090678	0.0002804513	0.0163461	0.003601063
	0.0164511	0.003156602	-0.0003090678	0.0002804513	0.03495691	-0.01471634	-3.375864e-05	6.891691e-05
	-8.833727e-06	1.177729e-05	0.0163461	0.003601063	-3.375864e-05	6.891691e-05	0.03492929	-0.0142959
1.8e+08	0.03363865	-0.01692509	-2.216773e-05	7.165457e-05	0.01672639	0.001888915	-6.988746e-06	1.22263e-05
	-2.216773e-05	7.165457e-05	0.03349346	-0.01646577	-0.0002985344	0.0002824388	0.01665266	0.0023738
	0.01672639	0.001888915	-0.0002985344	0.0002824388	0.03355624	-0.01698387	-2.361597e-05	7.148678e-05
	-6.988746e-06	1.22263e-05	0.01665266	0.0023738	-2.361597e-05	7.148678e-05	0.03355693	-0.01653187
1.9e+08	0.03194189	-0.01899255	-1.203997e-05	7.261665e-05	0.01678432	0.0005959292	-5.247606e-06	1.247024e-05
	-1.203997e-05	7.261665e-05	0.0318308	-0.01849231	-0.000288735	0.0002843064	0.0167477	0.001116541
	0.01678432	0.0005959293	-0.000288735	0.0002843064	0.03185166	-0.0190433	-1.359686e-05	7.261749e-05
	-5.247606e-06	1.247024e-05	0.0167477	0.001116541	-1.359686e-05	7.261749e-05	0.03188546	-0.01856387
2e+08	0.02997539	-0.02081243	-2.230239e-06	7.217279e-05	0.01662381	-0.0006866939	-3.608551e-06	1.253579e-05
	-2.230239e-06	7.217279e-05	0.02990402	-0.02027677	-0.0002799657	0.0002861801	0.01662935	-0.0001362097
	0.01662381	-0.0006866939	-0.0002799657	0.0002861801	0.02987838	-0.02085392	-3.868918e-06	7.236596e-05
	-3.608551e-06	1.253579e-05	0.01662935	-0.0001362097	-3.868918e-06	7.236596e-05	0.02994944	-0.0203522
2.1e+08	0.02777924	-0.02234944	7.084779e-06	7.041124e-05	0.0162496	-0.001923603	-2.070921e-06	1.244526e-05
	7.084779e-06	7.041124e-05	0.02775233	-0.02178496	-0.0002724344	0.0002882962	0.01630137	-0.001350119
	0.0162496	-0.001923603	-0.0002724344	0.0002882962	0.02767667	-0.02238057	5.396146e-06	7.081486e-05
	-2.070921e-06	1.244526e-05	0.01630137	-0.001350119	5.396146e-06	7.081486e-05	0.02778828	-0.02186262
2.2e+08	0.02539786	-0.02357453	1.573605e-05	6.744996e-05	0.01567211	-0.003080695	-6.346103e-07	1.221781e-05
	1.573605e-05	6.744996e-05	0.02541902	-0.02298876	-0.0002662491	0.0002909688	0.01577297	-0.002491931
	0.01567211	-0.003080695	-0.0002662491	0.0002909688	0.02529115	-0.02359438	1.403295e-05	6.807542e-05
	-6.346103e-07	1.221781e-05	0.01577297	-0.002491931	1.403295e-05	6.807542e-05	0.02544557	-0.02306701
2.3e+08	0.02287911	-0.02446539	2.357186e-05	6.343589e-05	0.01490716	-0.004126024	7.002592e-07	1.187027e-05
	2.357186e-05	6.343589e-05	0.02295068	-0.02386668	-0.0002614098	0.00029456	0.01505864	-0.003530335
	0.01490716	-0.004126024	-0.0002614098	0.00029456	0.02276984	-0.02447327	2.189182e-05	6.42871e-05
	7.002592e-07	1.187027e-05	0.01505864	-0.003530335	2.189182e-05	6.42871e-05	0.02296814	-0.02394389
2.4e+08	0.02027332	-0.02500697	3.046689e-05	5.854133e-05	0.01397554	-0.005030646	1.933509e-06	1.141774e-05
	3.046689e-05	5.854133e-05	0.02039615	-0.02440417	-0.0002578061	0.0002994526	0.01417767	-0.004436784
	0.01397554	-0.005030646	-0.0002578061	0.0002994526	0.0201632	-0.02500238	2.884766e-05	5.961433e-05
	1.933509e-06	1.141774e-05	0.01417767	-0.004436784	2.884766e-05	5.961433e-05	0.0204051	-0.02447878
2.5e+08	0.01763224	-0.02519166	3.632825e-05	5.295819e-05	0.01290247	-0.005769395	3.06511e-06	1.087393e-05
	3.632825e-05	5.295819e-05	0.01780562	-0.02459393	-0.0002552167	0.0003060183	0.01315375	-0.005186242
	0.01290247	-0.005769395	-0.0002552167	0.0003060183	0.01752307	-0.02517438	3.480599e-05	5.424126e-05
	3.06511e-06	1.087393e-05	0.01315375	-0.005186242	3.480599e-05	5.424126e-05	0.01780688	-0.02466449
2.6e+08	0.01500792	-0.0250195	4.110076e-05	4.689056e-05	0.01171693	-0.006321543	4.095271e-06	1.02515e-05
	4.110076e-05	4.689056e-05	0.0152295	-0.02443598	-0.0002533165	0.0003145928	0.01201422	-0.005757838
	0.01171693	-0.006321543	-0.0002533165	0.0003145928	0.01490158	-0.02498958	3.970819e-05	4.836475e-05
	4.095271e-06	1.02515e-05	0.01201422	-0.005757838	3.970819e-05	4.836475e-05	0.01522414	-0.0245012
2.7e+08	0.01245166	-0.02449809	4.476922e-05	4.05463e-05	0.01045085	-0.006671359	5.024559e-06	9.562148e-06
	4.476922e-05	4.05463e-05	0.01271741	-0.02393763	-0.0002516877	0.0003254484	0.01078947	-0.006135405
	0.01045085	-0.006671359	-0.0002516877	0.0003254484	0.01235002	-0.02445586	4.353402e-05	4.218643e-05
	5.024559e-06	9.562148e-06	0.01078947	-0.006135405	4.353402e-05	4.218643e-05	0.01270671	-0.0239964
2.8e+08	0.01001287	-0.02364239	4.735919e-05	3.412797e-05	0.009138301	-0.006808524	5.853908e-06	8.816814e-06
	4.735919e-05	3.412797e-05	0.01031718	-0.02311322	-0.0002498362	0.0003387756	0.009512019	-0.006307908
	0.009138301	-0.006808524	-0.0002498362	0.0003387756	0.009917808	-0.02358847	4.630262e-05	3.5904e-05
	5.853908e-06	8.816814e-06	0.009512019	-0.006307908	4.630262e-05	3.5904e-05	0.0103026	-0.02316466
2.9e+08	0.007738067	-0.02247436	4.893481e-05	2.782399e-05	0.007814566	-0.006728402	6.5847e-06	8.025669e-06
	4.893481e-05	2.782399e-05	0.008073769	-0.02198384	-0.0002472115	0.000354664	0.008215762	-0.00626972
	0.007814566	-0.006728402	-0.0002472115	0.000354664	0.007651361	-0.02240968	4.807074e-05	2.970272e-05
	6.5847e-06	8.025669e-06	0.008215762	-0.00626972	4.807074e-05	2.970272e-05	0.008056908	-0.02202733
3e+08	0.00566984	-0.02102247	4.959472e-05	2.180058e-05	0.006515193	-0.006432163	7.218752e-06	7.198131e-06
	4.959472e-05	2.180058e-05	0.006028417	-0.02057676	-0.0002432309	0.0003730884	0.006935003	-0.006020764
	0.006515193	-0.006432163	-0.0002432309	0.0003730884	0.005593158	-0.02094822	4.892905e-05	2.374755e-05
	7.218752e-06	7.198131e-06	0.006935003	-0.006020764	4.892905e-05	2.374755e-05	0.006010968	-0.02061195
3.1e+08	0.003845986	-0.01932098	4.946633e-05	1.61945e-05	0.00527505	-0.005926748	7.758263e-06	6.342918e-06
	4.946633e-05	1.61945e-05	0.004217739	-0.01892485	-0.0002373037	0.0003939057	0.005703582	-0.00556651
	0.00527505	-0.005926748	-0.0002373037	0.0003939057	0.003780818	-0.01923867	4.899698e-05	1.817602e-05
	7.758263e-06	6.342918e-06	0.005703582	-0.00556651	4.899698e-05	1.817602e-05	0.004201447	-0.0189517
3.2e+08	0.002298691	-0.01740924	4.869813e-05	1.11078e-05	0.004127395	-0.005224678	8.205771e-06	5.467983e-06
	4.869813e-05	1.11078e-05	0.002672991	-0.01706578	-0.0002288588	0.0004168505	0.004553975	-0.004917817
	0.004127395	-0.005224678	-0.0002288588	0.0004168505	0.002246309	-0.01732058	4.841546e-05	1.309288e-05
	8.205771e-06	5.467983e-06	0.004553975	-0.004917817	4.841546e-05	1.309288e-05	0.0026596	-0.01708454
3.3e+08	0.001053871	-0.01533071	4.745105e-05	6.604307e-06	0.003102987	-0.004343712	8.564058e-06	4.580536e-06
	4.745105e-05	6.604307e-06	0.001419443	-0.01504123	-0.000217371	0.0004415399	0.003516447	-0.004090635
	0.003102987	-0.004343712	-0.000217371	0.0004415399	0.001015285	-0.01523764	4.733882e-05	8.566561e-06
	8.564058e-06	4.580536e-06	0.003516447	-0.004090635	4.733882e-05	8.566561e-06	0.001410639	-0.01505246
3.4e+08	0.0001306465	-0.01313203	4.588953e-05	2.708139e-06	0.002229268	-0.00330637	8.836038e-06	3.687116e-06
	4.588953e-05	2.708139e-06	0.0004758786	-0.0128959	-0.0002023835	0.0004674869	0.00261825	-0.003105579
	0.002229268	-0.00330637	-0.0002023835	0.0004674869	0.0001065683	-0.01303666	4.59263e-05	4.627286e-06
	8.836038e-06	3.687116e-06	0.00261825	-0.003105579	4.59263e-05	4.627286e-06	0.0004732482	-0.01290042
3.5e+08	-0.0004590418	-0.01086195	4.417201e-05	-5.953322e-07	0.001529632	-0.00213932	9.024655e-06	2.793601e-06
	4.417201e-05	-5.953322e-07	-0.0001457607	-0.01067651	-0.0001835315	0.0004941126	0.001882921	-0.001987367
	0.001529632	-0.00213932	-0.0001835315	0.0004941126	-0.0004682273	-0.01076651	4.433292e-05	1.267718e-06
	9.024655e-06	2.793601e-06	0.001882921	-0.001987367	4.433292e-05	1.267718e-06	-0.0001407842	-0.01067545
3.6e+08	-0.0007106351	-0.008570207	4.244235e-05	-3.356577e-06	0.001022813	-0.000872666	9.132794e-06	1.905332e-06
	4.244235e-05	-3.356577e-06	-0.0004405675	-0.008430814	-0.0001605579	0.0005207679	0.001329667	-0.0007641681
	0.001022813	-0.000872666	-0.0001605579	0.0005207679	-0.0007048953	-0.008477007	4.270114e-05	-1.554632e-06
	9.132794e-06	1.905332e-06	0.001329667	-0.0007641681	4.270114e-05	-1.554632e-06	-0.0004267476	-0.00842552
3.7e+08	-0.0006270036	-0.00630646	4.082195e-05	-5.656822e-06	0.0007223848	0.0004608661	9.163201e-06	1.027202e-06
	4.082195e-05	-5.656822e-06	-0.0004107147	-0.006206492	-0.0001333281	0.0005467558	0.000972873	0.000533158
	0.0007223848	0.0004608661	-0.0001333281	0.0005467558	-0.0006066673	-0.006217815	4.115315e-05	-3.912848e-06
	9.163201e-06	1.027202e-06	0.000972873	0.000533158	4.115315e-05	-3.912848e-06	-0.0003870511	-0.006198521
3.8e+08	-0.0002183203	-0.004119149	3.940348e-05	-7.601416e-06	0.0006364164	0.001826801	9.118448e-06	1.637984e-07
	3.940348e-05	-7.601416e-06	-6.533716e-05	-0.004050132	-0.0001018365	0.0005713568	0.0008217385	0.001871873
	0.0006364164	0.001826801	-0.0001018365	0.0005713568	-0.0001840831	-0.004037328	3.97846e-05	-5.904538e-06
	9.118448e-06	1.637984e-07	0.0008217385	0.001871873	3.97846e-05	-5.904538e-06	-3.109945e-05	-0.004041206
3.9e+08	0.0004982272	-0.00205443	3.82463e-05	-9.311941e-06	0.0007672641	0.003189835	9.000932e-06	-6.804559e-07
	3.82463e-05	-9.311941e-06	0.0005797377	-0.002006211	-6.620912e-05	0.0005938553	0.0008800517	0.003218227
	0.0007672641	0.003189835	-6.620912e-05	0.0005938553	0.0005453102	-0.001981598	3.865988e-05	-7.6445e-06
	9.000932e-06	-6.804559e-07	0.0008800517	0.003218227	3.865988e-05	-7.6445e-06	0.0006249842	-0.001998171
4e+08	0.001498884	-0.0001551666	3.737403e-05	-1.091737e-05	0.001111522	0.004514775	8.812915e-06	-1.50118e-06
	3.737403e-05	-1.091737e-05	0.001502408	-0.000116137	-2.670037e-05	0.0006135658	0.001146107	0.004538345
	0.001111522	0.004514775	-2.670037e-05	0.0006135658	0.001557416	-9.332663e-05	3.780942e-05	-9.256401e-06
	8.812915e-06	-1.50118e-06	0.001146107	0.004538345	3.780942e-05	-9.256401e-06	0.001558785	-0.0001108908
4.1e+08	0.002753923	0.001540003	3.677416e-05	-1.254512e-05	0.001660121	0.005767474	8.556613e-06	-2.293907e-06
	3.677416e-05	-1.254512e-05	0.002674853	0.001582634	1.631716e-05	0.0006298576	0.001612768	0.005799117
	0.001660121	0.005767474	1.631716e-05	0.0006298576	0.002822188	0.001589068	3.722893e-05	-1.086425e-05
	8.556613e-06	-2.293907e-06	0.001612768	0.005799117	3.722893e-05	-1.086425e-05	0.002742158	0.001583163
4.2e+08	0.004228366	0.002997493	3.639995e-05	-1.43122e-05	0.002398588	0.006915727	8.234308e-06	-3.054017e-06
	3.639995e-05	-1.43122e-05	0.004064208	0.003057376	6.236677e-05	0.0006421762	0.002267671	0.006969056
	0.002398588	0.006915727	6.236677e-05	0.0006421762	0.004304369	0.00303227	3.688075e-05	-1.258391e-05
	8.234308e-06	-3.054017e-06	0.002267671	0.006969056	3.688075e-05	-1.258391e-05	0.004141916	0.003051306
4.3e+08	0.005882823	0.004189477	3.61743e-05	-1.631712e-05	0.00330743	0.00793012	7.848483e-06	-3.776692e-06
	3.61743e-05	-1.631712e-05	0.005633348	0.004280771	0.0001108848	0.0006500618	0.003093566	0.008019114
	0.00330743	0.00793012	0.0001108848	0.0006500618	0.00596433	0.004208768	3.669719e-05	-1.451519e-05
	7.848483e-06	-3.776692e-06	0.003093566	0.008019114	3.669719e-05	-1.451519e-05	0.00572062	0.004266312
4.4e+08	0.007674427	0.005094455	3.599543e-05	-1.863303e-05	0.004362664	0.008784802	7.401959e-06	-4.456932e-06
	3.599543e-05	-1.863303e-05	0.007341762	0.005231443	0.000161242	0.0006531627	0.00406878	0.008923433
	0.004362664	0.008784802	0.000161242	0.0006531627	0.007759015	0.005097413	3.658554e-05	-1.673506e-05
	7.401959e-06	-4.456932e-06	0.00406878	0.008923433	3.658554e-05	-1.673506e-05	0.007437463	0.005206952
4.5e+08	0.009557826	0.005697672	3.574407e-05	-2.130241e-05	0.005536455	0.009458154	6.898043e-06	-5.089601e-06
	3.574407e-05	-2.130241e-05	0.009146487	0.005894371	0.0002127671	0.0006512452	0.005167794	0.009660003
	0.005536455	0.009458154	0.0002127671	0.0006512452	0.009642945	0.005683835	3.643471e-05	-1.929223e-05
	6.898043e-06	-5.089601e-06	0.005167794	0.009660003	3.643471e-05	-1.929223e-05	0.009249211	0.005858399
4.6e+08	0.01148625	0.005991382	3.529155e-05	-2.433377e-05	0.006797853	0.009933351	6.340578e-06	-5.669522e-06
	3.529155e-05	-2.433377e-05	0.01100309	0.006261141	0.0002647733	0.0006441947	0.006361917	0.01021122
	0.006797853	0.009933351	0.0002647733	0.0006441947	0.01156927	0.005960693	3.612269e-05	-2.220361e-05
	6.340578e-06	-5.669522e-06	0.006361917	0.01021122	3.612269e-05	-2.220361e-05	0.01111119	0.006212477
4.7e+08	0.01341256	0.005974924	3.450852e-05	-2.770016e-05	0.008113609	0.01019879	5.7336e-06	-6.191584e-06
	3.450852e-05	-2.770016e-05	0.01286668	0.006330058	0.0003165781	0.0006320175	0.007620039	0.01056434
	0.008113609	0.01019879	0.0003165781	0.0006320175	0.01349085	0.005927766	3.552457e-05	-2.545245e-05
	5.7336e-06	-6.191584e-06	0.007620039	0.01056434	3.552457e-05	-2.545245e-05	0.01297834	0.006267734
