!$
! Info: Touchstone file created by Circ.  Input file=Tx_8in_Rx_100ohms_TxVia_10mils_RxVia_20mils.circ
!$
# Hz S RI R 50
0	0.008371929	5.5079e-26	1.100788e-10	1.712159e-28	5.601741e-05	8.871827e-24	-5.044538e-09	6.179454e-25
	1.100907e-10	1.714036e-28	0.008372588	7.606876e-26	5.445987e-10	3.198241e-27	5.410677e-05	1.188651e-23
	5.471661e-05	8.644419e-24	5.445373e-10	3.205407e-27	0.008387193	5.768565e-26	-9.153222e-09	1.134844e-24
	-5.043655e-09	6.178373e-25	5.556307e-05	1.223407e-23	-9.153417e-09	1.134868e-24	0.008378179	7.255937e-26
1e+07	0.01210032	0.005477336	5.163461e-11	-2.426753e-11	0.0004898257	0.001512046	-7.33036e-09	1.684572e-08
	5.163463e-11	-2.426782e-11	0.01222343	0.005468027	6.89375e-10	1.073045e-09	0.0004872464	0.001510424
	0.0004897816	0.001512049	6.893749e-10	1.073045e-09	0.01224083	0.005469847	-8.725195e-09	1.660709e-08
	-7.330359e-09	1.684572e-08	0.0004872791	0.001510412	-8.725196e-09	1.660709e-08	0.01211577	0.005480197
2e+07	0.01567234	0.008074788	4.670455e-11	-2.394201e-11	0.0007463417	0.003115636	-6.37305e-09	1.352297e-08
	4.670435e-11	-2.394211e-11	0.01575661	0.008014421	8.908929e-10	1.887044e-09	0.0007366714	0.003113847
	0.0007463315	0.003115664	8.908931e-10	1.887044e-09	0.01578173	0.008016223	-8.027606e-09	1.401241e-08
	-6.37305e-09	1.352297e-08	0.000736669	0.003113826	-8.027606e-09	1.401241e-08	0.0156838	0.008079418
3e+07	0.01879734	0.009255458	5.854319e-11	-5.550561e-11	0.001257109	0.00451167	-3.050632e-09	1.296525e-08
	5.854315e-11	-5.550557e-11	0.01884436	0.00917877	1.001048e-09	2.646253e-09	0.001236248	0.004512154
	0.001257109	0.004511674	1.001048e-09	2.646253e-09	0.01888177	0.009178087	-4.251406e-09	1.411861e-08
	-3.050632e-09	1.296525e-08	0.001236243	0.004512151	-4.251406e-09	1.411861e-08	0.01880306	0.009264005
4e+07	0.02169501	0.009691549	5.69888e-11	-9.036578e-11	0.002009529	0.005755126	-3.049643e-10	1.19323e-08
	5.698879e-11	-9.036583e-11	0.02170408	0.009610885	1.084249e-09	3.408145e-09	0.001973979	0.005761167
	0.002009525	0.005755124	1.084249e-09	3.408145e-09	0.02175767	0.009603979	-1.176504e-09	1.334875e-08
	-3.049643e-10	1.19323e-08	0.001973979	0.005761168	-1.176504e-09	1.334875e-08	0.02169243	0.009703792
5e+07	0.02440567	0.00955389	5.335538e-11	-1.206189e-10	0.003077585	0.006776952	1.532678e-09	1.093585e-08
	5.335534e-11	-1.206189e-10	0.02437633	0.0094788	1.160281e-09	4.155919e-09	0.003024626	0.00679247
	0.003077583	0.006776951	1.160281e-09	4.155919e-09	0.02444888	0.009460978	7.913457e-10	1.246246e-08
	1.532678e-09	1.093585e-08	0.003024626	0.00679247	7.913456e-10	1.246246e-08	0.02439122	0.009571954
6e+07	0.0269236	0.008933559	6.367174e-11	-1.408532e-10	0.004274596	0.007602803	2.510515e-09	1.050063e-08
	6.367183e-11	-1.408531e-10	0.02685626	0.008872724	1.233819e-09	4.87551e-09	0.004202516	0.007632428
	0.004274602	0.007602801	1.233819e-09	4.87551e-09	0.02694936	0.008838684	1.673046e-09	1.198963e-08
	2.510515e-09	1.050063e-08	0.004202513	0.007632429	1.673046e-09	1.198963e-08	0.02689517	0.008960781
7e+07	0.0292263	0.007894026	1.610476e-10	-1.051801e-10	0.005569586	0.008217589	1.92125e-09	1.129269e-08
	1.610479e-10	-1.051802e-10	0.02912249	0.007855656	1.345953e-09	5.53659e-09	0.005477725	0.008266305
	0.005569597	0.008217582	1.345953e-09	5.53659e-09	0.02923641	0.007799809	8.819998e-10	1.215333e-08
	1.92125e-09	1.129269e-08	0.00547772	0.008266307	8.819999e-10	1.215333e-08	0.02918272	0.007933689
8e+07	0.03128588	0.006489206	-8.400858e-11	-1.53288e-09	0.006928417	0.008609916	-4.322907e-09	1.042461e-08
	-8.400816e-11	-1.532881e-09	0.03114846	0.006481088	1.576342e-09	6.410266e-09	0.006817204	0.008682859
	0.006928428	0.008609906	1.576342e-09	6.410266e-09	0.03128218	0.006397849	-3.314515e-09	1.085783e-08
	-4.322907e-09	1.042461e-08	0.006817199	0.008682862	-3.314515e-09	1.085783e-08	0.03122629	0.006544671
9e+07	0.0330751	0.004770939	2.59675e-11	-3.275986e-10	0.008314414	0.008772813	-3.655636e-09	1.503578e-09
	2.596783e-11	-3.275991e-10	0.03290836	0.004800434	1.406742e-09	7.239672e-09	0.008185389	0.008875066
	0.008314421	0.008772804	1.406742e-09	7.239672e-09	0.03305967	0.004684477	-4.050946e-09	3.646914e-09
	-3.655636e-09	1.503578e-09	0.008185386	0.008875069	-4.050946e-09	3.646914e-09	0.03299903	0.004846044
1e+08	0.03457951	0.002799283	-4.057908e-11	-2.71348e-10	0.00968503	0.008700608	-3.191589e-10	-4.061947e-11
	-4.057908e-11	-2.71348e-10	0.03439041	0.002874108	1.290521e-09	7.885635e-09	0.009540818	0.008837004
	0.009685029	0.008700608	1.290521e-09	7.885635e-09	0.03455593	0.002720587	-8.402258e-10	1.203634e-09
	-3.191589e-10	-4.061947e-11	0.009540818	0.008837004	-8.402258e-10	1.203634e-09	0.0344873	0.002898414
1.1e+08	0.03579403	0.0005419806	-5.972686e-11	-3.015954e-10	0.01099521	0.008432865	-3.526526e-10	2.478257e-11
	-5.972686e-11	-3.015954e-10	0.03559171	0.0006620736	1.30535e-09	8.65811e-09	0.01083915	0.008607368
	0.01099521	0.008432866	1.30535e-09	8.65811e-09	0.03576867	0.0004649413	-8.973826e-10	1.476286e-09
	-3.526526e-10	2.478257e-11	0.01083915	0.008607368	-8.973826e-10	1.476286e-09	0.03568792	0.000670374
1.2e+08	0.0366212	-0.001899689	-8.012017e-11	-3.251053e-10	0.01224525	0.007964702	-3.750013e-10	9.588213e-11
	-8.012017e-11	-3.251053e-10	0.03640885	-0.001732996	1.323756e-09	9.441606e-09	0.0120822	0.008181174
	0.01224525	0.007964702	1.323756e-09	9.441606e-09	0.03659047	-0.001977047	-9.218079e-10	1.773888e-09
	-3.750013e-10	9.588213e-11	0.0120822	0.008181174	-9.218079e-10	1.773888e-09	0.03650431	-0.001738505
1.3e+08	0.03706313	-0.004454724	-1.017733e-10	-3.443823e-10	0.01339656	0.007303346	-3.84279e-10	1.73042e-10
	-1.017733e-10	-3.443823e-10	0.03684593	-0.004239391	1.34833e-09	1.023495e-08	0.01323215	0.007564594
	0.01339656	0.007303346	1.34833e-09	1.023495e-08	0.03702516	-0.004532152	-9.090792e-10	2.087648e-09
	-3.84279e-10	1.73042e-10	0.01323215	0.007564594	-9.090792e-10	2.087648e-09	0.03693931	-0.004257731
1.4e+08	0.03711827	-0.007063549	-1.241234e-10	-3.597247e-10	0.01441775	0.006466571	-3.788728e-10	2.54207e-10
	-1.241234e-10	-3.597247e-10	0.03690219	-0.006798154	1.381826e-09	1.10366e-08	0.0142582	0.006774257
	0.01441775	0.006466571	1.381826e-09	1.10366e-08	0.03707188	-0.007140073	-8.554096e-10	2.409947e-09
	-3.788728e-10	2.54207e-10	0.0142582	0.006774257	-8.554096e-10	2.409947e-09	0.03699204	-0.006828383
1.5e+08	0.03679024	-0.009668938	-1.466704e-10	-3.712852e-10	0.0152816	0.005477606	-3.576974e-10	3.366485e-10
	-1.466704e-10	-3.712852e-10	0.03658173	-0.00935298	1.426513e-09	1.184459e-08	0.0151335	0.005832164
	0.0152816	0.005477606	1.426513e-09	1.184459e-08	0.03673478	-0.009743239	-7.584909e-10	2.732631e-09
	-3.576974e-10	3.366485e-10	0.0151335	0.005832164	-7.584909e-10	2.732631e-09	0.03666668	-0.009394052
1.6e+08	0.03608891	-0.01221566	-1.68966e-10	-3.791663e-10	0.01596533	0.004363975	-3.202383e-10	4.17309e-10
	-1.68966e-10	-3.791663e-10	0.03589473	-0.01184972	1.484128e-09	1.265657e-08	0.01583544	0.004764561
	0.01596533	0.004363975	1.484128e-09	1.265657e-08	0.03602418	-0.01228627	-6.176013e-10	3.04719e-09
	-3.202383e-10	4.17309e-10	0.01583544	0.004764561	-6.176013e-10	3.04719e-09	0.03597354	-0.01190047
1.7e+08	0.03503073	-0.01465092	-1.90611e-10	-3.8344e-10	0.0164511	0.003156602	-2.666118e-10	4.929728e-10
	-1.90611e-10	-3.8344e-10	0.03485771	-0.01423677	1.555849e-09	1.346999e-08	0.0163461	0.003601063
	0.0164511	0.003156602	1.555849e-09	1.346999e-08	0.03495691	-0.01471634	-4.336761e-10	3.345033e-09
	-2.666118e-10	4.929728e-10	0.0163461	0.003601063	-4.336761e-10	3.345033e-09	0.03492929	-0.0142959
1.8e+08	0.03363865	-0.01692509	-2.112341e-10	-3.841374e-10	0.01672639	0.001888915	-1.975939e-10	5.604201e-10
	-2.112341e-10	-3.841374e-10	0.03349346	-0.01646577	1.642291e-09	1.428214e-08	0.01665266	0.0023738
	0.01672639	0.001888915	1.642291e-09	1.428214e-08	0.03355624	-0.01698387	-2.09304e-10	3.617802e-09
	-1.975939e-10	5.604201e-10	0.01665266	0.0023738	-2.09304e-10	3.617802e-09	0.03355693	-0.01653187
1.9e+08	0.03194189	-0.01899255	-2.304592e-10	-3.812394e-10	0.01678432	0.0005959292	-1.146144e-10	6.165766e-10
	-2.304592e-10	-3.812394e-10	0.0318308	-0.01849231	1.743527e-09	1.509031e-08	0.0167477	0.001116541
	0.01678432	0.0005959293	1.743527e-09	1.509031e-08	0.03185166	-0.0190433	5.134418e-11	3.857683e-09
	-1.146144e-10	6.165766e-10	0.0167477	0.001116541	5.134418e-11	3.857683e-09	0.03188546	-0.01856387
2e+08	0.02997539	-0.02081243	-2.478624e-10	-3.746779e-10	0.01662381	-0.0006866939	-1.971827e-11	6.586551e-10
	-2.478624e-10	-3.746779e-10	0.02990402	-0.02027677	1.859105e-09	1.589185e-08	0.01662935	-0.0001362097
	0.01662381	-0.0006866939	1.859105e-09	1.589185e-08	0.02987838	-0.02085392	3.426504e-10	4.057697e-09
	-1.971827e-11	6.586551e-10	0.01662935	-0.0001362097	3.426504e-10	4.057697e-09	0.02994944	-0.0203522
2.1e+08	0.02777924	-0.02234944	-2.629273e-10	-3.643538e-10	0.0162496	-0.001923603	8.450407e-11	6.842838e-10
	-2.629273e-10	-3.643538e-10	0.02775233	-0.02178496	1.988099e-09	1.668426e-08	0.01630137	-0.001350119
	0.0162496	-0.001923603	1.988099e-09	1.668426e-08	0.02767667	-0.02238057	6.577392e-10	4.211956e-09
	8.450407e-11	6.842838e-10	0.01630137	-0.001350119	6.577392e-10	4.211956e-09	0.02778828	-0.02186262
2.2e+08	0.02539786	-0.02357453	-2.750042e-10	-3.50175e-10	0.01567211	-0.003080695	1.950141e-10	6.916132e-10
	-2.750042e-10	-3.50175e-10	0.02541902	-0.02298876	2.129152e-09	1.746527e-08	0.01577297	-0.002491931
	0.01567211	-0.003080695	2.129152e-09	1.746527e-08	0.02529115	-0.02359438	9.887113e-10	4.315871e-09
	1.950141e-10	6.916132e-10	0.01577297	-0.002491931	9.887113e-10	4.315871e-09	0.02544557	-0.02306701
2.3e+08	0.02287911	-0.02446539	-2.832813e-10	-3.321127e-10	0.01490716	-0.004126024	3.084427e-10	6.793983e-10
	-2.832813e-10	-3.321127e-10	0.02295068	-0.02386668	2.280543e-09	1.823287e-08	0.01505864	-0.003530335
	0.01490716	-0.004126024	2.280543e-09	1.823287e-08	0.02276984	-0.02447327	1.326908e-09	4.366306e-09
	3.084427e-10	6.793983e-10	0.01505864	-0.003530335	1.326908e-09	4.366306e-09	0.02296814	-0.02394389
2.4e+08	0.02027332	-0.02500697	-2.867768e-10	-3.102711e-10	0.01397554	-0.005030646	4.212228e-10	6.470495e-10
	-2.867768e-10	-3.102711e-10	0.02039615	-0.02440417	2.440238e-09	1.89854e-08	0.01417767	-0.004436784
	0.01397554	-0.005030646	2.440238e-09	1.89854e-08	0.0201632	-0.02500238	1.66319e-09	4.361675e-09
	4.212228e-10	6.470495e-10	0.01417767	-0.004436784	1.66319e-09	4.361675e-09	0.0204051	-0.02447878
2.5e+08	0.01763224	-0.02519166	-2.843544e-10	-2.84967e-10	0.01290247	-0.005769395	5.297255e-10	5.94653e-10
	-2.843544e-10	-2.84967e-10	0.01780562	-0.02459393	2.605961e-09	1.972153e-08	0.01315375	-0.005186242
	0.01290247	-0.005769395	2.605961e-09	1.972153e-08	0.01752307	-0.02517438	1.988225e-09	4.301982e-09
	5.297255e-10	5.94653e-10	0.01315375	-0.005186242	1.988225e-09	4.301982e-09	0.01780688	-0.02466449
2.6e+08	0.01500792	-0.0250195	-2.747686e-10	-2.568074e-10	0.01171693	-0.006321543	6.303942e-10	5.229588e-10
	-2.747686e-10	-2.568074e-10	0.0152295	-0.02443598	2.775249e-09	2.044031e-08	0.01201422	-0.005757838
	0.01171693	-0.006321543	2.775249e-09	2.044031e-08	0.01490158	-0.02498958	2.29276e-09	4.188811e-09
	6.303942e-10	5.229588e-10	0.01201422	-0.005757838	2.29276e-09	4.188811e-09	0.01522414	-0.0245012
2.7e+08	0.01245166	-0.02449809	-2.567394e-10	-2.267582e-10	0.01045085	-0.006671359	7.198682e-10	4.333421e-10
	-2.567394e-10	-2.267582e-10	0.01271741	-0.02393763	2.945504e-09	2.114117e-08	0.01078947	-0.006135405
	0.01045085	-0.006671359	2.945504e-09	2.114117e-08	0.01235002	-0.02445586	2.567882e-09	4.025263e-09
	7.198682e-10	4.333421e-10	0.01078947	-0.006135405	2.567882e-09	4.025263e-09	0.01270671	-0.0239964
2.8e+08	0.01001287	-0.02364239	-2.290515e-10	-1.961898e-10	0.009138301	-0.006808524	7.950894e-10	3.277405e-10
	-2.290515e-10	-1.961898e-10	0.01031718	-0.02311322	3.114048e-09	2.182393e-08	0.009512019	-0.006307908
	0.009138301	-0.006808524	3.114048e-09	2.182393e-08	0.009917808	-0.02358847	2.805245e-09	3.815864e-09
	7.950894e-10	3.277405e-10	0.009512019	-0.006307908	2.805245e-09	3.815864e-09	0.0103026	-0.02316466
2.9e+08	0.007738067	-0.02247436	-1.906763e-10	-1.668971e-10	0.007814566	-0.006728402	8.533884e-10	2.085747e-10
	-1.906763e-10	-1.668971e-10	0.008073769	-0.02198384	3.278169e-09	2.248878e-08	0.008215762	-0.00626972
	0.007814566	-0.006728402	3.278169e-09	2.248878e-08	0.007651361	-0.02240968	2.997278e-09	3.566434e-09
	8.533884e-10	2.085747e-10	0.008215762	-0.00626972	2.997278e-09	3.566434e-09	0.008056908	-0.02202733
3e+08	0.00566984	-0.02102247	-1.409044e-10	-1.410808e-10	0.006515193	-0.006432163	8.925473e-10	7.865987e-11
	-1.409044e-10	-1.410808e-10	0.006028417	-0.02057676	3.435161e-09	2.313635e-08	0.006935003	-0.006020764
	0.006515193	-0.006432163	3.435161e-09	2.313635e-08	0.005593158	-0.02094822	3.137355e-09	3.283947e-09
	8.925473e-10	7.865987e-11	0.006935003	-0.006020764	3.137355e-09	3.283947e-09	0.006010968	-0.02061195
3.1e+08	0.003845986	-0.01932098	-7.947604e-11	-1.212884e-10	0.00527505	-0.005926748	9.108402e-10	-5.888681e-11
	-7.947604e-11	-1.212884e-10	0.004217739	-0.01892485	3.582373e-09	2.376763e-08	0.005703582	-0.00556651
	0.00527505	-0.005926748	3.582373e-09	2.376763e-08	0.003780818	-0.01923867	3.219935e-09	2.976369e-09
	9.108402e-10	-5.888681e-11	0.005703582	-0.00556651	3.219935e-09	2.976369e-09	0.004201447	-0.0189517
3.2e+08	0.002298691	-0.01740924	-6.702861e-12	-1.103155e-10	0.004127395	-0.005224678	9.070538e-10	-2.007349e-10
	-6.702861e-12	-1.103155e-10	0.002672991	-0.01706578	3.717254e-09	2.438402e-08	0.004553975	-0.004917817
	0.004127395	-0.005224678	3.717254e-09	2.438402e-08	0.002246309	-0.01732058	3.240685e-09	2.652497e-09
	9.070538e-10	-2.007349e-10	0.004553975	-0.004917817	3.240685e-09	2.652497e-09	0.0026596	-0.01708454
3.3e+08	0.001053871	-0.01533071	7.643663e-11	-1.110674e-10	0.003102987	-0.004343712	8.804917e-10	-3.434221e-10
	7.643663e-11	-1.110674e-10	0.001419443	-0.01504123	3.837402e-09	2.498732e-08	0.003516447	-0.004090635
	0.003102987	-0.004343712	3.837402e-09	2.498732e-08	0.001015285	-0.01523764	3.196569e-09	2.321786e-09
	8.804917e-10	-3.434221e-10	0.003516447	-0.004090635	3.196569e-09	2.321786e-09	0.001410639	-0.01505246
3.4e+08	0.0001306465	-0.01313203	1.682417e-10	-1.26392e-10	0.002229268	-0.00330637	8.309679e-10	-4.834255e-10
	1.682417e-10	-1.26392e-10	0.0004758786	-0.0128959	3.940627e-09	2.557975e-08	0.00261825	-0.003105579
	0.002229268	-0.00330637	3.940627e-09	2.557975e-08	0.0001065683	-0.01303666	3.085936e-09	1.994187e-09
	8.309679e-10	-4.834255e-10	0.00261825	-0.003105579	3.085936e-09	1.994187e-09	0.0004732482	-0.01290042
3.5e+08	-0.0004590418	-0.01086195	2.662734e-10	-1.588914e-10	0.001529632	-0.00213932	7.587943e-10	-6.172218e-10
	2.662734e-10	-1.588914e-10	-0.0001457607	-0.01067651	4.025014e-09	2.616389e-08	0.001882921	-0.001987367
	0.001529632	-0.00213932	4.025014e-09	2.616389e-08	-0.0004682273	-0.01076651	2.908579e-09	1.679966e-09
	7.587943e-10	-6.172218e-10	0.001882921	-0.001987367	2.908579e-09	1.679966e-09	-0.0001407842	-0.01067545
3.6e+08	-0.0007106351	-0.008570207	3.673958e-10	-2.107291e-10	0.001022813	-0.000872666	6.647677e-10	-7.413388e-10
	3.673958e-10	-2.107291e-10	-0.0004405675	-0.008430814	4.088998e-09	2.674272e-08	0.001329667	-0.0007641681
	0.001022813	-0.000872666	4.088998e-09	2.674272e-08	-0.0007048953	-0.008477007	2.6658e-09	1.389526e-09
	6.647677e-10	-7.413388e-10	0.001329667	-0.0007641681	2.6658e-09	1.389526e-09	-0.0004267476	-0.00842552
3.7e+08	-0.0006270036	-0.00630646	4.678661e-10	-2.834432e-10	0.0007223848	0.0004608661	5.5016e-10	-8.524007e-10
	4.678661e-10	-2.834432e-10	-0.0004107147	-0.006206492	4.131439e-09	2.731954e-08	0.000972873	0.000533158
	0.0007223848	0.0004608661	4.131439e-09	2.731954e-08	-0.0006066673	-0.006217815	2.360448e-09	1.133216e-09
	5.5016e-10	-8.524007e-10	0.000972873	0.000533158	2.360448e-09	1.133216e-09	-0.0003870511	-0.006198521
3.8e+08	-0.0002183203	-0.004119149	5.634773e-10	-3.777845e-10	0.0006364164	0.001826801	4.167115e-10	-9.471718e-10
	5.634773e-10	-3.777845e-10	-6.533716e-05	-0.004050132	4.151701e-09	2.789794e-08	0.0008217385	0.001871873
	0.0006364164	0.001826801	4.151701e-09	2.789794e-08	-0.0001840831	-0.004037328	1.996953e-09	9.211247e-10
	4.167115e-10	-9.471718e-10	0.0008217385	0.001871873	1.996953e-09	9.211247e-10	-3.109945e-05	-0.004041206
3.9e+08	0.0004982272	-0.00205443	6.497434e-10	-4.935924e-10	0.0007672641	0.003189835	2.666301e-10	-1.022604e-09
	6.497434e-10	-4.935924e-10	0.0005797377	-0.002006211	4.149729e-09	2.848171e-08	0.0008800517	0.003218227
	0.0007672641	0.003189835	4.149729e-09	2.848171e-08	0.0005453102	-0.001981598	1.581336e-09	7.628521e-10
	2.666301e-10	-1.022604e-09	0.0008800517	0.003218227	1.581336e-09	7.628521e-10	0.0006249842	-0.001998171
4e+08	0.001498884	-0.0001551666	7.221166e-10	-6.297175e-10	0.001111522	0.004514775	1.025912e-10	-1.07589e-09
	7.221166e-10	-6.297175e-10	0.001502408	-0.000116137	4.12611e-09	2.907476e-08	0.001146107	0.004538345
	0.001111522	0.004514775	4.12611e-09	2.907476e-08	0.001557416	-9.332663e-05	1.121192e-09	6.672714e-10
	1.025912e-10	-1.07589e-09	0.001146107	0.004538345	1.121192e-09	6.672714e-10	0.001558785	-0.0001108908
4.1e+08	0.002753923	0.001540003	7.762224e-10	-7.840045e-10	0.001660121	0.005767474	-7.226404e-11	-1.104532e-09
	7.762224e-10	-7.840045e-10	0.002674853	0.001582634	4.082123e-09	2.968099e-08	0.001612768	0.005799117
	0.001660121	0.005767474	4.082123e-09	2.968099e-08	0.002822188	0.001589068	6.256413e-10	6.422646e-10
	-7.226404e-11	-1.104532e-09	0.001612768	0.005799117	6.256413e-10	6.422646e-10	0.002742158	0.001583163
4.2e+08	0.004228366	0.002997493	8.080953e-10	-9.533337e-10	0.002398588	0.006915727	-2.543387e-10	-1.106416e-09
	8.080953e-10	-9.533337e-10	0.004064208	0.003057376	4.01976e-09	3.030419e-08	0.002267671	0.006969056
	0.002398588	0.006915727	4.01976e-09	3.030419e-08	0.004304369	0.00303227	1.052272e-10	6.944516e-10
	-2.543387e-10	-1.106416e-09	0.002267671	0.006969056	1.052272e-10	6.944516e-10	0.004141916	0.003051306
4.3e+08	0.005882823	0.004189477	8.144012e-10	-1.13372e-09	0.00330743	0.00793012	-4.396048e-10	-1.079906e-09
	8.144012e-10	-1.13372e-09	0.005633348	0.004280771	3.941729e-09	3.094785e-08	0.003093566	0.008019114
	0.00330743	0.00793012	3.941729e-09	3.094785e-08	0.00596433	0.004208768	-4.282313e-10	8.289164e-10
	-4.396048e-10	-1.079906e-09	0.003093566	0.008019114	-4.282313e-10	8.289164e-10	0.00572062	0.004266312
4.4e+08	0.007674427	0.005094455	7.926287e-10	-1.320467e-09	0.004362664	0.008784802	-6.236475e-10	-1.023936e-09
	7.926287e-10	-1.320467e-09	0.007341762	0.005231443	3.851417e-09	3.161504e-08	0.00406878	0.008923433
	0.004362664	0.008784802	3.851417e-09	3.161504e-08	0.007759015	0.005097413	-9.618503e-10	1.048944e-09
	-6.236475e-10	-1.023936e-09	0.00406878	0.008923433	-9.618503e-10	1.048944e-09	0.007437463	0.005206952
4.5e+08	0.009557826	0.005697672	7.412383e-10	-1.508362e-09	0.005536455	0.009458154	-8.017362e-10	-9.381135e-10
	7.412383e-10	-1.508362e-09	0.009146487	0.005894371	3.752821e-09	3.230828e-08	0.005167794	0.009660003
	0.005536455	0.009458154	3.752821e-09	3.230828e-08	0.009642945	0.005683835	-1.48195e-09	1.355778e-09
	-8.017362e-10	-9.381135e-10	0.005167794	0.009660003	-1.48195e-09	1.355778e-09	0.009249211	0.005858399
4.6e+08	0.01148625	0.005991382	6.597544e-10	-1.691909e-09	0.006797853	0.009933351	-9.68923e-10	-8.228155e-10
	6.597544e-10	-1.691909e-09	0.01100309	0.006261141	3.650446e-09	3.302938e-08	0.006361917	0.01021122
	0.006797853	0.009933351	3.650446e-09	3.302938e-08	0.01156927	0.005960693	-1.97439e-09	1.748422e-09
	-9.68923e-10	-8.228155e-10	0.006361917	0.01021122	-1.97439e-09	1.748422e-09	0.01111119	0.006212477
4.7e+08	0.01341256	0.005974924	5.488075e-10	-1.865557e-09	0.008113609	0.01019879	-1.120168e-09	-6.792647e-10
	5.488075e-10	-1.865557e-09	0.01286668	0.006330058	3.549178e-09	3.377935e-08	0.007620039	0.01056434
	0.008113609	0.01019879	3.549178e-09	3.377935e-08	0.01349085	0.005927766	-2.424928e-09	2.223499e-09
	-1.120168e-09	-6.792647e-10	0.007620039	0.01056434	-2.424928e-09	2.223499e-09	0.01297834	0.006267734
