!$
! Info: Touchstone file created by Circ.  Input file=Tx_8in_Rx_85ohms_TxVia_10mils_RxVia_20mils.circ
!$
# Hz S RI R 50
0	0.006518871	6.627391e-26	-4.343969e-05	-5.989411e-26	5.690846e-05	8.158267e-24	-4.345287e-05	1.558323e-24
	-4.343969e-05	-5.908254e-26	0.006521727	7.639495e-26	-4.343922e-05	-4.962302e-26	5.433803e-05	9.23979e-24
	5.69565e-05	8.163035e-24	-4.343921e-05	-5.046635e-26	0.006533766	6.645701e-26	-4.344077e-05	1.594641e-25
	-4.345286e-05	1.557416e-24	5.579502e-05	9.509961e-24	-4.344076e-05	1.584605e-25	0.006527339	7.286897e-26
1e+07	0.008537712	-0.007555374	-4.716099e-06	-1.103363e-05	0.0001761002	0.001493476	-2.667432e-06	-1.285735e-05
	-4.716098e-06	-1.103363e-05	0.008524085	-0.007423081	-7.650764e-06	-4.994093e-07	0.0002348057	0.001489469
	0.0001761046	0.001493473	-7.650765e-06	-4.994091e-07	0.009621374	-0.007309262	-1.679151e-05	1.35677e-06
	-2.667433e-06	-1.285735e-05	0.0002348381	0.001489457	-1.679151e-05	1.35677e-06	0.008513594	-0.007417684
2e+07	0.008701634	-0.01721139	-4.279183e-06	-4.295172e-06	0.0005574751	0.002943746	-1.462559e-06	-6.754666e-06
	-4.279182e-06	-4.295172e-06	0.008803581	-0.01699307	-1.934991e-05	-1.205168e-05	0.0006339502	0.002887015
	0.000557474	0.002943743	-1.934991e-05	-1.205168e-05	0.009806891	-0.01720494	-2.459697e-05	-5.72387e-06
	-1.462559e-06	-6.754666e-06	0.0006339471	0.002886994	-2.459697e-05	-5.72387e-06	0.008798105	-0.01697414
3e+07	0.006499613	-0.02751071	-4.077436e-06	-2.607773e-06	0.001210145	0.00425148	-1.842417e-06	-5.273847e-06
	-4.077436e-06	-2.607773e-06	0.006677543	-0.02727571	-2.826453e-05	-1.255302e-05	0.001246792	0.004183085
	0.001210145	0.004251479	-2.826453e-05	-1.255302e-05	0.00761117	-0.02762819	-3.042078e-05	-5.074077e-06
	-1.842417e-06	-5.273847e-06	0.001246786	0.004183082	-3.042078e-05	-5.074076e-06	0.006676294	-0.02724834
4e+07	0.002295373	-0.03748676	-3.901721e-06	-1.686014e-06	0.002058267	0.005413882	-2.76292e-06	-4.198641e-06
	-3.901721e-06	-1.686014e-06	0.002521873	-0.03725576	-3.550751e-05	-9.849779e-06	0.002054838	0.005347155
	0.002058268	0.005413882	-3.550751e-05	-9.849779e-06	0.003397585	-0.03771276	-3.501999e-05	-2.210745e-06
	-2.76292e-06	-4.198641e-06	0.002054838	0.005347156	-3.501999e-05	-2.210745e-06	0.002523668	-0.03722318
5e+07	-0.003672379	-0.0467061	-3.727006e-06	-1.053447e-06	0.003075295	0.006404491	-3.510207e-06	-3.228967e-06
	-3.727006e-06	-1.053447e-06	-0.003419831	-0.04648753	-4.135278e-05	-5.2117e-06	0.00303189	0.006349855
	0.003075296	0.00640449	-4.135278e-05	-5.2117e-06	-0.00259408	-0.04703401	-3.857565e-05	1.971701e-06
	-3.510207e-06	-3.228967e-06	0.00303189	0.006349856	-3.857565e-05	1.971701e-06	-0.003417347	-0.04645035
6e+07	-0.01117021	-0.05485111	-3.542829e-06	-5.677849e-07	0.00422901	0.007199784	-4.090941e-06	-2.254797e-06
	-3.542829e-06	-5.677849e-07	-0.01091075	-0.05464675	-4.586711e-05	8.445921e-07	0.004146729	0.007166686
	0.004229011	0.007199784	-4.586711e-05	8.445921e-07	-0.01012961	-0.05527573	-4.112786e-05	7.108661e-06
	-4.090941e-06	-2.254797e-06	0.004146726	0.007166687	-4.112786e-05	7.108661e-06	-0.01090883	-0.05460444
7e+07	-0.01994765	-0.06167278	-3.344193e-06	-1.732024e-07	0.005483328	0.007781738	-4.501807e-06	-1.23978e-06
	-3.344193e-06	-1.732023e-07	-0.01969752	-0.0614802	-4.901478e-05	8.04559e-06	0.005364526	0.007779085
	0.00548333	0.007781738	-4.901478e-05	8.04559e-06	-0.01895787	-0.06218867	-4.264927e-05	1.300317e-05
	-4.501807e-06	-1.23978e-06	0.005364521	0.007779088	-4.264927e-05	1.300317e-05	-0.01969699	-0.06143241
8e+07	-0.02973445	-0.06697895	-3.128637e-06	1.555609e-07	0.006799728	0.008138818	-4.730361e-06	-1.710268e-07
	-3.128637e-06	1.55561e-07	-0.02950745	-0.06679328	-5.067516e-05	1.623919e-05	0.006648171	0.008175087
	0.00679973	0.008138818	-5.067516e-05	1.623919e-05	-0.02880811	-0.06758028	-4.304348e-05	1.953089e-05
	-4.730361e-06	-1.710268e-07	0.006648167	0.008175092	-4.304348e-05	1.953089e-05	-0.02950934	-0.06673955
9e+07	-0.04024374	-0.07063062	-2.89448e-06	4.29839e-07	0.008138677	0.008266434	-4.740465e-06	9.631083e-07
	-2.894481e-06	4.298391e-07	-0.04005228	-0.07044644	-5.058552e-05	2.540001e-05	0.007959767	0.008349755
	0.008138678	0.008266434	-5.058552e-05	2.540001e-05	-0.03939373	-0.0713118	-4.21108e-05	2.669357e-05
	-4.740465e-06	9.631084e-07	0.007959764	0.008349759	-4.21108e-05	2.669357e-05	-0.04005777	-0.07038577
1e+08	-0.05117365	-0.07253639	-2.630326e-06	6.564234e-07	0.009461347	0.00816723	-4.398687e-06	2.266029e-06
	-2.630326e-06	6.564234e-07	-0.05103602	-0.0723556	-4.764494e-05	3.623946e-05	0.009263458	0.008306631
	0.009461347	0.00816723	-4.764494e-05	3.623946e-05	-0.05041892	-0.07329789	-3.905902e-05	3.499725e-05
	-4.398687e-06	2.266029e-06	0.009263458	0.008306631	-3.905902e-05	3.499725e-05	-0.05104616	-0.07228645
1.1e+08	-0.06221166	-0.07270964	-2.441385e-06	8.675379e-07	0.01073101	0.007847951	-3.501665e-06	3.056656e-06
	-2.441385e-06	8.675379e-07	-0.06216192	-0.07248102	-3.990869e-05	4.301251e-05	0.01052721	0.008041088
	0.01073101	0.007847951	-3.990869e-05	4.301251e-05	-0.06158358	-0.07350999	-3.670453e-05	3.630884e-05
	-3.501665e-06	3.056656e-06	0.01052721	0.008041087	-3.670453e-05	3.630884e-05	-0.06217597	-0.07240082
1.2e+08	-0.07310796	-0.071137	-2.274696e-06	1.083395e-06	0.01191	0.007324475	-2.743514e-06	3.557019e-06
	-2.274696e-06	1.083395e-06	-0.07312101	-0.07083048	-3.746085e-05	4.410746e-05	0.01170435	0.007571634
	0.01191	0.007324475	-3.746085e-05	4.410746e-05	-0.07259356	-0.07194944	-3.541697e-05	3.676612e-05
	-2.743514e-06	3.557019e-06	0.01170435	0.007571634	-3.541697e-05	3.676612e-05	-0.07313783	-0.07073742
1.3e+08	-0.08357189	-0.06787222	-2.105472e-06	1.280344e-06	0.01296765	0.006617629	-2.218322e-06	3.769656e-06
	-2.105472e-06	1.280344e-06	-0.08362853	-0.06747209	-3.569022e-05	4.47442e-05	0.01276641	0.006920013
	0.01296765	0.006617629	-3.569022e-05	4.47442e-05	-0.08316325	-0.06868015	-3.379431e-05	3.764999e-05
	-2.218322e-06	3.769656e-06	0.01276641	0.006920013	-3.379431e-05	3.764999e-05	-0.08364674	-0.06736473
1.4e+08	-0.09333615	-0.0630193	-1.930362e-06	1.456215e-06	0.01387726	0.005752168	-2.153517e-06	3.660256e-06
	-1.930362e-06	1.456215e-06	-0.09341723	-0.06251572	-3.362606e-05	4.566636e-05	0.01368749	0.006110072
	0.01387726	0.005752168	-3.362606e-05	4.566636e-05	-0.09302534	-0.06380944	-3.193293e-05	3.874148e-05
	-2.153517e-06	3.660256e-06	0.01368749	0.006110072	-3.193293e-05	3.874148e-05	-0.09343505	-0.06239289
1.5e+08	-0.1021586	-0.05672271	-1.74928e-06	1.609549e-06	0.0146169	0.004756223	-2.077048e-06	3.588489e-06
	-1.74928e-06	1.609549e-06	-0.1022447	-0.0561105	-3.132411e-05	4.67306e-05	0.01444607	0.005168708
	0.0146169	0.004756223	-3.132411e-05	4.67306e-05	-0.1019372	-0.0574841	-2.987244e-05	3.992452e-05
	-2.077048e-06	3.588489e-06	0.01444607	0.005168708	-2.987244e-05	3.992452e-05	-0.10226	-0.05597144
1.6e+08	-0.1098267	-0.04916171	-1.562756e-06	1.741893e-06	0.01516974	0.003660443	-1.992091e-06	3.544239e-06
	-1.562756e-06	1.741893e-06	-0.1098986	-0.04843994	-2.881446e-05	4.784528e-05	0.01502538	0.004125194
	0.01516974	0.003660443	-2.881446e-05	4.784528e-05	-0.109686	-0.0498854	-2.763417e-05	4.112902e-05
	-1.992091e-06	3.544239e-06	0.01502538	0.004125194	-2.763417e-05	4.112902e-05	-0.1099091	-0.04828436
1.7e+08	-0.1161617	-0.04054463	-1.371558e-06	1.854144e-06	0.01552419	0.002497132	-1.900187e-06	3.520821e-06
	-1.371558e-06	1.854144e-06	-0.1162007	-0.03971641	-2.611822e-05	4.894439e-05	0.01541359	0.003010409
	0.01552419	0.002497132	-2.611822e-05	4.894439e-05	-0.1160927	-0.04122346	-2.523328e-05	4.230357e-05
	-1.900187e-06	3.520821e-06	0.01541359	0.003010409	-2.523328e-05	4.230357e-05	-0.1162039	-0.03954454
1.8e+08	-0.1210217	-0.03110292	-1.176639e-06	1.946844e-06	0.01567394	0.001299426	-1.80204e-06	3.513501e-06
	-1.176639e-06	1.946844e-06	-0.1210102	-0.03017515	-2.325341e-05	4.997694e-05	0.01560386	0.001856086
	0.01567394	0.001299426	-2.325341e-05	4.997694e-05	-0.1210151	-0.0317314	-2.268312e-05	4.340763e-05
	-1.80204e-06	3.513501e-06	0.01560386	0.001856086	-2.268312e-05	4.340763e-05	-0.1210036	-0.02998776
1.9e+08	-0.1243039	-0.02108504	-9.791141e-07	2.020359e-06	0.0156178	0.0001005408	-1.697931e-06	3.518729e-06
	-9.791141e-07	2.020359e-06	-0.124226	-0.02006813	-2.023773e-05	5.090178e-05	0.0155942	0.0006941122
	0.0156178	0.0001005408	-2.023773e-05	5.090178e-05	-0.1243506	-0.02165919	-1.999724e-05	4.440786e-05
	-1.697931e-06	3.518729e-06	0.0155942	0.0006941122	-1.999724e-05	4.440786e-05	-0.1242072	-0.01986655
2e+08	-0.1259462	-0.01075031	-7.80222e-07	2.074992e-06	0.0153596	-0.001066925	-1.5879e-06	3.533725e-06
	-7.80222e-07	2.074992e-06	-0.1257882	-0.009657829	-1.708969e-05	5.168496e-05	0.01538737	-0.0004441068
	0.0153596	-0.001066925	-1.708969e-05	5.168496e-05	-0.1260372	-0.01126755	-1.719028e-05	4.527622e-05
	-1.5879e-06	3.533725e-06	0.01538737	-0.0004441068	-1.719028e-05	4.527622e-05	-0.1257551	-0.009443881
2.1e+08	-0.1259277	-0.0003626529	-5.812982e-07	2.111064e-06	0.01490793	-0.002171624	-1.471869e-06	3.55623e-06
	-5.812982e-07	2.111064e-06	-0.1256789	0.0007891322	-1.38292e-05	5.22983e-05	0.01499065	-0.001528233
	0.01490793	-0.002171624	-1.38292e-05	5.22983e-05	-0.1260543	-0.0008216519	-1.427836e-05	4.598895e-05
	-1.471869e-06	3.55623e-06	0.01499065	-0.001528233	-1.427836e-05	4.598895e-05	-0.1256297	0.001013144
2.2e+08	-0.1242686	0.009815504	-3.837407e-07	2.128966e-06	0.01427586	-0.003184042	-1.349679e-06	3.584346e-06
	-3.837407e-07	2.128966e-06	-0.1239215	0.01100815	-1.047761e-05	5.271854e-05	0.01441559	-0.00252953
	0.01427586	-0.003184042	-1.047761e-05	5.271854e-05	-0.1244228	0.009414935	-1.127912e-05	4.652607e-05
	-1.349679e-06	3.584346e-06	0.01441559	-0.00252953	-1.127912e-05	4.652607e-05	-0.1238547	0.01123952
2.3e+08	-0.1210294	0.01952924	-1.889753e-07	2.129199e-06	0.01348064	-0.00407704	-1.221131e-06	3.616417e-06
	-1.889753e-07	2.129199e-06	-0.1205801	0.02074274	-7.057569e-06	5.292684e-05	0.01367778	-0.003421368
	0.01348064	-0.00407704	-7.057569e-06	5.292684e-05	-0.1212035	0.01918627	-8.211646e-06	4.687099e-05
	-1.221131e-06	3.616417e-06	0.01367778	-0.003421368	-8.211646e-06	4.687099e-05	-0.1204948	0.02097843
2.4e+08	-0.1163089	0.02853689	1.589296e-09	2.112393e-06	0.01254336	-0.004826361	-1.086039e-06	3.650982e-06
	1.589296e-09	2.112393e-06	-0.1157574	0.02975034	-3.593067e-06	5.290859e-05	0.01279652	-0.004179704
	0.01254336	-0.004826361	-3.593067e-06	5.290859e-05	-0.1164957	0.02824982	-5.096386e-06	4.701052e-05
	-1.086039e-06	3.650982e-06	0.01279652	-0.004179704	-5.096386e-06	4.701052e-05	-0.1156533	0.02998709
2.5e+08	-0.1102418	0.03661558	1.865918e-07	2.079318e-06	0.01148855	-0.005411126	-9.442044e-07	3.686694e-06
	1.865918e-07	2.079318e-06	-0.1095921	0.0378079	-1.088799e-07	5.265307e-05	0.01179449	-0.004783548
	0.01148855	-0.005411126	-1.088799e-07	5.265307e-05	-0.1104351	0.0363819	-1.954797e-06	4.693467e-05
	-9.442044e-07	3.686694e-06	0.01179449	-0.004783548	-1.954797e-06	4.693467e-05	-0.1094695	0.03804231
2.6e+08	-0.1029957	0.0435663	3.64758e-07	2.030874e-06	0.01034376	-0.0058143	-7.954607e-07	3.722298e-06
	3.64758e-07	2.030874e-06	-0.1022561	0.044717	3.369592e-06	5.215341e-05	0.0106974	-0.005215421
	0.01034376	-0.0058143	3.369592e-06	5.215341e-05	-0.1031897	0.04338288	1.190871e-06	4.663667e-05
	-7.954607e-07	3.722298e-06	0.0106974	-0.005215421	1.190871e-06	4.663667e-05	-0.1021158	0.04494565
2.7e+08	-0.09476688	0.04921866	5.349287e-07	1.968084e-06	0.009139025	-0.006023138	-6.39661e-07	3.756576e-06
	5.349287e-07	1.968084e-06	-0.09394961	0.05030856	6.816773e-06	5.140636e-05	0.009533525	-0.0054618
	0.009139025	-0.006023138	6.816773e-06	5.140636e-05	-0.09495684	0.0490818	4.31794e-06	4.61128e-05
	-6.39661e-07	3.756576e-06	0.009533525	-0.0054618	4.31794e-06	4.61128e-05	-0.09379317	0.05052815
2.8e+08	-0.08577625	0.05343498	6.960854e-07	1.892068e-06	0.007906317	-0.006029598	-4.767059e-07	3.788353e-06
	6.960854e-07	1.892068e-06	-0.08489731	0.054447	1.02072e-05	5.041229e-05	0.008333163	-0.005513539
	0.007906317	-0.006029598	1.02072e-05	5.041229e-05	-0.08595807	0.0533406	7.403611e-06	4.536259e-05
	-4.767059e-07	3.788353e-06	0.008333163	-0.005513539	7.403611e-06	4.536259e-05	-0.08472691	0.05465444
2.9e+08	-0.0762637	0.05611385	8.473673e-07	1.804016e-06	0.006678859	-0.0058307	-3.06551e-07	3.816456e-06
	8.473673e-07	1.804016e-06	-0.07534254	0.0570337	1.351596e-05	4.917496e-05	0.007128064	-0.005366248
	0.006678859	-0.0058307	1.351596e-05	4.917496e-05	-0.07643417	0.05605756	1.042535e-05	4.438853e-05
	-3.06551e-07	3.816456e-06	0.007128064	-0.005366248	1.042535e-05	4.438853e-05	-0.07516097	0.05722623
3e+08	-0.06648263	0.0571929	9.88078e-07	1.705157e-06	0.005490367	-0.005428805	-1.292256e-07	3.839696e-06
	9.88078e-07	1.705157e-06	-0.06554165	0.05800971	1.671904e-05	4.770128e-05	0.005950702	-0.005020599
	0.005490367	-0.005428805	1.671904e-05	4.770128e-05	-0.06663938	0.05717014	1.336123e-05	4.319601e-05
	-1.292256e-07	3.839696e-06	0.005950702	-0.005020599	1.336123e-05	4.319601e-05	-0.06535222	0.05818505
3.1e+08	-0.05669372	0.05665072	1.117686e-06	1.596726e-06	0.004374202	-0.004831794	5.515195e-08	3.856888e-06
	1.117686e-06	1.596726e-06	-0.05575766	0.05735764	1.979349e-05	4.600098e-05	0.004833487	-0.004482549
	0.004374202	-0.004831794	1.979349e-05	4.600098e-05	-0.05683523	0.0566569	1.619037e-05	4.179327e-05
	5.515195e-08	3.856888e-06	0.004833487	-0.004482549	1.619037e-05	4.179327e-05	-0.05556417	0.05751403
3.2e+08	-0.04715839	0.05450781	1.235817e-06	1.47993e-06	0.003362449	-0.004053102	2.463496e-07	3.866826e-06
	1.235817e-06	1.47993e-06	-0.04625361	0.05510247	2.271795e-05	4.40866e-05	0.003807882	-0.003763422
	0.003362449	-0.004053102	2.271795e-05	4.40866e-05	-0.04728397	0.05453844	1.889317e-05	4.019106e-05
	2.463496e-07	3.866826e-06	0.003807882	-0.003763422	1.889317e-05	4.019106e-05	-0.04606025	0.05523882
3.3e+08	-0.0381321	0.05082657	1.342235e-06	1.355945e-06	0.002484941	-0.003111592	4.43999e-07	3.868289e-06
	1.342235e-06	1.355945e-06	-0.03728577	0.05131136	2.547376e-05	4.197389e-05	0.002903467	-0.002879841
	0.002484941	-0.003111592	2.547376e-05	4.197389e-05	-0.03824181	0.05087736	2.14517e-05	3.840238e-05
	4.43999e-07	3.868289e-06	0.002903467	-0.002879841	2.14517e-05	3.840238e-05	-0.03709697	0.05142733
3.4e+08	-0.0298575	0.04571008	1.436829e-06	1.22587e-06	0.001768274	-0.002031238	6.475249e-07	3.860037e-06
	1.436829e-06	1.22587e-06	-0.02909676	0.04609239	2.804381e-05	3.968e-05	0.00214698	-0.001853472
	0.001768274	-0.002031238	2.804381e-05	3.968e-05	-0.02995213	0.04577709	2.384959e-05	3.644208e-05
	6.475249e-07	3.860037e-06	0.00214698	-0.001853472	2.384959e-05	3.644208e-05	-0.02891707	0.04618845
3.5e+08	-0.02255788	0.03929979	1.519566e-06	1.090713e-06	0.001234848	-0.0008405968	8.563057e-07	3.840957e-06
	1.519566e-06	1.090713e-06	-0.02190893	0.03959202	3.04138e-05	3.722401e-05	0.00156137	-0.0007105734
	0.001234848	-0.0008405968	3.04138e-05	3.722401e-05	-0.02263886	0.03937954	2.607333e-05	3.432716e-05
	8.563057e-07	3.840957e-06	0.00156137	-0.0007105734	2.607333e-05	3.432716e-05	-0.02174289	0.03966943
3.6e+08	-0.01643091	0.0317721	1.590481e-06	9.513973e-07	0.000901988	0.0004279183	1.069514e-06	3.809957e-06
	1.590481e-06	9.513973e-07	-0.01591805	0.03199154	3.257219e-05	3.462636e-05	0.001164922	0.0005186649
	0.000901988	0.0004279183	3.257219e-05	3.462636e-05	-0.01650023	0.03186161	2.811169e-05	3.207576e-05
	1.069514e-06	3.809957e-06	0.001164922	0.0005186649	2.811169e-05	3.207576e-05	-0.01577006	0.0320524
3.7e+08	-0.01164298	0.02333376	1.649642e-06	8.087627e-07	0.000781194	0.001738969	1.286144e-06	3.766026e-06
	1.649642e-06	8.087627e-07	-0.01128776	0.0235023	3.451e-05	3.190823e-05	0.0009704976	0.001800974
	0.000781194	0.001738969	3.451e-05	3.190823e-05	-0.01170306	0.0234307	2.995577e-05	2.970679e-05
	1.286144e-06	3.766026e-06	0.0009704976	0.001800974	2.995577e-05	2.970679e-05	-0.01116188	0.02354949
3.8e+08	-0.008324378	0.0142164	1.69713e-06	6.635735e-07	0.0008775818	0.003055385	1.50503e-06	3.708273e-06
	1.69713e-06	6.635735e-07	-0.008144696	0.01436003	3.622104e-05	2.909124e-05	0.0009849464	0.003101032
	0.0008775818	0.003055385	3.622104e-05	2.909124e-05	-0.008377924	0.01431912	3.159922e-05	2.723962e-05
	1.50503e-06	3.708273e-06	0.0009849464	0.003101032	3.159922e-05	2.723962e-05	-0.008044559	0.01439721
3.9e+08	-0.00656542	0.004670118	1.733017e-06	5.165351e-07	0.001189545	0.004339392	1.724871e-06	3.635966e-06
	1.733017e-06	5.165351e-07	-0.006574796	0.004818337	3.770188e-05	2.619696e-05	0.001208734	0.004382614
	0.001189545	0.004339392	3.770188e-05	2.619696e-05	-0.006615326	0.00477769	3.303818e-05	2.469369e-05
	1.724871e-06	3.635966e-06	0.001208734	0.004382614	3.303818e-05	2.469369e-05	-0.006503414	0.004849839
4e+08	-0.006413814	-0.005043505	1.757354e-06	3.683147e-07	0.001708682	0.005553904	1.944245e-06	3.548549e-06
	1.757354e-06	3.683147e-07	-0.00662071	-0.004858483	3.895169e-05	2.324654e-05	0.001635814	0.005609835
	0.001708682	0.005553904	3.895169e-05	2.324654e-05	-0.006462979	-0.00493126	3.427113e-05	2.20881e-05
	1.944245e-06	3.548549e-06	0.001635814	0.005609835	3.427113e-05	2.20881e-05	-0.006580374	-0.004827755
4.1e+08	-0.007873253	-0.01465882	1.770163e-06	2.19565e-07	0.002419992	0.006663829	2.161657e-06	3.44567e-06
	1.770163e-06	2.19565e-07	-0.008280566	-0.01440296	3.997208e-05	2.026027e-05	0.002253771	0.006748392
	0.002419992	0.006663829	3.997208e-05	2.026027e-05	-0.007924444	-0.01454136	3.529884e-05	1.944129e-05
	2.161657e-06	3.44567e-06	0.002253771	0.006748392	3.529884e-05	1.944129e-05	-0.008272729	-0.01436764
4.2e+08	-0.0109034	-0.02391368	1.771445e-06	7.09448e-08	0.003302362	0.007637313	2.375569e-06	3.32719e-06
	1.771445e-06	7.09448e-08	-0.01150811	-0.0235521	4.076681e-05	1.72573e-05	0.003044219	0.007766772
	0.003302362	0.007637313	4.076681e-05	1.72573e-05	-0.0109591	-0.02378979	3.6124e-05	1.677068e-05
	2.375569e-06	3.32719e-06	0.003044219	0.007766772	3.6124e-05	1.677068e-05	-0.0115333	-0.02350653
4.3e+08	-0.01542121	-0.03255687	1.761181e-06	-7.685852e-08	0.004329292	0.008446859	2.584442e-06	3.193181e-06
	1.761181e-06	-7.685852e-08	-0.01621419	-0.03205489	4.134142e-05	1.425529e-05	0.003983465	0.008637344
	0.004329292	0.008446859	4.134142e-05	1.425529e-05	-0.0154835	-0.03242473	3.675104e-05	1.409248e-05
	2.584442e-06	3.193181e-06	0.003983465	0.008637344	3.675104e-05	1.409248e-05	-0.01627196	-0.03199327
4.4e+08	-0.02130356	-0.04035516	1.739352e-06	-2.23115e-07	0.005469851	0.009070269	2.786766e-06	3.043924e-06
	1.739352e-06	-2.23115e-07	-0.02226965	-0.03967942	4.17029e-05	1.127034e-05	0.005043366	0.009337284
	0.005469851	0.009070269	4.17029e-05	1.127034e-05	-0.021374	-0.04021245	3.718571e-05	1.142146e-05
	2.786766e-06	3.043924e-06	0.005043366	0.009337284	3.718571e-05	1.142146e-05	-0.02235854	-0.03959597
4.5e+08	-0.02839114	-0.04709974	1.705956e-06	-3.670397e-07	0.006689801	0.009491346	2.981104e-06	2.879895e-06
	1.705956e-06	-3.670397e-07	-0.02950928	-0.04621922	4.185933e-05	8.3168e-06	0.006192371	0.009849281
	0.006689801	0.009491346	4.185933e-05	8.3168e-06	-0.02847064	-0.04694376	3.743484e-05	8.770895e-06
	2.981104e-06	2.879895e-06	0.006192371	0.009849281	3.743484e-05	8.770895e-06	-0.02962683	-0.04610838
4.6e+08	-0.03649326	-0.05261178	1.661027e-06	-5.077889e-07	0.007952817	0.009700351	3.166126e-06	2.701732e-06
	1.661027e-06	-5.077889e-07	-0.03773697	-0.05149888	4.181947e-05	5.40733e-06	0.007396657	0.01016201
	0.007952817	0.009700351	4.181947e-05	5.40733e-06	-0.03658206	-0.0524396	3.750599e-05	6.152515e-06
	3.166126e-06	2.701732e-06	0.007396657	0.01016201	3.750599e-05	6.152515e-06	-0.03787975	-0.05135548
4.7e+08	-0.04539362	-0.05674702	1.604659e-06	-6.444611e-07	0.009221764	0.00969418	3.340617e-06	2.510221e-06
	1.604659e-06	-6.444611e-07	-0.04673155	-0.05537846	4.159244e-05	2.552945e-06	0.008621315	0.01027035
	0.009221764	0.00969418	4.159244e-05	2.552945e-06	-0.04549123	-0.05655561	3.740707e-05	3.576547e-06
	3.340617e-06	2.510221e-06	0.008621315	0.01027035	3.740707e-05	3.576547e-06	-0.04689522	-0.05519789
4.8e+08	-0.05485663	-0.05939916	1.537025e-06	-7.761037e-07	0.01045994	0.009476284	3.503519e-06	2.306243e-06
