!$
! Info: Touchstone file created by Circ.  Input file=Tx_8in_Rx_85ohms_TxVia_10mils_RxVia_20mils.circ
!$
# Hz S RI R 50
0	0.006522372	5.334208e-26	-4.343884e-05	1.744982e-25	5.473043e-05	6.749547e-24	-4.34441e-05	4.637921e-25
	-4.343885e-05	1.748046e-25	0.006521727	7.639495e-26	-4.343896e-05	3.182662e-26	5.433803e-05	9.23979e-24
	5.284096e-05	6.654461e-24	-4.343896e-05	3.215935e-26	0.006536433	5.551111e-26	-4.343789e-05	3.737435e-25
	-4.344409e-05	4.62061e-25	5.579502e-05	9.509961e-24	-4.343787e-05	3.715947e-25	0.006527339	7.286897e-26
1e+07	0.009606593	-0.007307011	-0.0001880536	-2.370017e-05	0.0001754174	0.001485119	-0.0001278036	8.110927e-05
	-0.0001880536	-2.370017e-05	0.008524085	-0.007423081	-5.550944e-06	-1.24006e-05	0.0002348057	0.001489469
	0.0001753787	0.001485144	-5.550942e-06	-1.24006e-05	0.008552053	-0.007560888	-3.972333e-05	-1.318049e-05
	-0.0001278036	8.110927e-05	0.0002348381	0.001489457	-3.972333e-05	-1.318049e-05	0.008513594	-0.007417684
2e+07	0.009788713	-0.0171969	-0.0001692739	8.201562e-06	0.0005496365	0.002930045	-0.000123355	7.812111e-05
	-0.0001692739	8.201559e-06	0.008803581	-0.01699307	-4.915283e-06	-3.492152e-06	0.0006339502	0.002887015
	0.0005496443	0.002930063	-4.915283e-06	-3.492153e-06	0.008713094	-0.01722306	-3.558914e-05	3.84931e-06
	-0.000123355	7.812111e-05	0.0006339471	0.002886994	-3.558914e-05	3.849312e-06	0.008798105	-0.01697414
3e+07	0.007593994	-0.02761124	-0.0001601988	3.687877e-08	0.001196409	0.004236163	-0.0001102812	9.158559e-05
	-0.0001601988	3.687855e-08	0.006677543	-0.02727571	-4.538126e-06	-1.008191e-06	0.001246792	0.004183085
	0.001196406	0.004236164	-4.538126e-06	-1.008192e-06	0.006505742	-0.02752785	-3.489754e-05	1.084933e-07
	-0.0001102812	9.158559e-05	0.001246786	0.004183082	-3.489753e-05	1.084936e-07	0.006676294	-0.02724834
4e+07	0.003385162	-0.03768672	-0.0001534168	-1.368703e-06	0.002039319	0.005398561	-9.117728e-05	0.0001022476
	-0.0001534168	-1.368702e-06	0.002521873	-0.03725576	-4.154747e-06	4.371905e-07	0.002054838	0.005347155
	0.002039314	0.005398564	-4.154747e-06	4.371907e-07	0.00229392	-0.03750823	-3.487691e-05	-1.274508e-06
	-9.117728e-05	0.0001022476	0.002054838	0.005347156	-3.487691e-05	-1.274507e-06	0.002523668	-0.03722318
5e+07	-0.002598426	-0.04699981	-0.0001479697	2.026371e-07	0.003051782	0.00639032	-6.807992e-05	0.0001067721
	-0.0001479697	2.026372e-07	-0.003419831	-0.04648753	-3.746684e-06	1.464089e-06	0.00303189	0.006349855
	0.003051781	0.006390322	-3.746684e-06	1.464089e-06	-0.003683492	-0.04673031	-3.526351e-05	-1.437635e-06
	-6.807992e-05	0.0001067721	0.00303189	0.006349856	-3.526351e-05	-1.437635e-06	-0.003417347	-0.04645035
6e+07	-0.01012294	-0.05523505	-0.0001432466	3.543217e-06	0.004201585	0.007187655	-4.325117e-05	0.0001035819
	-0.0001432466	3.543217e-06	-0.01091075	-0.05464675	-3.307716e-06	2.264864e-06	0.004146729	0.007166686
	0.004201586	0.007187653	-3.307716e-06	2.264864e-06	-0.01119277	-0.05487596	-3.584193e-05	-7.294103e-07
	-4.325117e-05	0.0001035819	0.004146726	0.007166687	-3.584193e-05	-7.294106e-07	-0.01090883	-0.05460444
7e+07	-0.01893771	-0.06214385	-0.0001387876	8.13229e-06	0.005452657	0.007772394	-1.916024e-05	9.193999e-05
	-0.0001387876	8.132291e-06	-0.01969752	-0.0614802	-3.10374e-06	2.453541e-06	0.005364526	0.007779085
	0.005452657	0.007772388	-3.10374e-06	2.453541e-06	-0.01998299	-0.06169573	-3.642445e-05	6.895401e-07
	-1.916024e-05	9.193999e-05	0.005364521	0.007779088	-3.642445e-05	6.895392e-07	-0.01969699	-0.06143241
8e+07	-0.02877258	-0.06753416	-0.0001341895	1.37007e-05	0.006766525	0.008132935	1.574196e-06	7.172801e-05
	-0.0001341895	1.37007e-05	-0.02950745	-0.06679328	-3.030976e-06	2.430363e-06	0.006648171	0.008175087
	0.006766523	0.008132929	-3.030976e-06	2.430363e-06	-0.02978338	-0.06699716	-3.684069e-05	2.706723e-06
	1.574197e-06	7.172801e-05	0.006648167	0.008175092	-3.684069e-05	2.706723e-06	-0.02950934	-0.06673955
9e+07	-0.0393415	-0.07126749	-0.0001290227	2.013772e-05	0.008103783	0.008264695	1.612867e-05	4.322226e-05
	-0.0001290227	2.013772e-05	-0.04005228	-0.07044644	-2.960509e-06	2.439383e-06	0.007959767	0.008349755
	0.008103781	0.00826469	-2.96051e-06	2.439383e-06	-0.04030645	-0.07064105	-3.693596e-05	5.225542e-06
	1.612867e-05	4.322226e-05	0.007959764	0.008349759	-3.693596e-05	5.225542e-06	-0.04005777	-0.07038577
1e+08	-0.05034893	-0.07325825	-0.0001222919	2.798804e-05	0.00942613	0.008170676	1.989293e-05	5.294268e-06
	-0.0001222919	2.798804e-05	-0.05103602	-0.0723556	-2.90108e-06	2.449397e-06	0.009263458	0.008306631
	0.00942613	0.008170676	-2.90108e-06	2.449397e-06	-0.05124966	-0.07253594	-3.651993e-05	8.229963e-06
	1.989293e-05	5.294268e-06	0.009263458	0.008306631	-3.651993e-05	8.229963e-06	-0.05104616	-0.07228645
1.1e+08	-0.06149558	-0.07347987	-0.0001177358	3.836919e-05	0.01069778	0.007854712	2.358921e-05	-4.471291e-05
	-0.0001177358	3.836919e-05	-0.06216192	-0.07248102	-2.771458e-06	2.446999e-06	0.01052721	0.008041088
	0.01069778	0.007854712	-2.771458e-06	2.446999e-06	-0.06229903	-0.07269581	-3.599124e-05	1.170163e-05
	2.358921e-05	-4.471291e-05	0.01052721	0.008041087	-3.599124e-05	1.170163e-05	-0.06217597	-0.07240082
1.2e+08	-0.07248913	-0.07193321	-0.0001133859	4.741976e-05	0.01187832	0.007333644	2.018988e-05	-9.28836e-05
	-0.0001133859	4.741976e-05	-0.07312101	-0.07083048	-2.62414e-06	2.482277e-06	0.01170435	0.007571634
	0.01187832	0.007333644	-2.62414e-06	2.482277e-06	-0.07320567	-0.07110714	-3.504249e-05	1.508187e-05
	2.018988e-05	-9.28836e-05	0.01170435	0.007571634	-3.504249e-05	1.508187e-05	-0.07313783	-0.07073742
1.3e+08	-0.0830445	-0.06868153	-0.0001085336	5.588508e-05	0.01293747	0.006628856	6.864031e-06	-0.0001398681
	-0.0001085336	5.588508e-05	-0.08362853	-0.06747209	-2.465682e-06	2.529851e-06	0.01276641	0.006920013
	0.01293747	0.006628857	-2.465682e-06	2.529851e-06	-0.08367808	-0.06782367	-3.360021e-05	1.83605e-05
	6.864031e-06	-0.0001398681	0.01276641	0.006920013	-3.360021e-05	1.83605e-05	-0.08364674	-0.06736473
1.4e+08	-0.09289518	-0.06383162	-0.0001030669	6.382011e-05	0.01384863	0.005765219	-1.685077e-05	-0.0001839717
	-0.0001030669	6.382011e-05	-0.09341723	-0.06251572	-2.297195e-06	2.580236e-06	0.01368749	0.006110072
	0.01384863	0.005765219	-2.297195e-06	2.580236e-06	-0.09344819	-0.06294974	-3.167628e-05	2.1444e-05
	-1.685077e-05	-0.0001839717	0.01368749	0.006110072	-3.167628e-05	2.1444e-05	-0.09343505	-0.06239289
1.5e+08	-0.1017992	-0.05752961	-9.697218e-05	7.118388e-05	0.01458991	0.004770906	-5.065111e-05	-0.000223162
	-9.697218e-05	7.118388e-05	-0.1022447	-0.0561105	-2.120122e-06	2.626794e-06	0.01444607	0.005168708
	0.01458991	0.004770907	-2.120122e-06	2.626794e-06	-0.1022732	-0.05663039	-2.931451e-05	2.423859e-05
	-5.065111e-05	-0.000223162	0.01444607	0.005168708	-2.931451e-05	2.423859e-05	-0.10226	-0.05597144
1.6e+08	-0.1095443	-0.04995593	-9.028466e-05	7.790975e-05	0.0151445	0.003676581	-9.363908e-05	-0.0002554143
	-9.028466e-05	7.790975e-05	-0.1098986	-0.04843994	-1.936679e-06	2.664495e-06	0.01502538	0.004125194
	0.0151445	0.003676581	-1.936679e-06	2.664495e-06	-0.1099402	-0.04904558	-2.658144e-05	2.666302e-05
	-9.363908e-05	-0.0002554143	0.01502538	0.004125194	-2.658144e-05	2.666302e-05	-0.1099091	-0.04828436
1.7e+08	-0.1159515	-0.04131984	-8.307036e-05	8.393015e-05	0.01550082	0.002514543	-0.0001444159	-0.0002788936
	-8.307036e-05	8.393015e-05	-0.1162007	-0.03971641	-1.749912e-06	2.689638e-06	0.01541359	0.003010409
	0.01550082	0.002514543	-1.749912e-06	2.689638e-06	-0.1162702	-0.04040444	-2.355987e-05	2.865427e-05
	-0.0001444159	-0.0002788936	0.01541359	0.003010409	-2.355987e-05	2.865427e-05	-0.1162039	-0.03954454
1.8e+08	-0.120879	-0.03185356	-7.541616e-05	8.918762e-05	0.01565256	0.001317919	-0.0002011707	-0.0002920809
	-7.541616e-05	8.918763e-05	-0.1210102	-0.03017515	-1.563513e-06	2.699859e-06	0.01560386	0.001856086
	0.01565256	0.001317919	-1.563513e-06	2.699859e-06	-0.1211211	-0.03093924	-2.034306e-05	3.017016e-05
	-0.0002011707	-0.0002920809	0.01560386	0.001856086	-2.034306e-05	3.017016e-05	-0.1210036	-0.02998776
1.9e+08	-0.1242239	-0.02180618	-6.742236e-05	9.36404e-05	0.01559853	0.0001199057	-0.0002617798	-0.0002938638
	-6.742236e-05	9.36404e-05	-0.124226	-0.02006813	-1.381559e-06	2.694183e-06	0.0155942	0.0006941122
	0.01559853	0.0001199058	-1.381559e-06	2.694183e-06	-0.1243904	-0.02089925	-1.702927e-05	3.119045e-05
	-0.0002617798	-0.0002938638	0.0155942	0.0006941122	-1.702927e-05	3.119045e-05	-0.1242072	-0.01986655
2e+08	-0.125924	-0.01143759	-5.91967e-05	9.726498e-05	0.01534256	-0.001046919	-0.0003239131	-0.000283598
	-5.91967e-05	9.726498e-05	-0.1257882	-0.009657829	-1.208169e-06	2.673032e-06	0.01538737	-0.0004441068
	0.01534256	-0.001046919	-1.208169e-06	2.673032e-06	-0.1260161	-0.01054454	-1.37168e-05	3.171653e-05
	-0.0003239131	-0.000283598	0.01538737	-0.0004441068	-1.37168e-05	3.171653e-05	-0.1257551	-0.009443881
2.1e+08	-0.1259585	-0.001012212	-5.084928e-05	0.0001000571	0.0148932	-0.002151229	-0.0003851477	-0.0002611395
	-5.084928e-05	0.0001000571	-0.1256789	0.0007891322	-1.047148e-06	2.638168e-06	0.01499065	-0.001528233
	0.0148932	-0.002151229	-1.047148e-06	2.638168e-06	-0.1259778	-0.000139754	-1.04996e-05	3.177038e-05
	-0.0003851477	-0.0002611395	0.01499065	-0.001528233	-1.04996e-05	3.177038e-05	-0.1256297	0.001013144
2.2e+08	-0.1243475	0.009207069	-4.248816e-05	0.0001020317	0.01426351	-0.003163531	-0.0004430814	-0.0002268529
	-4.248816e-05	0.0001020317	-0.1239215	0.01100815	-9.016343e-07	2.592526e-06	0.01441559	-0.00252953
	0.01426351	-0.003163531	-9.016343e-07	2.592526e-06	-0.1242963	0.01005209	-7.463325e-06	3.139276e-05
	-0.0004430814	-0.0002268529	0.01441559	-0.00252953	-7.463325e-06	3.139276e-05	-0.1238547	0.01123952
2.3e+08	-0.1211513	0.01896488	-3.421557e-05	0.0001032214	0.0134707	-0.004056703	-0.0004954441	-0.0001815936
	-3.421557e-05	0.0001032214	-0.1205801	0.02074274	-7.737994e-07	2.53996e-06	0.01367778	-0.003421368
	0.0134707	-0.004056703	-7.737994e-07	2.53996e-06	-0.1210325	0.01977555	-4.682018e-06	3.064086e-05
	-0.0004954441	-0.0001815936	0.01367778	-0.003421368	-4.682018e-06	3.064086e-05	-0.1204948	0.02097843
2.4e+08	-0.1164687	0.02801915	-2.612415e-05	0.0001036757	0.01253583	-0.004806502	-0.0005402001	-0.0001266641
	-2.612415e-05	0.0001036757	-0.1157574	0.02975034	-6.646346e-07	2.484937e-06	0.01279652	-0.004179704
	0.01253583	-0.004806502	-6.646346e-07	2.484937e-06	-0.1162862	0.02878859	-2.215089e-06	2.958564e-05
	-0.0005402001	-0.0001266641	0.01279652	-0.004179704	-2.215089e-06	2.958564e-05	-0.1156533	0.02998709
2.5e+08	-0.1104342	0.03614653	-1.829417e-05	0.0001034582	0.01148338	-0.005392056	-0.0005756396	-6.375445e-05
	-1.829417e-05	0.0001034582	-0.1095921	0.0378079	-5.738193e-07	2.432147e-06	0.01179449	-0.004783548
	0.01148338	-0.005392056	-5.738193e-07	2.432147e-06	-0.1101927	0.03686805	-1.049334e-07	2.830858e-05
	-0.0005756396	-6.375445e-05	0.01179449	-0.004783548	-1.049334e-07	2.830858e-05	-0.1094695	0.03804231
2.6e+08	-0.1032154	0.04314758	-1.079054e-05	0.0001026443	0.01034086	-0.005796332	-0.0006004531	5.140348e-06
	-1.079054e-05	0.0001026443	-0.1022561	0.044717	-4.997157e-07	2.386124e-06	0.0106974	-0.005215421
	0.01034086	-0.005796332	-4.997157e-07	2.386124e-06	-0.1029204	0.04381481	1.625074e-06	2.689813e-05
	-0.0006004531	5.140348e-06	0.0106974	-0.005215421	1.625074e-06	2.689813e-05	-0.1021158	0.04494565
2.7e+08	-0.09500848	0.04885142	-3.660837e-06	0.0001013173	0.009138265	-0.006006579	-0.0006137889	7.781273e-05
	-3.660837e-06	0.0001013173	-0.09394961	0.05030856	-4.394677e-07	2.350861e-06	0.009533525	-0.0054618
	0.009138265	-0.006006579	-4.394677e-07	2.350861e-06	-0.09466669	0.04945847	2.97189e-06	2.544563e-05
	-0.0006137889	7.781273e-05	0.009533525	-0.0054618	2.97189e-06	2.544563e-05	-0.09379317	0.05052815
2.8e+08	-0.08603428	0.05311988	3.066526e-06	9.956528e-05	0.007907513	-0.00601474	-0.0006152851	0.0001519522
	3.066526e-06	9.956528e-05	-0.08489731	0.054447	-3.892006e-07	2.329507e-06	0.008333163	-0.005513539
	0.007907513	-0.00601474	-3.892006e-07	2.329507e-06	-0.08565309	0.05366155	3.953505e-06	2.404096e-05
	-0.0006152851	0.0001519522	0.008333163	-0.005513539	3.953505e-06	2.404096e-05	-0.08472691	0.05465444
2.9e+08	-0.07653266	0.05585101	9.383032e-06	9.747645e-05	0.006681782	-0.005817814	-0.0006050803	0.0002252539
	9.383032e-06	9.747645e-05	-0.07534254	0.0570337	-3.443043e-07	2.324105e-06	0.007128064	-0.005366248
	0.006681782	-0.005817814	-3.443043e-07	2.324105e-06	-0.07612041	0.05632295	4.608633e-06	2.276772e-05
	-0.0006050803	0.0002252539	0.007128064	-0.005366248	4.608633e-06	2.276772e-05	-0.07516097	0.05722623
3e+08	-0.06675706	0.0569819	1.529976e-05	9.513431e-05	0.005494743	-0.005418132	-0.0005838004	0.000295528
	1.529976e-05	9.513431e-05	-0.06554165	0.05800971	-2.997726e-07	2.335436e-06	0.005950702	-0.005020599
	0.005494743	-0.005418132	-2.997726e-07	2.335436e-06	-0.06632282	0.05738075	4.995337e-06	2.169839e-05
	-0.0005838004	0.000295528	0.005950702	-0.005020599	4.995337e-06	2.169839e-05	-0.06535222	0.05818505
3.1e+08	-0.05696824	0.05649054	2.084613e-05	9.261307e-05	0.004379718	-0.004823536	-0.0005525128	0.0003608117
	2.084613e-05	9.261307e-05	-0.05575766	0.05735764	-2.505532e-07	2.362989e-06	0.004833487	-0.004482549
	0.004379718	-0.004823536	-2.505532e-07	2.362989e-06	-0.05652172	0.05681416	5.188522e-06	2.088966e-05
	-0.0005525128	0.0003608117	0.004833487	-0.004482549	5.188522e-06	2.088966e-05	-0.05556417	0.05751403
3.2e+08	-0.04742778	0.05439688	2.606714e-05	8.997305e-05	0.003368755	-0.004047415	-0.0005126654	0.0004194595
	2.606714e-05	8.997305e-05	-0.04625361	0.05510247	-1.918966e-07	2.405005e-06	0.003807882	-0.003763422
	0.003368755	-0.004047415	-1.918966e-07	2.405005e-06	-0.04697915	0.05464444	5.276007e-06	2.037806e-05
	-0.0005126654	0.0004194595	0.003807882	-0.003763422	5.276007e-06	2.037806e-05	-0.04606025	0.05523882
3.3e+08	-0.03839135	0.0507627	3.101991e-05	8.72574e-05	0.002491661	-0.003108578	-0.0004660278	0.0004702072
	3.101991e-05	8.72574e-05	-0.03728577	0.05131136	-1.196495e-07	2.458623e-06	0.002903467	-0.002879841
	0.002491661	-0.003108578	-1.196495e-07	2.458623e-06	-0.03795101	0.05093482	5.353664e-06	2.017692e-05
	-0.0004660278	0.0004702072	0.002903467	-0.002879841	5.353664e-06	2.017692e-05	-0.03709697	0.05142733
3.4e+08	-0.0301019	0.04569056	3.56781e-05	8.440895e-05	0.001775013	-0.00203094	-0.0004040416	0.0005166222
	3.56781e-05	8.440895e-05	-0.02909676	0.04609239	-2.92285e-08	2.521627e-06	0.00214698	-0.001853472
	0.001775013	-0.00203094	-2.92285e-08	2.521627e-06	-0.02968032	0.04578934	5.426138e-06	2.019953e-05
	-0.0004040416	0.0005166222	0.00214698	-0.001853472	5.426138e-06	2.019953e-05	-0.02891707	0.04618845
3.5e+08	-0.02278312	0.03932135	4.016928e-05	8.152011e-05	0.001241202	-0.0008429958	-0.0003371041	0.0005526727
	4.016928e-05	8.152011e-05	-0.02190893	0.03959202	8.105598e-08	2.587758e-06	0.00156137	-0.0007105734
	0.001241202	-0.0008429958	8.105598e-08	2.587758e-06	-0.02239053	0.03935049	5.65306e-06	2.049613e-05
	-0.0003371041	0.0005526727	0.00156137	-0.0007105734	5.65306e-06	2.049613e-05	-0.02174289	0.03966943
3.6e+08	-0.01663315	0.03183094	4.457061e-05	7.858416e-05	0.0009075522	0.0004229087	-0.0002690008	0.0005777135
	4.457061e-05	7.858416e-05	-0.01591805	0.03199154	2.120834e-07	2.65193e-06	0.001164922	0.0005186649
	0.0009075522	0.0004229087	2.120834e-07	2.65193e-06	-0.01627927	0.03179571	6.134073e-06	2.101763e-05
	-0.0002690008	0.0005777135	0.001164922	0.0005186649	6.134073e-06	2.101763e-05	-0.01577006	0.0320524
3.7e+08	-0.01181892	0.02342569	4.893513e-05	7.555999e-05	0.0007855792	0.0017315	-0.0002018405	0.000592382
	4.893513e-05	7.555999e-05	-0.01128776	0.0235023	3.637895e-07	2.709292e-06	0.0009704976	0.001800974
	0.0007855792	0.0017315	3.637895e-07	2.709292e-06	-0.01151273	0.02333284	6.937366e-06	2.167969e-05
	-0.0002018405	0.000592382	0.0009704976	0.001800974	6.937366e-06	2.167969e-05	-0.01116188	0.02354949
3.8e+08	-0.008471335	0.01433684	5.329815e-05	7.238967e-05	0.0008804232	0.003045674	-0.0001374572	0.0005977518
	5.329815e-05	7.238967e-05	-0.008144696	0.01436003	5.351006e-07	2.755198e-06	0.0009849464	0.003101032
	0.0008804232	0.003045674	5.351006e-07	2.755198e-06	-0.008220791	0.01419451	8.106577e-06	2.238103e-05
	-0.0001374572	0.0005977518	0.0009849464	0.003101032	8.106577e-06	2.238103e-05	-0.008044559	0.01439721
3.9e+08	-0.006681371	0.004814248	5.767286e-05	6.90042e-05	0.001190515	0.004327715	-7.731526e-05	0.0005952477
	5.767286e-05	6.90042e-05	-0.006574796	0.004818337	7.240521e-07	2.785384e-06	0.001208734	0.004382614
	0.001190515	0.004327715	7.240521e-07	2.785384e-06	-0.00649317	0.004631809	9.65658e-06	2.301047e-05
	-7.731526e-05	0.0005952477	0.001208734	0.004382614	9.65658e-06	2.301047e-05	-0.006503414	0.004849839
4e+08	-0.006497431	-0.004880677	6.204764e-05	6.533049e-05	0.001707498	0.005540591	-2.244173e-05	0.0005865393
	6.204764e-05	6.533049e-05	-0.00662071	-0.004858483	9.279078e-07	2.796102e-06	0.001635814	0.005609835
	0.001707498	0.005540591	9.279078e-07	2.796102e-06	-0.006376798	-0.005092826	1.157142e-05	2.345523e-05
	-2.244173e-05	0.0005865393	0.001635814	0.005609835	1.157142e-05	2.345523e-05	-0.006580374	-0.004827755
4.1e+08	-0.007923921	-0.01448234	6.638572e-05	6.129888e-05	0.002416432	0.006649256	2.661561e-05	0.0005734214
	6.638572e-05	6.129888e-05	-0.008280566	-0.01440296	1.143297e-06	2.78421e-06	0.002253771	0.006748392
	0.002416432	0.006649256	1.143297e-06	2.78421e-06	-0.007874434	-0.01471302	1.380475e-05	2.360941e-05
	2.661561e-05	0.0005734214	0.002253771	0.006748392	1.380475e-05	2.360941e-05	-0.008272729	-0.01436764
4.2e+08	-0.01092122	-0.02372854	7.062693e-05	5.685045e-05	0.003296267	0.00762189	6.979642e-05	0.0005576869
	7.062693e-05	5.685045e-05	-0.01150811	-0.0235521	1.36633e-06	2.747249e-06	0.003044219	0.007766772
	0.003296267	0.00762189	1.36633e-06	2.747249e-06	-0.01094467	-0.02396608	1.628267e-05	2.338225e-05
	6.979642e-05	0.0005576869	0.003044219	0.007766772	1.628267e-05	2.338225e-05	-0.0115333	-0.02350653
4.3e+08	-0.01540696	-0.0323679	7.469171e-05	5.194356e-05	0.004320573	0.008431021	0.0001075022	0.0005410053
	7.469171e-05	5.194356e-05	-0.01621419	-0.03205489	1.592707e-06	2.683511e-06	0.003983465	0.008637344
	0.004320573	0.008431021	1.592707e-06	2.683511e-06	-0.01550328	-0.03260041	1.89089e-05	2.270516e-05
	0.0001075022	0.0005410053	0.003983465	0.008637344	1.89089e-05	2.270516e-05	-0.01627196	-0.03199327
4.4e+08	-0.0212587	-0.04016694	7.848666e-05	4.655884e-05	0.005458496	0.009054458	0.0001405429	0.0005248101
	7.848666e-05	4.655884e-05	-0.02226965	-0.03967942	1.817833e-06	2.592101e-06	0.005043366	0.009337284
	0.005458496	0.009054458	1.817833e-06	2.592101e-06	-0.02142593	-0.04038263	2.15717e-05	2.153692e-05
	0.0001405429	0.0005248101	0.005043366	0.009337284	2.15717e-05	2.153692e-05	-0.02235854	-0.03959597
4.5e+08	-0.02831769	-0.04691649	8.191153e-05	4.070231e-05	0.00667587	0.009476005	0.0001700552	0.0005102066
	8.191153e-05	4.070231e-05	-0.02950928	-0.04621922	2.03695e-06	2.473011e-06	0.006192371	0.009849281
	0.00667587	0.009476005	2.03695e-06	2.473011e-06	-0.02855203	-0.04710402	2.415197e-05	1.986677e-05
	0.0001700552	0.0005102066	0.006192371	0.009849281	2.415197e-05	1.986677e-05	-0.02962683	-0.04610838
4.6e+08	-0.03639379	-0.0524373	8.486646e-05	3.440627e-05	0.007936446	0.009685904	0.0001974037	0.0004979034
	8.486646e-05	3.440627e-05	-0.03773697	-0.05149888	2.245318e-06	2.327163e-06	0.007396657	0.01016201
	0.007936446	0.009685904	2.245318e-06	2.327163e-06	-0.03668965	-0.05258602	2.653177e-05	1.771483e-05
	0.0001974037	0.0004979034	0.007396657	0.01016201	2.653177e-05	1.771483e-05	-0.03787975	-0.05135548
4.7e+08	-0.04527115	-0.05658459	8.725912e-05	2.772813e-05	0.009203157	0.009681022	0.0002240657	0.0004881731
	8.725912e-05	2.772813e-05	-0.04673155	-0.05537846	2.438378e-06	2.156455e-06	0.008621315	0.01027035
	0.009203157	0.009681022	2.438378e-06	2.156455e-06	-0.04562129	-0.05668488	2.860239e-05	1.513038e-05
	0.0002240657	0.0004881731	0.008621315	0.01027035	2.860239e-05	1.513038e-05	-0.04689522	-0.05519789
