!$
! Info: Touchstone file created by Circ.  Input file=Tx_8in_Rx_93ohms_TxVia_10mils_RxVia_20mils.circ
!$
# Hz S RI R 50
0	0.007412896	5.313036e-26	-4.324982e-05	1.749217e-25	5.45176e-05	7.678428e-24	-4.325511e-05	4.687058e-25
	-4.324982e-05	1.752269e-25	0.00741224	7.608603e-26	-4.324994e-05	3.205381e-26	5.412392e-05	1.051322e-23
	5.26282e-05	7.570235e-24	-4.324994e-05	3.238509e-26	0.007426909	5.529014e-26	-4.324886e-05	3.735892e-25
	-4.32551e-05	4.669817e-25	5.558058e-05	1.082062e-23	-4.324884e-05	3.714498e-25	0.007417841	7.257523e-26
1e+07	0.01097738	-9.322596e-05	-0.0002128971	-5.580968e-05	0.0002231692	0.001370636	-0.0001183275	0.0001013375
	-0.0002128971	-5.580968e-05	0.0108164	-0.0005749102	-2.685912e-06	-6.58532e-06	0.0002309487	0.001499754
	0.0002231304	0.001370661	-2.685908e-06	-6.585321e-06	0.01022938	-0.0004997869	-1.189631e-05	5.772184e-07
	-0.0001183275	0.0001013375	0.0002309813	0.001499742	-1.189631e-05	5.772215e-07	0.0106096	-0.0005848335
2e+07	0.01331856	-0.003112452	-0.0002180343	4.383024e-06	0.0006260441	0.002754248	-0.0001464801	0.000117885
	-0.0002180343	4.383021e-06	0.01268486	-0.003817147	-3.377112e-06	-3.898069e-06	0.0005449657	0.002992196
	0.0006260515	0.002754266	-3.377111e-06	-3.898072e-06	0.01232167	-0.003486772	-3.991502e-06	-2.101296e-05
	-0.0001464801	0.000117885	0.0005449629	0.002992175	-3.991501e-06	-2.101295e-05	0.01252664	-0.003760567
3e+07	0.0142716	-0.007306664	-0.0002201997	3.701304e-05	0.001238047	0.004053151	-0.000161935	0.0001369734
	-0.0002201997	3.701304e-05	0.01326582	-0.007989886	-7.889198e-06	-5.578063e-06	0.00113905	0.004338775
	0.001238045	0.004053152	-7.889198e-06	-5.578064e-06	0.01308801	-0.007600595	-1.662678e-05	-2.515361e-05
	-0.000161935	0.0001369734	0.001139045	0.004338772	-1.662678e-05	-2.515361e-05	0.01314438	-0.007920991
4e+07	0.0141404	-0.01183086	-0.000219049	6.651331e-05	0.002045736	0.005232602	-0.0001702391	0.000153172
	-0.000219049	6.651331e-05	0.01282782	-0.01239001	-1.15163e-05	-5.100032e-06	0.001971075	0.005537963
	0.002045731	0.005232604	-1.15163e-05	-5.100032e-06	0.01281435	-0.01200442	-2.76999e-05	-2.461869e-05
	-0.0001702391	0.000153172	0.001971075	0.005537965	-2.769991e-05	-2.461869e-05	0.01273519	-0.01232513
5e+07	0.01305632	-0.01637996	-0.0002153136	9.362697e-05	0.003026915	0.006261135	-0.000173984	0.0001660129
	-0.0002153136	9.362697e-05	0.0114942	-0.01674548	-1.4404e-05	-3.471439e-06	0.002969368	0.006575821
	0.003026914	0.006261137	-1.4404e-05	-3.471439e-06	0.01162662	-0.0164047	-3.736433e-05	-2.107492e-05
	-0.000173984	0.0001660129	0.002969367	0.006575821	-3.736433e-05	-2.107492e-05	0.01142213	-0.01669251
6e+07	0.01111722	-0.02075086	-0.000216371	0.0001052748	0.004154055	0.007112372	-0.0001751333	0.0001751623
	-0.000216371	0.0001052748	0.009361584	-0.02087056	-1.663977e-05	-1.033319e-06	0.004106603	0.007430338
	0.004154056	0.00711237	-1.663977e-05	-1.033319e-06	0.009620848	-0.02060638	-4.556791e-05	-1.51913e-05
	-0.0001751333	0.0001751623	0.0041066	0.007430339	-4.556791e-05	-1.51913e-05	0.009303174	-0.02083373
7e+07	0.008417456	-0.02478708	-0.0002168509	0.0001175127	0.005395738	0.007765417	-0.0001754285	0.0001802402
	-0.0002168509	0.0001175127	0.0065259	-0.02462048	-1.817686e-05	1.981394e-06	0.005351494	0.008083108
	0.005395738	0.007765411	-1.817686e-05	1.981394e-06	0.006891063	-0.02445896	-5.214279e-05	-7.347068e-06
	-0.0001754285	0.0001802402	0.005351489	0.008083111	-5.214279e-05	-7.347069e-06	0.006474757	-0.0246026
8e+07	0.005056291	-0.02836306	-0.0002168866	0.000130075	0.006717879	0.008205431	-0.0001768083	0.0001809012
	-0.0002168866	0.000130075	0.00308995	-0.02787821	-1.897412e-05	5.452801e-06	0.006669829	0.008520603
	0.006717878	0.008205424	-1.897412e-05	5.452801e-06	0.003537444	-0.02784132	-5.683714e-05	2.202668e-06
	-0.0001768083	0.0001809012	0.006669824	0.008520607	-5.683714e-05	2.202667e-06	0.003039372	-0.02788093
9e+07	0.001138985	-0.0313795	-0.0002168186	0.0001425712	0.008085432	0.008424519	-0.0001818275	0.0001765217
	-0.0002168186	0.0001425712	-0.000833869	-0.03054902	-1.89299e-05	9.333364e-06	0.008025497	0.008734841
	0.00808543	0.008424515	-1.89299e-05	9.333364e-06	-0.0003314765	-0.03065608	-5.926541e-05	1.332519e-05
	-0.0001818275	0.0001765217	0.008025494	0.008734845	-5.926541e-05	1.332519e-05	-0.0008910535	-0.03057274
1e+08	-0.003234906	-0.03377119	-0.0002184923	0.0001532989	0.009469553	0.008427911	-0.0001976304	0.000162488
	-0.0002184923	0.0001532989	-0.005111991	-0.0325482	-1.756102e-05	1.39091e-05	0.009381514	0.008723383
	0.009469552	0.008427912	-1.756102e-05	1.39091e-05	-0.004595342	-0.03282444	-5.81777e-05	2.666209e-05
	-0.0001976304	0.000162488	0.009381514	0.008723383	-5.81777e-05	2.666209e-05	-0.005184892	-0.03259374
1.1e+08	-0.007967567	-0.03540126	-0.0002132634	0.0001585748	0.01078961	0.008234708	-0.0001978231	0.0001287061
	-0.0002132634	0.0001585748	-0.009594884	-0.03393467	-1.422662e-05	1.654254e-05	0.01069921	0.008491222
	0.01078961	0.008234708	-1.422662e-05	1.654254e-05	-0.009122251	-0.03433627	-5.194312e-05	3.589303e-05
	-0.0001978231	0.0001287061	0.01069921	0.008491222	-5.194312e-05	3.589303e-05	-0.009694014	-0.03398859
1.2e+08	-0.01284696	-0.0362581	-0.000204809	0.0001668855	0.01203004	0.007811092	-0.0001953894	0.0001031518
	-0.000204809	0.0001668855	-0.01426414	-0.03462555	-1.140938e-05	1.814988e-05	0.01194579	0.00804975
	0.01203004	0.007811092	-1.140938e-05	1.814988e-05	-0.01382957	-0.03513119	-4.624703e-05	4.294035e-05
	-0.0001953894	0.0001031518	0.01194579	0.008049749	-4.624703e-05	4.294035e-05	-0.01438659	-0.0346796
1.3e+08	-0.01776022	-0.03635105	-0.0001947507	0.0001760209	0.01316499	0.007183263	-0.0001959875	8.03341e-05
	-0.0001947507	0.0001760209	-0.01897779	-0.03459004	-8.742287e-06	1.924808e-05	0.0130884	0.007413842
	0.01316499	0.007183263	-8.742287e-06	1.924808e-05	-0.01858589	-0.0351908	-4.020687e-05	4.889843e-05
	-0.0001959875	8.03341e-05	0.0130884	0.007413842	-4.020687e-05	4.889843e-05	-0.01912201	-0.03463882
1.4e+08	-0.02258632	-0.03569525	-0.0001833661	0.0001853109	0.01416506	0.006374612	-0.000200751	5.976833e-05
	-0.0001833661	0.0001853109	-0.02360973	-0.0338339	-7.623828e-06	1.921143e-05	0.01409727	0.006603859
	0.01416506	0.006374612	-7.623828e-06	1.921143e-05	-0.02326704	-0.03452253	-3.369874e-05	5.391458e-05
	-0.000200751	5.976833e-05	0.01409727	0.006603859	-3.369874e-05	5.391458e-05	-0.02377381	-0.0338728
1.5e+08	-0.02720856	-0.03432268	-0.0001708086	0.0001943162	0.01500404	0.005411813	-0.0002100487	4.182269e-05
	-0.0001708086	0.0001943162	-0.02804146	-0.03238476	-6.469472e-06	1.917267e-05	0.01494651	0.005644672
	0.01500404	0.005411813	-6.469472e-06	1.917267e-05	-0.02775513	-0.03315402	-2.673178e-05	5.796905e-05
	-0.0002100487	4.182269e-05	0.01494651	0.005644672	-2.673178e-05	5.796906e-05	-0.02822298	-0.03240981
1.6e+08	-0.031518	-0.03228222	-0.0001572146	0.0002027247	0.01566012	0.004324882	-0.0002238265	2.717502e-05
	-0.0001572146	0.0002027247	-0.03216344	-0.03028906	-5.276742e-06	1.911383e-05	0.01561476	0.00456489
	0.01566012	0.004324882	-5.276742e-06	1.911383e-05	-0.03194067	-0.03113112	-1.93794e-05	6.10182e-05
	-0.0002238265	2.717502e-05	0.01561476	0.004564891	-1.93794e-05	6.10182e-05	-0.03235944	-0.03029693
1.7e+08	-0.03541604	-0.02963824	-0.0001427304	0.000210295	0.0161166	0.003146589	-0.0002417122	1.660068e-05
	-0.0001427304	0.000210295	-0.03587711	-0.02760985	-4.061613e-06	1.901423e-05	0.01608567	0.003396039
	0.0161166	0.00314659	-4.061613e-06	1.901423e-05	-0.03572474	-0.02851595	-1.175615e-05	6.30152e-05
	-0.0002417122	1.660068e-05	0.01608567	0.003396039	-1.175615e-05	6.30152e-05	-0.03608421	-0.02759787
1.8e+08	-0.03881652	-0.02646883	-0.0001275186	0.000216841	0.01636229	0.001911673	-0.0002630703	1.085187e-05
	-0.0001275186	0.000216841	-0.03909681	-0.02442442	-2.837406e-06	1.886041e-05	0.01634831	0.002171683
	0.01636229	0.001911673	-2.837406e-06	1.886041e-05	-0.03902097	-0.02538471	-4.00466e-06	6.392771e-05
	-0.0002630703	1.085187e-05	0.01634831	0.002171683	-4.00466e-06	6.392771e-05	-0.03931127	-0.02439063
1.9e+08	-0.04164748	-0.02286362	-0.000111756	0.0002222265	0.01639177	0.0006559524	-0.0002870501	1.057604e-05
	-0.000111756	0.0002222265	-0.04175141	-0.02082194	-1.61603e-06	1.864385e-05	0.01639729	0.000926529
	0.01639177	0.0006559524	-1.61603e-06	1.864385e-05	-0.04175723	-0.02182549	3.715165e-06	6.374793e-05
	-0.0002870501	1.057604e-05	0.01639729	0.0009265291	3.715165e-06	6.374793e-05	-0.0419693	-0.02076512
2e+08	-0.04385261	-0.01892142	-9.562869e-05	0.0002263618	0.01620551	-0.000584581	-0.0003126335	1.625704e-05
	-9.562869e-05	0.0002263618	-0.04378577	-0.01690089	-4.083713e-07	1.835972e-05	0.01623291	-0.0003044848
	0.01620551	-0.0005845809	-4.083713e-07	1.835972e-05	-0.04387703	-0.01793572	1.123598e-05	6.249807e-05
	-0.0003126335	1.625704e-05	0.01623291	-0.0003044847	1.123598e-05	6.249807e-05	-0.04400303	-0.01682055
2.1e+08	-0.04539265	-0.0147473	-7.93258e-05	0.0002292012	0.01580966	-0.001788888	-0.0003386894	2.817423e-05
	-7.93258e-05	0.0002292012	-0.04516167	-0.0127664	7.755541e-07	1.800138e-05	0.01586106	-0.001487085
	0.01580966	-0.001788888	7.755541e-07	1.800138e-05	-0.04534094	-0.01381928	1.841229e-05	6.019622e-05
	-0.0003386894	2.817423e-05	0.01586106	-0.001487085	1.841229e-05	6.019622e-05	-0.04537425	-0.01266278
2.2e+08	-0.04624521	-0.01045043	-6.303149e-05	0.0002307405	0.01521298	-0.002923282	-0.0003640266	4.637994e-05
	-6.303149e-05	0.0002307405	-0.04585843	-0.008527423	1.925598e-06	1.756901e-05	0.01529296	-0.002588525
	0.01521298	-0.002923282	1.925598e-06	1.756901e-05	-0.04612633	-0.009584249	2.508055e-05	5.691499e-05
	-0.0003640266	4.637994e-05	0.01529296	-0.002588525	2.508055e-05	5.691499e-05	-0.04606243	-0.008401481
2.3e+08	-0.04640489	-0.006141837	-4.691797e-05	0.0002310128	0.01443209	-0.003938498	-0.0003874492	7.068868e-05
	-4.691797e-05	0.0002310128	-0.0458731	-0.00429399	3.033641e-06	1.707094e-05	0.01454491	-0.0035784
	0.01443209	-0.003938498	3.033641e-06	1.707094e-05	-0.04622758	-0.005340712	3.107462e-05	5.281242e-05
	-0.0003874492	7.068868e-05	0.01454491	-0.0035784	3.107462e-05	5.281242e-05	-0.04606486	-0.004147358
2.4e+08	-0.04588425	-0.001930753	-3.11399e-05	0.0002300832	0.01348949	-0.004806535	-0.0004078153	0.0001006803
	-3.11399e-05	0.0002300832	-0.04522028	-0.0001744129	4.093205e-06	1.651112e-05	0.01363778	-0.00442939
	0.01348949	-0.004806535	4.093205e-06	1.651112e-05	-0.04565701	-0.001197018	3.628214e-05	4.803075e-05
	-0.0004078153	0.0001006803	0.01363778	-0.00442939	3.628214e-05	4.803075e-05	-0.04539646	-9.339654e-06
2.5e+08	-0.0447127	0.00207769	-1.582859e-05	0.0002280434	0.01241185	-0.005503445	-0.0004240873	0.000135716
	-1.582859e-05	0.0002280434	-0.04393142	0.003727397	5.099191e-06	1.589446e-05	0.01259647	-0.00511793
	0.01241185	-0.005503445	5.099191e-06	1.589446e-05	-0.04444375	0.002742485	4.062134e-05	4.273042e-05
	-0.0004240873	0.000135716	0.01259647	-0.00511793	4.062134e-05	4.273042e-05	-0.04408916	0.003908111
2.6e+08	-0.04293553	0.00578495	-1.088345e-06	0.000225004	0.01122924	-0.006009934	-0.0004353773	0.000174968
	-1.088345e-06	0.000225004	-0.0420539	0.007314512	6.047774e-06	1.522632e-05	0.01144926	-0.005624781
	0.01122924	-0.006009934	6.047774e-06	1.522632e-05	-0.04263283	0.00637998	4.40447e-05	3.708278e-05
	-0.0004353773	0.000174968	0.01144926	-0.005624781	4.40447e-05	3.708278e-05	-0.04219083	0.007507558
2.7e+08	-0.04061265	0.009101415	1.300645e-05	0.0002210884	0.009974366	-0.006311829	-0.0004409848	0.0002174553
	1.300645e-05	0.0002210884	-0.03964955	0.01049922	6.936515e-06	1.451247e-05	0.0102271	-0.0059355
	0.009974366	-0.006311829	6.936515e-06	1.451247e-05	-0.04028385	0.009626513	4.654038e-05	3.126236e-05
	-0.0004409848	0.0002174553	0.0102271	-0.0059355	4.654038e-05	3.126236e-05	-0.03976391	0.01070095
2.8e+08	-0.03781694	0.0119485	2.64118e-05	0.0002164249	0.008681756	-0.006400432	-0.0004404233	0.0002620916
	2.64118e-05	0.0002164249	-0.03679301	0.01320525	7.764075e-06	1.375847e-05	0.008962814	-0.006040795
	0.008681756	-0.006400432	7.764075e-06	1.375847e-05	-0.03746941	0.01240412	4.81322e-05	2.543888e-05
	-0.0004404233	0.0002620916	0.008962814	-0.006040795	4.81322e-05	2.543888e-05	-0.03688371	0.01341174
2.9e+08	-0.03463232	0.01426049	3.911337e-05	0.0002111392	0.007386841	-0.006272734	-0.000433437	0.0003077327
	3.911337e-05	0.0002111392	-0.03356969	0.01536951	8.530052e-06	1.296943e-05	0.007690276	-0.005936757
	0.007386841	-0.006272734	8.530052e-06	1.296943e-05	-0.03427313	0.01464767	4.887742e-05	1.976954e-05
	-0.000433437	0.0003077327	0.007690276	-0.005936757	4.887742e-05	1.976954e-05	-0.03363632	0.0155767
3e+08	-0.03115157	0.01598601	5.112397e-05	0.0002053471	0.006125063	-0.00593149	-0.0004200053	0.0003532274
	5.112397e-05	0.0002053471	-0.03007356	0.01694359	9.234741e-06	1.214985e-05	0.006443536	-0.005624967
	0.006125063	-0.00593149	9.234741e-06	1.214985e-05	-0.03078748	0.01630631	4.88629e-05	1.439206e-05
	-0.0004200053	0.0003532274	0.006443536	-0.005624967	4.88629e-05	1.439206e-05	-0.03011642	0.01714738
3.1e+08	-0.02747396	0.01708922	6.247992e-05	0.00019915	0.004930946	-0.005385164	-0.0004003337	0.0003974715
	6.247992e-05	0.00019915	-0.02640463	0.01789486	9.878849e-06	1.130355e-05	0.005255959	-0.005112464
	0.004930946	-0.005385164	9.878849e-06	1.130355e-05	-0.0271114	0.01734475	4.819992e-05	9.418636e-06
	-0.0004003337	0.0003974715	0.005255959	-0.005112464	4.819992e-05	9.418636e-06	-0.02642473	0.01809122
3.2e+08	-0.02370274	0.01755055	7.323569e-05	0.0001926284	0.003837198	-0.004647719	-0.0003748365	0.0004394519
	7.323569e-05	0.0001926284	-0.02266644	0.01820717	1.046323e-05	1.043363e-05	0.004159355	-0.004411583
	0.003837198	-0.004647719	1.046323e-05	1.043363e-05	-0.02334779	0.01774391	4.701742e-05	4.931399e-06
	-0.0003748365	0.0004394519	0.004159355	-0.004411583	4.701742e-05	4.931399e-06	-0.02266546	0.01839229
3.3e+08	-0.01994247	0.01736709	8.34578e-05	0.0001858393	0.002873839	-0.003738273	-0.0003441083	0.0004782884
	8.34578e-05	0.0001858393	-0.01896334	0.01788115	1.098863e-05	9.542495e-06	0.003183152	-0.003539653
	0.002873839	-0.003738273	1.098863e-05	9.542495e-06	-0.01960085	0.01750135	4.545463e-05	9.79478e-07
	-0.0003441083	0.0004782884	0.003183152	-0.003539653	4.545463e-05	9.79478e-07	-0.01894361	0.01805152
3.4e+08	-0.01629644	0.01655254	9.321845e-05	0.0001788143	0.002067395	-0.002680608	-0.0003088837	0.0005132696
	9.321845e-05	0.0001788143	-0.01539783	0.01693408	1.145551e-05	8.632068e-06	0.002353607	-0.002518567
	0.002067395	-0.002680608	1.145551e-05	8.632068e-06	-0.01597347	0.01663126	4.365306e-05	-2.422192e-06
	-0.0003088837	0.0005132696	0.002353607	-0.002518567	4.365306e-05	-2.422192e-06	-0.01536228	0.01708663
3.5e+08	-0.01286404	0.01513678	0.0001025882	0.0001715594	0.001440172	-0.001502564	-0.0002699966	0.0005438736
	0.0001025882	0.0001715594	-0.01206797	0.01539933	1.186385e-05	7.703894e-06	0.001693098	-0.001374226
	0.001440172	-0.001502564	1.186385e-05	7.703894e-06	-0.01256462	0.01516393	4.174843e-05	-5.292016e-06
	-0.0002699966	0.0005438736	0.001693098	-0.001374226	4.174843e-05	-5.292016e-06	-0.01202003	0.0155315
3.6e+08	-0.009738265	0.01316495	0.0001116296	0.0001640562	0.001009629	-0.0002353044	-0.0002283297	0.0005697817
	0.0001116296	0.0001640562	-0.009064855	0.01332544	1.22131e-05	6.759384e-06	0.001219509	-0.0001358671
	0.001009629	-0.0002353044	1.22131e-05	6.759384e-06	-0.009466832	0.01314494	3.986305e-05	-7.67911e-06
	-0.0002283297	0.0005697817	0.001219509	-0.0001358671	3.986305e-05	-7.67911e-06	-0.009008362	0.01343526
3.7e+08	-0.007003405	0.01069629	0.0001203907	0.0001562658	0.0007878782	0.001087511	-0.0001847683	0.0005908789
	0.0001203907	0.0001562658	-0.0064703	0.01077473	1.250218e-05	5.799998e-06	0.0009457242	0.001164701
	0.0007878782	0.001087511	1.250218e-05	5.799998e-06	-0.006763871	0.0106339	3.809897e-05	-9.658815e-06
	-0.0001847683	0.0005908789	0.0009457242	0.001164701	3.809897e-05	-9.658815e-06	-0.006409414	0.01086091
3.8e+08	-0.00473292	0.007802463	0.0001289001	0.0001481329	0.0007813289	0.002430637	-0.0001401524	0.0006072434
	0.0001289001	0.0001481329	-0.004354795	0.007821629	1.272945e-05	4.827448e-06	0.0008792548	0.002493951
	0.0007813289	0.002430637	1.272945e-05	4.827448e-06	-0.004528654	0.007702825	3.653247e-05	-1.132675e-05
	-0.0001401524	0.0006072434	0.0008792548	0.002493951	3.653247e-05	-1.132675e-05	-0.004293868	0.007883597
3.9e+08	-0.002987643	0.004565696	0.0001371631	0.0001395916	0.0009904778	0.003758206	-9.52334e-05	0.0006191251
	0.0001371631	0.0001395916	-0.002775726	0.004550685	1.289286e-05	3.84388e-06	0.00102201	0.003817541
	0.0009904778	0.003758206	1.289286e-05	3.84388e-06	-0.002821419	0.004434243	3.521012e-05	-1.279168e-05
	-9.52334e-05	0.0006191251	0.001022011	0.003817541	3.521012e-05	-1.279168e-05	-0.002719181	0.004588618
4e+08	-0.001814283	0.001076582	0.0001451594	0.0001305725	0.001409871	0.005034718	-5.064008e-05	0.0006269154
	0.0001451594	0.0001305725	-0.001775959	0.001054286	1.299006e-05	2.852e-06	0.001370225	0.005101251
	0.001409871	0.005034718	1.299006e-05	2.852e-06	-0.001688241	0.000918992	3.414669e-05	-1.416758e-05
	-5.064008e-05	0.0006269154	0.001370225	0.005101251	3.414669e-05	-1.416758e-05	-0.001728164	0.001069106
4.1e+08	-0.001244313	-0.002568294	0.0001528429	0.0001210096	0.00202823	0.006226036	-6.849499e-06	0.0006311093
	0.0001528429	0.0001210096	-0.00138281	-0.002569791	1.301852e-05	1.855195e-06	0.00191454	0.006311931
	0.00202823	0.006226036	1.301852e-05	1.855195e-06	-0.00115992	-0.002746167	3.332519e-05	-1.556552e-05
	-6.849499e-06	0.0006311093	0.00191454	0.006311931	3.332519e-05	-1.556552e-05	-0.001347947	-0.002576422
4.2e+08	-0.001293256	-0.00626889	0.0001601426	0.0001108469	0.002828753	0.007300343	3.583061e-05	0.0006322619
	0.0001601426	0.0001108469	-0.001607424	-0.006220958	1.297574e-05	8.575868e-07	0.002640257	0.007418418
	0.002828753	0.007300343	1.297574e-05	8.575868e-07	-0.001251278	-0.006461084	3.269872e-05	-1.70857e-05
	3.583061e-05	0.0006322619	0.002640257	0.007418418	3.269872e-05	-1.70857e-05	-0.001589368	-0.00624668
4.3e+08	-0.001960386	-0.009924309	0.0001669663	0.0001000454	0.003789571	0.008229044	7.726557e-05	0.0006309431
	0.0001669663	0.0001000454	-0.002444587	-0.009798473	1.285939e-05	-1.359332e-07	0.00352773	0.008392402
	0.003789571	0.008229044	1.285939e-05	-1.359332e-07	-0.001960865	-0.01012483	3.219446e-05	-1.881027e-05
	7.726557e-05	0.0006309431	0.00352773	0.008392402	3.219446e-05	-1.881027e-05	-0.002446785	-0.009840282
4.4e+08	-0.003228854	-0.01343541	0.0001732047	8.858803e-05	0.004884356	0.008987571	0.0001174878	0.0006276929
	0.0001732047	8.858803e-05	-0.003872963	-0.01320406	1.26675e-05	-1.11971e-06	0.004552919	0.009209217
	0.004884356	0.008987571	1.26675e-05	-1.11971e-06	-0.003271095	-0.01363833	3.171921e-05	-2.079737e-05
	0.0001174878	0.0006276929	0.004552919	0.009209217	3.171921e-05	-2.079737e-05	-0.003898333	-0.01325839
4.5e+08	-0.005066233	-0.01670734	0.0001787386	7.648419e-05	0.006083063	0.009556084	0.0001565967	0.0006230224
	0.0001787386	7.648419e-05	-0.005855759	-0.01634448	1.239862e-05	-2.087349e-06	0.005688056	0.009848523
	0.006083063	0.009556084	1.239862e-05	-2.087349e-06	-0.005148807	-0.0169069	3.116703e-05	-2.307685e-05
	0.0001565967	0.0006230224	0.005688056	0.009848523	3.116703e-05	-2.307685e-05	-0.005906597	-0.01640729
4.6e+08	-0.00742545	-0.01965202	0.0001833358	6.37966e-05	0.007352775	0.00992002	0.0002061782	0.0006104498
	0.0001833358	6.37966e-05	-0.008341798	-0.0191339	1.205241e-05	-3.03252e-06	0.00690243	0.01029486
	0.007352775	0.00992002	1.205241e-05	-3.03252e-06	-0.00754622	-0.01984264	3.032043e-05	-2.562049e-05
	0.0002061782	0.0006104498	0.00690243	0.01029486	3.032043e-05	-2.562049e-05	-0.008419681	-0.01920082
4.7e+08	-0.01024616	-0.02219023	0.0001869771	5.058355e-05	0.008658639	0.0100705	0.0002552929	0.0005945531
	0.0001869771	5.058355e-05	-0.01126694	-0.0214961	1.162823e-05	-3.946673e-06	0.008163243	0.01053807
	0.008658639	0.0100705	1.162823e-05	-3.946673e-06	-0.01040226	-0.02236672	2.916874e-05	-2.840781e-05
	0.0002552929	0.0005945531	0.008163243	0.01053807	2.916874e-05	-2.840781e-05	-0.01137272	-0.02156251
