!$
! Info: Touchstone file created by Circ.  Input file=Tx_8in_Rx_93ohms_TxVia_10mils_RxVia_20mils.circ
!$
# Hz S RI R 50
0	0.007411577	5.509299e-26	-4.324969e-05	1.783044e-25	5.603558e-05	7.847891e-24	-4.327534e-05	2.980217e-24
	-4.32497e-05	1.793938e-25	0.00741224	7.608603e-26	-4.324247e-05	6.894351e-26	5.412392e-05	1.051322e-23
	5.47346e-05	7.646735e-24	-4.324247e-05	6.903762e-26	0.007426871	5.770068e-26	-4.325222e-05	3.66898e-25
	-4.327533e-05	2.979169e-24	5.558058e-05	1.082062e-23	-4.32522e-05	3.649976e-25	0.007417841	7.257523e-26
1e+07	0.01059899	-0.0005603715	-0.0002009093	2.290526e-06	0.0002340041	0.001504811	-3.990134e-05	-6.254887e-06
	-0.0002009093	2.290525e-06	0.0108164	-0.0005749102	-0.0001065073	5.119504e-05	0.0002309487	0.001499754
	0.0002339601	0.001504815	-0.0001065073	5.119505e-05	0.01083418	-0.000584031	-0.0002007654	4.125593e-06
	-3.990134e-05	-6.254885e-06	0.0002309813	0.001499742	-0.0002007654	4.125594e-06	0.0106096	-0.0005848335
2e+07	0.01253585	-0.00371392	-0.0001681389	-3.697334e-05	0.0005530226	0.003000093	-1.905694e-05	-4.430347e-05
	-0.0001681389	-3.697334e-05	0.01268486	-0.003817147	-0.0001053887	3.248755e-05	0.0005449657	0.002992196
	0.0005530127	0.003000121	-0.0001053887	3.248755e-05	0.01271102	-0.003837441	-0.0001670947	-4.044006e-05
	-1.905694e-05	-4.430347e-05	0.0005449629	0.002992175	-0.0001670947	-4.044005e-05	0.01252664	-0.003760567
3e+07	0.01318242	-0.007859569	-0.0001470035	-5.574089e-05	0.001168752	0.004342465	-2.396824e-05	-5.370287e-05
	-0.0001470035	-5.574089e-05	0.01326582	-0.007989886	-0.0001013665	3.257051e-05	0.00113905	0.004338775
	0.001168753	0.00434247	-0.0001013665	3.257051e-05	0.01330549	-0.008024321	-0.0001451522	-6.002307e-05
	-2.396824e-05	-5.370287e-05	0.001139045	0.004338772	-0.0001451522	-6.002307e-05	0.01314438	-0.007920991
4e+07	0.0128111	-0.01225455	-0.0001311493	-6.470796e-05	0.002018806	0.005534193	-4.663782e-05	-5.032222e-05
	-0.0001311493	-6.470796e-05	0.01282782	-0.01239001	-9.544721e-05	3.392372e-05	0.001971075	0.005537963
	0.002018802	0.005534191	-9.544721e-05	3.392372e-05	0.01288519	-0.01244314	-0.0001287056	-6.962714e-05
	-4.663782e-05	-5.032222e-05	0.001971075	0.005537965	-0.0001287056	-6.962714e-05	0.01273519	-0.01232513
5e+07	0.01154481	-0.01662185	-0.0001184224	-6.932692e-05	0.003037337	0.006559657	-6.546344e-05	-4.139755e-05
	-0.0001184224	-6.932692e-05	0.0114942	-0.01674548	-8.822846e-05	3.394997e-05	0.002969368	0.006575821
	0.003037336	0.006559656	-8.822846e-05	3.394997e-05	0.01157208	-0.01682303	-0.0001155237	-7.480369e-05
	-6.546344e-05	-4.139755e-05	0.002969367	0.006575821	-0.0001155237	-7.480369e-05	0.01142213	-0.01669251
6e+07	0.009478644	-0.02077419	-0.0001075272	-7.139492e-05	0.004195963	0.007396412	-8.064389e-05	-2.842825e-05
	-0.0001075272	-7.139492e-05	0.009361584	-0.02087056	-8.049184e-05	3.150379e-05	0.004106603	0.007430338
	0.004195968	0.00739641	-8.049184e-05	3.150379e-05	0.009461215	-0.020979	-0.0001042676	-7.738485e-05
	-8.064389e-05	-2.842825e-05	0.0041066	0.007430339	-0.0001042676	-7.738485e-05	0.009303174	-0.02083373
7e+07	0.006706464	-0.02456601	-9.751307e-05	-7.167854e-05	0.005462248	0.008025806	-9.212096e-05	-1.225921e-05
	-9.751307e-05	-7.167854e-05	0.0065259	-0.02462048	-7.320542e-05	2.59533e-05	0.005351494	0.008083108
	0.005462259	0.008025799	-7.320542e-05	2.59533e-05	0.006646857	-0.02476659	-9.395667e-05	-7.81493e-05
	-9.212096e-05	-1.225921e-05	0.005351489	0.008083111	-9.395667e-05	-7.81493e-05	0.006474757	-0.0246026
8e+07	0.003328735	-0.02787955	-8.751451e-05	-7.049875e-05	0.006800778	0.008434267	-9.963117e-05	6.594665e-06
	-8.751451e-05	-7.049875e-05	0.00308995	-0.02787821	-6.751435e-05	1.69669e-05	0.006669829	0.008520603
	0.006800789	0.008434256	-6.751435e-05	1.69669e-05	0.003230148	-0.0280687	-8.369592e-05	-7.741673e-05
	-9.963117e-05	6.594665e-06	0.006669824	0.008520607	-8.369592e-05	-7.741673e-05	0.003039372	-0.02788093
9e+07	-0.0005447918	-0.03061937	-7.6442e-05	-6.77755e-05	0.008174198	0.008613958	-0.0001025197	2.796823e-05
	-7.6442e-05	-6.77755e-05	-0.000833869	-0.03054902	-6.478427e-05	4.365724e-06	0.008025497	0.008734841
	0.008174205	0.008613948	-6.478427e-05	4.365723e-06	-0.000678097	-0.03079019	-7.782492e-05	-7.040595e-05
	-0.0001025197	2.796823e-05	0.008025494	0.008734845	-7.782492e-05	-7.040595e-05	-0.0008910535	-0.03057274
1e+08	-0.004785282	-0.0327016	-7.728109e-05	-4.48096e-05	0.009544058	0.0085626	-9.771098e-05	5.349665e-05
	-7.728109e-05	-4.48096e-05	-0.005111991	-0.0325482	-6.766793e-05	-1.31386e-05	0.009381514	0.008723383
	0.009544058	0.0085626	-6.766793e-05	-1.31386e-05	-0.004945783	-0.03284558	-8.464649e-05	-4.039584e-05
	-9.771098e-05	5.349665e-05	0.009381514	0.008723383	-8.464649e-05	-4.039584e-05	-0.005184892	-0.03259374
1.1e+08	-0.009248365	-0.03417017	-7.020856e-05	-2.768168e-05	0.01087054	0.008287886	-8.135166e-05	6.826462e-05
	-7.020856e-05	-2.768168e-05	-0.009594884	-0.03393467	-6.797661e-05	-3.870694e-05	0.01069921	0.008491222
	0.01087054	0.008287886	-6.797661e-05	-3.870694e-05	-0.009422899	-0.03429487	-7.648985e-05	-2.233281e-05
	-8.135166e-05	6.826462e-05	0.01069921	0.008491222	-7.648985e-05	-2.233281e-05	-0.009694014	-0.03398859
1.2e+08	-0.01390371	-0.03494503	-6.596597e-05	-1.580838e-05	0.01212099	0.007800685	-6.791793e-05	7.759864e-05
	-6.596597e-05	-1.580838e-05	-0.01426414	-0.03462555	-7.059276e-05	-6.243594e-05	0.01194579	0.00804975
	0.01212099	0.007800685	-7.059276e-05	-6.243594e-05	-0.01409553	-0.03505195	-7.136564e-05	-9.86363e-06
	-6.791793e-05	7.759864e-05	0.01194579	0.008049749	-7.136564e-05	-9.86363e-06	-0.01438659	-0.0346796
1.3e+08	-0.01861292	-0.03499673	-6.194074e-05	-5.93626e-06	0.01326148	0.007116698	-5.526244e-05	8.433538e-05
	-6.194074e-05	-5.93626e-06	-0.01897779	-0.03459004	-7.773336e-05	-8.554759e-05	0.0130884	0.007413842
	0.01326148	0.007116698	-7.773336e-05	-8.554759e-05	-0.01882208	-0.03508401	-6.652418e-05	4.484899e-07
	-5.526244e-05	8.433538e-05	0.0130884	0.007413842	-6.652418e-05	4.4849e-07	-0.01912201	-0.03463882
1.4e+08	-0.02325131	-0.0343298	-5.768033e-05	2.563873e-06	0.01426162	0.00625746	-4.481508e-05	8.822485e-05
	-5.768033e-05	2.563873e-06	-0.02360973	-0.0338339	-8.995018e-05	-0.0001074915	0.01409727	0.006603859
	0.01426162	0.00625746	-8.995018e-05	-0.0001074915	-0.02347657	-0.03439496	-6.148763e-05	9.279721e-06
	-4.481508e-05	8.822485e-05	0.01409727	0.006603859	-6.148763e-05	9.279721e-06	-0.02377381	-0.0338728
1.5e+08	-0.02770124	-0.03297009	-5.302534e-05	9.952625e-06	0.01509517	0.005249139	-4.091307e-05	8.824991e-05
	-5.302534e-05	9.952625e-06	-0.02804146	-0.03238476	-0.0001073742	-0.0001273831	0.01494651	0.005644672
	0.01509517	0.005249139	-0.0001073742	-0.0001273831	-0.0279404	-0.03301064	-5.608439e-05	1.69143e-05
	-4.091307e-05	8.824991e-05	0.01494651	0.005644672	-5.608439e-05	1.69143e-05	-0.02822298	-0.03240981
1.6e+08	-0.03185359	-0.03096199	-4.797397e-05	1.624311e-05	0.01574065	0.004121708	-3.669928e-05	8.848084e-05
	-4.797397e-05	1.624311e-05	-0.03216344	-0.03028906	-0.0001298254	-0.0001442277	0.01561476	0.00456489
	0.01574065	0.004121708	-0.0001298254	-0.0001442277	-0.0321037	-0.03097576	-5.030757e-05	2.337948e-05
	-3.669928e-05	8.848084e-05	0.01561476	0.004564891	-5.030757e-05	2.337948e-05	-0.03235944	-0.03029693
1.7e+08	-0.03560977	-0.02836631	-4.258449e-05	2.146202e-05	0.01618187	0.00290808	-3.223479e-05	8.877853e-05
	-4.258449e-05	2.146202e-05	-0.03587711	-0.02760985	-0.0001568496	-0.0001570325	0.01608567	0.003396039
	0.01618187	0.00290808	-0.0001568496	-0.0001570325	-0.03586735	-0.02835162	-4.421073e-05	2.871118e-05
	-3.223479e-05	8.877853e-05	0.01608567	0.003396039	-4.421073e-05	2.871118e-05	-0.03608421	-0.02759787
1.8e+08	-0.03888361	-0.02525808	-3.695751e-05	2.562149e-05	0.01640831	0.001643189	-2.756474e-05	8.90439e-05
	-3.695751e-05	2.562149e-05	-0.03909681	-0.02442442	-0.0001877496	-0.0001648851	0.01634831	0.002171683
	0.01640831	0.001643189	-0.0001877496	-0.0001648851	-0.03914482	-0.02521387	-3.78909e-05	3.292714e-05
	-2.756474e-05	8.90439e-05	0.01634831	0.002171683	-3.78909e-05	3.292714e-05	-0.03931127	-0.02439063
1.9e+08	-0.04160309	-0.02172425	-3.121927e-05	2.873978e-05	0.01641526	0.00036304	-2.27283e-05	8.920286e-05
	-3.121927e-05	2.873978e-05	-0.04175141	-0.02082194	-0.0002216203	-0.0001670138	0.01639729	0.000926529
	0.01641526	0.00036304	-0.0002216203	-0.0001670138	-0.04186384	-0.02165011	-3.147178e-05	3.604862e-05
	-2.27283e-05	8.920286e-05	0.01639729	0.0009265291	-3.147178e-05	3.604862e-05	-0.0419693	-0.02076512
2e+08	-0.04371167	-0.01786119	-2.550904e-05	3.085264e-05	0.01620395	-0.0008962459	-1.776168e-05	8.919887e-05
	-2.550904e-05	3.085264e-05	-0.04378577	-0.01690089	-0.0002573923	-0.0001628361	0.01623291	-0.0003044848
	0.01620395	-0.0008962459	-0.0002573923	-0.0001628361	-0.04396783	-0.01775742	-2.509115e-05	3.811232e-05
	-1.776168e-05	8.919887e-05	0.01623291	-0.0003044847	-2.509115e-05	3.811232e-05	-0.04400303	-0.01682055
2.1e+08	-0.04516935	-0.01377217	-1.996814e-05	3.201878e-05	0.01578141	-0.002099376	-1.270008e-05	8.898869e-05
	-1.996814e-05	3.201878e-05	-0.04516167	-0.0127664	-0.0002938811	-0.000151991	0.01586106	-0.001487085
	0.01578141	-0.002099376	-0.0002938811	-0.000151991	-0.04541684	-0.01363975	-1.889014e-05	3.917644e-05
	-1.270008e-05	8.898869e-05	0.01586106	-0.001487085	-1.889014e-05	3.917644e-05	-0.04537425	-0.01266278
2.2e+08	-0.04595329	-0.009564597	-1.473074e-05	3.232158e-05	0.01516025	-0.003212791	-7.577867e-06	8.853963e-05
	-1.473074e-05	3.232158e-05	-0.04585843	-0.008527423	-0.0003298413	-0.0001343612	0.01529296	-0.002588525
	0.01516025	-0.003212791	-0.0003298413	-0.0001343612	-0.04618823	-0.009405161	-1.300415e-05	3.932286e-05
	-7.577867e-06	8.853963e-05	0.01529296	-0.002588525	-1.300415e-05	3.932286e-05	-0.04606243	-0.008401481
2.3e+08	-0.04605808	-0.005347325	-9.915893e-06	3.18679e-05	0.01435825	-0.004205514	-2.42863e-06	8.782762e-05
	-9.915893e-06	3.18679e-05	-0.0458731	-0.00429399	-0.0003640231	-0.0001100835	0.01454491	-0.0035784
	0.01435825	-0.004205514	-0.0003640231	-0.0001100835	-0.04627684	-0.005163135	-7.554986e-06	3.865643e-05
	-2.42863e-06	8.782762e-05	0.01454491	-0.0035784	-7.554986e-06	3.865643e-05	-0.04606486	-0.004147358
2.4e+08	-0.04549559	-0.001227934	-5.620176e-06	3.078436e-05	0.01339793	-0.00504993	2.714292e-06	8.683618e-05
	-5.620176e-06	3.078436e-05	-0.04522028	-0.0001744129	-0.0003952273	-7.953662e-05	0.01363778	-0.00442939
	0.01339793	-0.00504993	-0.0003952273	-7.953662e-05	-0.04569497	-0.001021815	-2.643551e-06	3.730185e-05
	2.714292e-06	8.683618e-05	0.01363778	-0.00442939	-2.643551e-06	3.730185e-05	-0.04539646	-9.339654e-06
2.5e+08	-0.04429443	0.002689909	-1.913223e-06	2.921259e-05	0.01230588	-0.005722469	7.818816e-06	8.555505e-05
	-1.913223e-06	2.921259e-05	-0.04393142	0.003727397	-0.000422365	-4.334622e-05	0.01259647	-0.00511793
	0.01230588	-0.005722469	-0.000422365	-4.334622e-05	-0.04447168	0.002914631	1.654696e-06	3.539926e-05
	7.818816e-06	8.555505e-05	0.01259647	-0.00511793	1.654696e-06	3.539926e-05	-0.04408916	0.003908111
2.6e+08	-0.042499	0.006308956	1.154954e-06	2.718257e-05	0.01111211	-0.0062042	1.285292e-05	8.398102e-05
	1.154954e-06	2.718257e-05	-0.0420539	0.007314512	-0.0004393035	7.317952e-06	0.01144926	-0.005624781
	0.01111211	-0.0062042	-0.0004393035	7.317952e-06	-0.04265197	0.006548584	5.286814e-06	3.297809e-05
	1.285292e-05	8.398102e-05	0.01144926	-0.005624781	5.286814e-06	3.297809e-05	-0.04219083	0.007507558
2.7e+08	-0.04016824	0.009540724	3.559349e-06	2.495143e-05	0.009849248	-0.006481297	1.778857e-05	8.211303e-05
	3.559349e-06	2.495143e-05	-0.03964955	0.01049922	-0.0004480261	6.233571e-05	0.0102271	-0.0059355
	0.009849248	-0.006481297	-0.0004480261	6.233571e-05	-0.04029537	0.009791207	8.216204e-06	3.029524e-05
	1.778857e-05	8.211303e-05	0.0102271	-0.0059355	8.216204e-06	3.029524e-05	-0.03976391	0.01070095
2.8e+08	-0.03737402	0.0123076	5.327829e-06	2.268984e-05	0.008551684	-0.00654539	2.25983e-05	7.995474e-05
	5.327829e-06	2.268984e-05	-0.03679301	0.01320525	-0.0004489051	0.0001187409	0.008962814	-0.006040795
	0.008551684	-0.00654539	-0.0004489051	0.0001187409	-0.03747441	0.01256466	1.046094e-05	2.752398e-05
	2.25983e-05	7.995474e-05	0.008962814	-0.006040795	1.046094e-05	2.752398e-05	-0.03688371	0.01341174
2.9e+08	-0.03419918	0.01454466	6.519567e-06	2.053413e-05	0.007254718	-0.006393781	2.725623e-05	7.751332e-05
	6.519567e-06	2.053413e-05	-0.03356969	0.01536951	-0.0004418227	0.0001752201	0.007690276	-0.005936757
	0.007254718	-0.006393781	-0.0004418227	0.0001752201	-0.03427263	0.0148039	1.207091e-05	2.480533e-05
	2.725623e-05	7.751332e-05	0.007690276	-0.005936757	1.207091e-05	2.480533e-05	-0.03363632	0.0155767
3e+08	-0.03073542	0.01620118	7.220665e-06	1.860019e-05	0.005993624	-0.00602952	3.173839e-05	7.479865e-05
	7.220665e-06	1.860019e-05	-0.03007356	0.01694359	-0.0004269161	0.0002304698	0.006443536	-0.005624967
	0.005993624	-0.00602952	-0.0004269161	0.0002304698	-0.03078245	0.0164582	1.312328e-05	2.226196e-05
	3.173839e-05	7.479865e-05	0.006443536	-0.005624967	1.312328e-05	2.226196e-05	-0.03011642	0.01714738
3.1e+08	-0.02708091	0.01724179	7.538905e-06	1.697755e-05	0.004802736	-0.005461346	3.602272e-05	7.182326e-05
	7.538905e-06	1.697755e-05	-0.02640463	0.01789486	-0.0004045636	0.0002832537	0.005255959	-0.005112464
	0.004802736	-0.005461346	-0.0004045636	0.0002832537	-0.02710275	0.01749233	1.371782e-05	1.999233e-05
	3.602272e-05	7.182326e-05	0.005255959	-0.005112464	1.371782e-05	1.999233e-05	-0.02642473	0.01809122
3.2e+08	-0.02333776	0.01764729	7.596948e-06	1.57255e-05	0.003714546	-0.004703472	4.008908e-05	6.860154e-05
	7.596948e-06	1.57255e-05	-0.02266644	0.01820717	-0.0003753663	0.0003324485	0.004159355	-0.004411583
	0.003714546	-0.004703472	-0.0003753663	0.0003324485	-0.02333635	0.01788729	1.397063e-05	1.806653e-05
	4.008908e-05	6.860154e-05	0.004159355	-0.004411583	1.397063e-05	1.806653e-05	-0.02266546	0.01839229
3.3e+08	-0.01960947	0.01741494	7.524803e-06	1.487055e-05	0.002758837	-0.003775238	4.391922e-05	6.514948e-05
	7.524803e-06	1.487055e-05	-0.01896334	0.01788115	-0.0003401149	0.0003770878	0.003183152	-0.003539653
	0.002758837	-0.003775238	-0.0003401149	0.0003770878	-0.0195874	0.01764072	1.40071e-05	1.652349e-05
	4.391922e-05	6.514948e-05	0.003183152	-0.003539653	1.40071e-05	1.652349e-05	-0.01894361	0.01805152
3.4e+08	-0.01599827	0.01655852	7.451978e-06	1.440556e-05	0.001961873	-0.002700623	4.749683e-05	6.148474e-05
	7.451978e-06	1.440556e-05	-0.01539783	0.01693408	-0.0002997474	0.0004163974	0.002353607	-0.002518567
	0.001961873	-0.002700623	-0.0002997474	0.0004163974	-0.01595872	0.01676684	1.395451e-05	1.536967e-05
	4.749683e-05	6.148474e-05	0.002353607	-0.002518567	1.395451e-05	1.536967e-05	-0.01536228	0.01708663
3.5e+08	-0.01260254	0.01510782	7.499424e-06	1.429116e-05	0.001345681	-0.00150763	5.080743e-05	5.762599e-05
	7.499424e-06	1.429116e-05	-0.01206797	0.01539933	-0.0002553039	0.0004498182	0.001693098	-0.001374226
	0.001345681	-0.00150763	-0.0002553039	0.0004498182	-0.0125492	0.01529599	1.393423e-05	1.457992e-05
	5.080743e-05	5.762599e-05	0.001693098	-0.001374226	1.393423e-05	1.457992e-05	-0.01202003	0.0155315
3.6e+08	-0.009514332	0.01310783	7.772082e-06	1.445871e-05	0.0009274258	-0.0002275486	5.383847e-05	5.359306e-05
	7.772082e-06	1.445871e-05	-0.009064855	0.01332544	-0.000207874	0.0004770184	0.001219509	-0.0001358671
	0.0009274258	-0.0002275486	-0.000207874	0.0004770184	-0.009451312	0.0132738	1.405449e-05	1.409983e-05
	5.383847e-05	5.359306e-05	0.001219509	-0.0001358671	1.405449e-05	1.409983e-05	-0.009008362	0.01343526
3.7e+08	-0.006817036	0.01061748	8.352266e-06	1.481528e-05	0.0007189163	0.001105871	5.657923e-05	4.940651e-05
	8.352266e-06	1.481528e-05	-0.0064703	0.01077473	-0.0001585464	0.0004978942	0.0009457242	0.001164701
	0.0007189163	0.001105871	-0.0001585464	0.0004978942	-0.00674877	0.01075989	1.440375e-05	1.385004e-05
	5.657923e-05	4.940651e-05	0.0009457242	0.001164701	1.440375e-05	1.385004e-05	-0.006409414	0.01086091
3.8e+08	-0.004583315	0.007708047	9.294433e-06	1.524992e-05	0.0007262485	0.002457334	5.902088e-05	4.508752e-05
	9.294433e-06	1.524992e-05	-0.004354795	0.007821629	-0.0001083587	0.0005125574	0.0008792548	0.002493951
	0.0007262485	0.002457334	-0.0001083587	0.0005125574	-0.004514427	0.007826303	1.504532e-05	1.373187e-05
	5.902088e-05	4.508752e-05	0.0008792548	0.002493951	1.504532e-05	1.373187e-05	-0.004293868	0.007883597
3.9e+08	-0.00287328	0.004461303	1.06216e-05	1.564107e-05	0.0009496066	0.00379096	6.11564e-05	4.065775e-05
	1.06216e-05	1.564107e-05	-0.002775726	0.004550685	-5.825164e-05	0.0005213133	0.00102201	0.003817541
	0.0009496066	0.00379096	-5.825164e-05	0.0005213133	-0.002808464	0.004555584	1.601352e-05	1.36341e-05
	6.11564e-05	4.065775e-05	0.001022011	0.003817541	1.601352e-05	1.36341e-05	-0.002719181	0.004588618
4e+08	-0.001733016	0.0009673063	1.232369e-05	1.586479e-05	0.001383228	0.005071282	6.298059e-05	3.613911e-05
	1.232369e-05	1.586479e-05	-0.001775959	0.001054286	-9.031945e-06	0.0005246281	0.001370225	0.005101251
	0.001383228	0.005071282	-9.031945e-06	0.0005246281	-0.001676903	0.001038579	1.731149e-05	1.344066e-05
	6.298059e-05	3.613911e-05	0.001370225	0.005101251	1.731149e-05	1.344066e-05	-0.001728164	0.001069106
4.1e+08	-0.00119347	-0.002677948	1.43579e-05	1.580305e-05	0.002015535	0.006264233	6.449007e-05	3.155364e-05
	1.43579e-05	1.580305e-05	-0.00138281	-0.002569791	3.865739e-05	0.000523089	0.00191454	0.006311931
	0.002015535	0.006264233	3.865739e-05	0.000523089	-0.001150496	-0.002627942	1.891107e-05	1.303848e-05
	6.449007e-05	3.155364e-05	0.00191454	0.006311931	1.891107e-05	1.303848e-05	-0.001347947	-0.002576422
4.2e+08	-0.00126974	-0.006375042	1.665117e-05	1.535172e-05	0.002829442	0.007338104	6.568317e-05	2.692336e-05
	1.665117e-05	1.535172e-05	-0.001607424	-0.006220958	8.435533e-05	0.0005173587	0.002640257	0.007418418
	0.002829442	0.007338104	8.435533e-05	0.0005173587	-0.001244017	-0.00634383	2.075451e-05	1.232517e-05
	6.568317e-05	2.692336e-05	0.002640257	0.007418418	2.075451e-05	1.232517e-05	-0.001589368	-0.00624668
4.3e+08	-0.001960777	-0.01002373	1.910453e-05	1.442783e-05	0.003802817	0.008264444	6.655986e-05	2.227007e-05
	1.910453e-05	1.442783e-05	-0.002444587	-0.009798473	0.000127789	0.0005081288	0.00352773	0.008392402
	0.003802817	0.008264444	0.000127789	0.0005081288	-0.001955973	-0.01000816	2.275811e-05	1.121624e-05
	6.655986e-05	2.227007e-05	0.00352773	0.008392402	2.275811e-05	1.121624e-05	-0.002446785	-0.009840282
4.4e+08	-0.003249513	-0.01352552	2.159912e-05	1.29754e-05	0.004909092	0.009018864	6.712162e-05	1.76153e-05
	2.159912e-05	1.29754e-05	-0.003872963	-0.01320406	0.0001688694	0.0004960715	0.004552919	0.009209217
	0.004909092	0.009018864	0.0001688694	0.0004960715	-0.003268741	-0.01352185	2.481751e-05	9.650936e-06
	6.712162e-05	1.76153e-05	0.004552919	0.009209217	2.481751e-05	9.650936e-06	-0.003898333	-0.01325839
4.5e+08	-0.005103402	-0.01678624	2.400354e-05	1.096972e-05	0.006118014	0.009581729	6.737143e-05	1.29802e-05
	2.400354e-05	1.096972e-05	-0.005855759	-0.01634448	0.0002076745	0.0004817969	0.005688056	0.009848523
	0.006118014	0.009581729	0.0002076745	0.0004817969	-0.005149119	-0.01679022	2.68142e-05	7.596775e-06
	6.737143e-05	1.29802e-05	0.005688056	0.009848523	2.68142e-05	7.596775e-06	-0.005906597	-0.01640729
4.6e+08	-0.007475353	-0.0197184	2.618182e-05	8.419557e-06	0.007396491	0.009938708	6.731352e-05	8.385492e-06
	2.618182e-05	8.419557e-06	-0.008341798	-0.0191339	0.0002444247	0.0004658139	0.00690243	0.01029486
	0.007396491	0.009938708	0.0002444247	0.0004658139	-0.007549298	-0.0197254	2.862277e-05	5.052183e-06
	6.731352e-05	8.385492e-06	0.00690243	0.01029486	2.862277e-05	5.052183e-06	-0.008419681	-0.01920082
4.7e+08	-0.01030506	-0.02224345	2.800198e-05	5.367431e-06	0.008709528	0.01008117	6.695358e-05	3.851448e-06
	2.800198e-05	5.367431e-06	-0.01126694	-0.0214961	0.0002794469	0.0004485005	0.008163243	0.01053807
	0.008709528	0.01008117	0.0002794469	0.0004485005	-0.01040818	-0.02224855	3.011962e-05	2.047313e-06
