!$
! Info: Touchstone file created by Circ.  Input file=Tx_8in_Rx_100ohms_TxVia_10mils_RxVia_20mils.circ
!$
# Hz S RI R 50
0	0.008373256	5.311912e-26	-4.325968e-05	1.751105e-25	5.450181e-05	8.680153e-24	-4.326502e-05	4.737381e-25
	-4.325969e-05	1.754157e-25	0.008372588	7.606876e-26	-4.32598e-05	3.202705e-26	5.410677e-05	1.188651e-23
	5.261249e-05	8.557826e-24	-4.32598e-05	3.23584e-26	0.008387216	5.527771e-26	-4.325872e-05	3.731648e-25
	-4.3265e-05	4.720142e-25	5.556307e-05	1.223407e-23	-4.32587e-05	3.710249e-25	0.008378179	7.255937e-26
1e+07	0.01140409	0.005656777	-6.877618e-05	-2.977024e-05	0.0002047342	0.001465553	-0.0001853906	0.000105493
	-6.877618e-05	-2.977025e-05	0.01222343	0.005468027	-2.493039e-05	-1.056055e-05	0.0004872464	0.001510424
	0.0002046952	0.001465578	-2.493039e-05	-1.056055e-05	0.0118711	0.005441254	-7.380164e-06	-1.062229e-05
	-0.0001853906	0.000105493	0.0004872791	0.001510412	-7.380167e-06	-1.062228e-05	0.01211577	0.005480197
2e+07	0.01531708	0.008602768	-3.933094e-05	-6.264831e-05	0.0005610559	0.00291985	-0.0002175176	9.839804e-05
	-3.933094e-05	-6.264831e-05	0.01575661	0.008014421	-1.996782e-05	-1.152242e-05	0.0007366714	0.003113847
	0.000561063	0.002919868	-1.996782e-05	-1.152242e-05	0.01546225	0.008102745	-7.367643e-06	1.335255e-06
	-0.0002175176	9.839804e-05	0.000736669	0.003113826	-7.367642e-06	1.335258e-06	0.0156838	0.008079418
3e+07	0.01870798	0.009855473	-2.2881e-05	-7.353964e-05	0.001141497	0.004263821	-0.0002414167	0.0001066996
	-2.2881e-05	-7.353964e-05	0.01884436	0.00917877	-1.660227e-05	-1.216267e-05	0.001236248	0.004512154
	0.001141494	0.004263822	-1.660227e-05	-1.216267e-05	0.01860441	0.009306868	-8.879384e-06	5.084386e-07
	-0.0002414167	0.0001066996	0.001236243	0.004512151	-8.879385e-06	5.084392e-07	0.01880306	0.009264005
4e+07	0.02182482	0.01027607	-5.323207e-05	-6.388794e-05	0.001925943	0.005483016	-0.0002616408	0.0001175113
	-5.323207e-05	-6.388794e-05	0.02170408	0.009610885	-1.393054e-05	-1.240792e-05	0.001973979	0.005761167
	0.001925938	0.005483019	-1.393054e-05	-1.240792e-05	0.02151908	0.009757057	-1.10903e-05	-9.320738e-07
	-0.0002616408	0.0001175113	0.001973979	0.005761168	-1.10903e-05	-9.320736e-07	0.02169243	0.009703792
5e+07	0.02471486	0.01007089	-7.749364e-05	-4.70119e-05	0.002889909	0.006550129	-0.00027959	0.0001299317
	-7.749364e-05	-4.70119e-05	0.02437633	0.0094788	-1.163909e-05	-1.249247e-05	0.003024626	0.00679247
	0.002889908	0.00655013	-1.163909e-05	-1.249247e-05	0.02424713	0.009628965	-1.354923e-05	-1.444251e-06
	-0.00027959	0.0001299317	0.003024626	0.00679247	-1.354923e-05	-1.444251e-06	0.02439122	0.009571954
6e+07	0.0273738	0.009346383	-9.588907e-05	-2.482655e-05	0.004005269	0.007440436	-0.0002959275	0.0001436712
	-9.588907e-05	-2.482655e-05	0.02685626	0.008872724	-9.546356e-06	-1.250105e-05	0.004202516	0.007632428
	0.00400527	0.007440434	-9.546357e-06	-1.250105e-05	0.02678224	0.009014131	-1.612555e-05	-1.145322e-06
	-0.0002959275	0.0001436712	0.004202513	0.007632429	-1.612555e-05	-1.145322e-06	0.02689517	0.008960781
7e+07	0.02977902	0.008176163	-0.000108259	1.459359e-06	0.005251291	0.008126556	-0.0003111481	0.0001583908
	-0.000108259	1.459359e-06	0.02912249	0.007855656	-8.848556e-06	-1.161628e-05	0.005477725	0.008266305
	0.005251292	0.008126551	-8.848556e-06	-1.161628e-05	0.02910148	0.00797662	-1.865146e-05	-7.926525e-08
	-0.0003111481	0.0001583908	0.00547772	0.008266307	-1.865146e-05	-7.926596e-08	0.02918272	0.007933689
8e+07	0.03190157	0.00662147	-0.0001141994	3.099761e-05	0.006583758	0.0085975	-0.0003259141	0.000173542
	-0.0001141994	3.099761e-05	0.03114846	0.006481088	-1.09324e-05	-8.223905e-06	0.006817204	0.008682859
	0.006583758	0.008597494	-1.09324e-05	-8.223905e-06	0.03117668	0.006570889	-2.097007e-05	1.697123e-06
	-0.0003259141	0.000173542	0.006817199	0.008682862	-2.097007e-05	1.697122e-06	0.03122629	0.006544671
9e+07	0.03371098	0.004738532	-0.0001129091	6.332705e-05	0.007964603	0.008845893	-0.0003415833	0.000188072
	-0.0001129091	6.332706e-05	0.03290836	0.004800434	-1.203706e-05	-4.402164e-06	0.008185389	0.008875066
	0.007964602	0.008845889	-1.203706e-05	-4.402164e-06	0.03298036	0.004849161	-2.298195e-05	4.080701e-06
	-0.0003415833	0.0001880719	0.008185386	0.008875069	-2.298195e-05	4.0807e-06	0.03299903	0.004846044
1e+08	0.03517308	0.002577807	-0.0001006511	0.0001003533	0.009361067	0.008871045	-0.0003642898	0.0001969076
	-0.0001006511	0.0001003533	0.03439041	0.002874108	-1.163518e-05	9.189946e-08	0.009540818	0.008837004
	0.009361067	0.008871045	-1.163517e-05	9.189945e-08	0.03449787	0.002871643	-2.471797e-05	6.901198e-06
	-0.0003642898	0.0001969076	0.009540818	0.008837004	-2.471797e-05	6.901198e-06	0.0344873	0.002898414
1.1e+08	0.03625737	0.0002262377	-7.588126e-05	0.0001192078	0.01074129	0.008653278	-0.0003676267	0.0001884267
	-7.588126e-05	0.0001192078	0.03559171	0.0006620736	-9.192081e-06	2.389322e-06	0.01083915	0.008607368
	0.01074129	0.008653278	-9.192081e-06	2.389322e-06	0.03572357	0.0006062018	-2.552328e-05	9.610978e-06
	-0.0003676267	0.0001884267	0.01083915	0.008607368	-2.552328e-05	9.610978e-06	0.03568792	0.000670374
1.2e+08	0.03698296	-0.002263323	-7.418793e-05	0.0001175717	0.01204721	0.00821131	-0.0003629393	0.0001896502
	-7.418793e-05	0.0001175717	0.03640885	-0.001732996	-7.411692e-06	3.909375e-06	0.0120822	0.008181174
	0.01204721	0.008211311	-7.411692e-06	3.909375e-06	0.03655919	-0.001844474	-2.544026e-05	1.272407e-05
	-0.0003629393	0.0001896502	0.0120822	0.008181174	-2.544026e-05	1.272407e-05	0.03650431	-0.001738505
1.3e+08	0.03733452	-0.004843748	-7.059922e-05	0.0001179352	0.01324881	0.007564348	-0.0003556425	0.0001938181
	-7.059922e-05	0.0001179352	0.03684593	-0.004239391	-5.805916e-06	4.960672e-06	0.01323215	0.007564594
	0.01324881	0.007564348	-5.805916e-06	4.960672e-06	0.03700716	-0.004408788	-2.4591e-05	1.595917e-05
	-0.0003556425	0.0001938181	0.01323215	0.007564594	-2.4591e-05	1.595917e-05	0.03693931	-0.004257731
1.4e+08	0.03730793	-0.007461749	-6.568262e-05	0.0001192405	0.01431594	0.006733339	-0.0003468692	0.0001991899
	-6.568262e-05	0.0001192405	0.03690219	-0.006798154	-4.306269e-06	5.681733e-06	0.0142582	0.006774257
	0.01431594	0.00673334	-4.306269e-06	5.681733e-06	0.03706627	-0.007026656	-2.300662e-05	1.911383e-05
	-0.0003468692	0.0001991899	0.0142582	0.006774257	-2.300662e-05	1.911383e-05	0.03699204	-0.006828383
1.5e+08	0.0369061	-0.01006367	-5.970839e-05	0.000120903	0.01522168	0.005743312	-0.0003372696	0.0002048762
	-5.970839e-05	0.000120903	0.03658173	-0.00935298	-2.890446e-06	6.141861e-06	0.0151335	0.005832164
	0.01522168	0.005743312	-2.890446e-06	6.141861e-06	0.03674049	-0.009640502	-2.074166e-05	2.200723e-05
	-0.0003372696	0.0002048762	0.0151335	0.005832164	-2.074166e-05	2.200723e-05	0.03666668	-0.009394052
1.6e+08	0.03613875	-0.01259679	-5.287293e-05	0.0001225286	0.01594329	0.00462307	-0.0003273511	0.0002103813
	-5.287293e-05	0.0001225286	0.03589473	-0.01184972	-1.551521e-06	6.383963e-06	0.01583544	0.004764561
	0.01594329	0.00462307	-1.551521e-06	6.383963e-06	0.03604004	-0.01219486	-1.78826e-05	2.44802e-05
	-0.0003273511	0.0002103813	0.01583544	0.004764561	-1.78826e-05	2.44802e-05	0.03597354	-0.01190047
1.7e+08	0.03502234	-0.01501034	-4.535726e-05	0.0001238321	0.01646287	0.003404557	-0.0003175585	0.0002154581
	-4.535726e-05	0.0001238321	0.03485771	-0.01423677	-2.892769e-07	6.438177e-06	0.0163461	0.003601063
	0.01646287	0.003404557	-2.892769e-07	6.438177e-06	0.03498169	-0.01463678	-1.454644e-05	2.640043e-05
	-0.0003175585	0.0002154581	0.0163461	0.003601063	-1.454644e-05	2.640043e-05	0.03492929	-0.0142959
1.8e+08	0.03357985	-0.01725643	-3.734379e-05	0.0001246072	0.01676784	0.002122084	-0.0003082872	0.0002200446
	-3.734379e-05	0.0001246072	0.03349346	-0.01646577	8.934398e-07	6.327779e-06	0.01665266	0.0023738
	0.01676784	0.002122084	8.934397e-07	6.327779e-06	0.03358868	-0.01691655	-1.08754e-05	2.766815e-05
	-0.0003082872	0.0002200446	0.01665266	0.0023738	-1.08754e-05	2.766815e-05	0.03355693	-0.01653187
1.9e+08	0.03184047	-0.01929094	-2.901522e-05	0.0001247159	0.0168513	0.000811452	-0.0002998773	0.0002242254
	-2.901522e-05	0.0001247159	0.0318308	-0.01849231	1.425996e-06	6.043731e-06	0.0167477	0.001116541
	0.0168513	0.0008114521	1.425996e-06	6.043731e-06	0.03189049	-0.01898848	-7.024499e-06	2.822451e-05
	-0.0002998773	0.0002242254	0.0167477	0.001116541	-7.024498e-06	2.822451e-05	0.03188546	-0.01856387
2e+08	0.02983906	-0.02107443	-2.0562e-05	0.0001240706	0.01671217	-0.0004909563	-0.0002926	0.0002282039
	-2.0562e-05	0.0001240706	0.02990402	-0.02027677	1.513128e-06	5.728859e-06	0.01662935	-0.0001362097
	0.01671217	-0.0004909562	1.513128e-06	5.728859e-06	0.02992236	-0.0208117	-3.163412e-06	2.804397e-05
	-0.0002926	0.0002282039	0.01662935	-0.0001362097	-3.163412e-06	2.804397e-05	0.02994944	-0.0203522
2.1e+08	0.02761549	-0.02257286	-1.217475e-05	0.0001226358	0.01635526	-0.001749125	-0.0002866432	0.0002322762
	-1.217475e-05	0.0001226358	0.02775233	-0.02178496	1.596447e-06	5.435534e-06	0.01630137	-0.001350119
	0.01635526	-0.001749125	1.596447e-06	5.435534e-06	0.0277246	-0.02235095	5.349744e-07	2.714138e-05
	-0.0002866432	0.0002322762	0.01630137	-0.001350119	5.349744e-07	2.714138e-05	0.02778828	-0.02186262
2.2e+08	0.02521386	-0.02375834	-4.029518e-06	0.000120427	0.01579108	-0.002928338	-0.0002820985	0.0002368047
	-4.029518e-06	0.000120427	0.02541902	-0.02298876	1.672983e-06	5.160964e-06	0.01577297	-0.002491931
	0.01579108	-0.002928338	1.672983e-06	5.160964e-06	0.02534188	-0.02357721	3.911111e-06	2.55746e-05
	-0.0002820985	0.0002368047	0.01577297	-0.002491931	3.911111e-06	2.55746e-05	0.02544557	-0.02306701
2.3e+08	0.02268165	-0.02460961	3.716227e-06	0.0001175016	0.01503563	-0.003996084	-0.000278951	0.0002421908
	3.716227e-06	0.0001175016	0.02295068	-0.02386668	1.740708e-06	4.9038e-06	0.01505864	-0.003530335
	0.01503563	-0.003996084	1.740708e-06	4.9038e-06	0.0228223	-0.0244683	6.824202e-06	2.343754e-05
	-0.000278951	0.0002421908	0.01505864	-0.003530335	6.824202e-06	2.343754e-05	0.02296814	-0.02394389
2.4e+08	0.02006869	-0.02511255	1.092981e-05	0.0001139526	0.01410991	-0.00492291	-0.0002770761	0.0002488491
	1.092981e-05	0.0001139526	0.02039615	-0.02440417	1.798284e-06	4.663835e-06	0.01417767	-0.004436784
	0.01410991	-0.00492291	1.798284e-06	4.663835e-06	0.02021639	-0.02500928	9.160128e-06	2.085466e-05
	-0.0002770761	0.0002488491	0.01417767	-0.004436784	9.160128e-06	2.085466e-05	0.0204051	-0.02447878
2.5e+08	0.01742614	-0.02526038	1.751001e-05	0.0001099004	0.01303939	-0.005683187	-0.0002762386	0.0002571784
	1.751001e-05	0.0001099004	0.01780562	-0.02459393	1.845401e-06	4.441591e-06	0.01315375	-0.005186242
	0.01303939	-0.005683187	1.845401e-06	4.441591e-06	0.01757607	-0.02519273	1.083784e-05	1.797365e-05
	-0.0002762386	0.0002571784	0.01315375	-0.005186242	1.083784e-05	1.797365e-05	0.01780688	-0.02466449
2.6e+08	0.01480544	-0.02505383	2.339077e-05	0.0001054845	0.01185333	-0.006255786	-0.0002760992	0.0002675361
	2.339077e-05	0.0001054845	0.0152295	-0.02443598	1.882602e-06	4.238063e-06	0.01201422	-0.005757838
	0.01185333	-0.006255786	1.882602e-06	4.238063e-06	0.01495355	-0.02501888	1.181387e-05	1.495692e-05
	-0.0002760992	0.0002675361	0.01201422	-0.005757838	1.181387e-05	1.495692e-05	0.01522414	-0.0245012
2.7e+08	0.01225716	-0.02450106	2.854383e-05	0.0001008538	0.01058401	-0.006624628	-0.0002762263	0.0002802123
	2.854383e-05	0.0001008538	0.01271741	-0.02393763	1.911365e-06	4.054366e-06	0.01078947	-0.006135405
	0.01058401	-0.006624628	1.911365e-06	4.054366e-06	0.01240024	-0.02449557	1.208467e-05	1.197213e-05
	-0.0002762263	0.0002802123	0.01078947	-0.006135405	1.208467e-05	1.197213e-05	0.01270671	-0.0239964
2.8e+08	0.00983001	-0.02361749	3.297881e-05	9.615776e-05	0.00926584	-0.006779104	-0.0002761109	0.0002954116
	3.297881e-05	9.615776e-05	0.01031718	-0.02311322	1.933951e-06	3.891532e-06	0.009512019	-0.006307908
	0.00926584	-0.006779104	1.933951e-06	3.891532e-06	0.009965611	-0.023638	1.168672e-05	9.182607e-06
	-0.0002761109	0.0002954116	0.009512019	-0.006307908	1.168672e-05	9.182607e-06	0.0103026	-0.02316466
2.9e+08	0.00756973	-0.02242539	3.674149e-05	9.153644e-05	0.007934473	-0.006714351	-0.000275188	0.0003132341
	3.674149e-05	9.153644e-05	0.008073769	-0.02198384	1.953355e-06	3.750202e-06	0.008215762	-0.00626972
	0.007934473	-0.006714351	1.953355e-06	3.750202e-06	0.007696195	-0.02246841	1.069424e-05	6.737891e-06
	-0.000275188	0.0003132341	0.008215762	-0.00626972	1.069424e-05	6.737891e-06	0.008056908	-0.02202733
3e+08	0.005518161	-0.02095343	3.990999e-05	8.711247e-05	0.006625838	-0.006431369	-0.0002728603	0.0003336622
	3.990999e-05	8.711247e-05	0.006028417	-0.02057676	1.973149e-06	3.63038e-06	0.006935003	-0.006020764
	0.006625838	-0.006431369	1.973149e-06	3.63038e-06	0.005634546	-0.0210155	9.21473e-06	4.765065e-06
	-0.0002728603	0.0003336622	0.006935003	-0.006020764	9.21473e-06	4.765065e-06	0.006010968	-0.02061195
3.1e+08	0.003712356	-0.01923596	4.258916e-05	8.298408e-05	0.005375189	-0.005936986	-0.0002685223	0.0003565572
	4.258916e-05	8.298408e-05	0.004217739	-0.01892485	1.997239e-06	3.531326e-06	0.005703582	-0.00556651
	0.005375189	-0.005936986	1.997239e-06	3.531326e-06	0.003818374	-0.01931383	7.382753e-06	3.361629e-06
	-0.0002685223	0.0003565572	0.005703582	-0.00556651	7.382753e-06	3.361629e-06	0.004201447	-0.0189517
3.2e+08	0.002183781	-0.01731229	4.49034e-05	7.921899e-05	0.004216164	-0.005243666	-0.0002615888	0.0003816551
	4.49034e-05	7.921899e-05	0.002672991	-0.01706578	2.029643e-06	3.451372e-06	0.004553975	-0.004917817
	0.004216164	-0.005243666	2.029643e-06	3.451372e-06	0.002279728	-0.01740297	5.351939e-06	2.589805e-06
	-0.0002615888	0.0003816551	0.004553975	-0.004917817	5.351939e-06	2.589805e-06	0.0026596	-0.01708454
3.3e+08	0.0009576764	-0.01522574	4.698845e-05	7.585079e-05	0.003179892	-0.004369167	-0.0002515215	0.0004085725
	4.698845e-05	7.585079e-05	0.001419443	-0.01504123	2.074214e-06	3.387883e-06	0.003516447	-0.004090635
	0.003179892	-0.004369167	2.074214e-06	3.387883e-06	0.001044342	-0.0153266	3.285889e-06	2.472988e-06
	-0.0002515215	0.0004085725	0.003516447	-0.004090635	3.285889e-06	2.472988e-06	0.001410639	-0.01505246
3.4e+08	5.253687e-05	-0.01302273	4.898277e-05	7.287765e-05	0.002294168	-0.003336056	-0.0002378507	0.0004368189
	4.898277e-05	7.287765e-05	0.0004758786	-0.0128959	2.134356e-06	3.33733e-06	0.00261825	-0.003105579
	0.002294168	-0.003336056	2.134356e-06	3.33733e-06	0.0001311067	-0.01313155	1.348895e-06	2.9947e-06
	-0.0002378507	0.0004368189	0.00261825	-0.003105579	1.348895e-06	2.9947e-06	0.0004732482	-0.01290042
3.5e+08	-0.0005202515	-0.01075167	5.101842e-05	7.026245e-05	0.001582718	-0.002171095	-0.0002202004	0.0004658101
	5.101842e-05	7.026245e-05	-0.0001457607	-0.01067651	2.212773e-06	3.295362e-06	0.001882921	-0.001987367
	0.001582718	-0.002171095	2.212773e-06	3.295362e-06	-0.0004482941	-0.01086669	-3.053038e-07	4.098909e-06
	-0.0002202004	0.0004658101	0.001882921	-0.001987367	-3.053038e-07	4.098909e-06	-0.0001407842	-0.01067545
3.6e+08	-0.0007566139	-0.00846195	5.321293e-05	6.793575e-05	0.001064577	-0.0009045238	-0.0001983075	0.0004948879
	5.321293e-05	6.793575e-05	-0.0004405675	-0.008430814	2.307173e-06	3.254821e-06	0.001329667	-0.0007641681
	0.001064577	-0.0009045239	2.307173e-06	3.254821e-06	-0.0006895916	-0.00858186	-1.080785e-06	5.83242e-06
	-0.0001983075	0.0004948879	0.001329667	-0.0007641681	-1.080785e-06	5.83242e-06	-0.0004267476	-0.00842552
3.7e+08	-0.000659821	-0.006202764	5.566143e-05	6.580002e-05	0.000753593	0.0004307599	-0.0001720252	0.0005233489
	5.566143e-05	6.580002e-05	-0.0004107147	-0.006206492	2.421376e-06	3.212837e-06	0.000972873	0.000533158
	0.000753593	0.0004307599	2.421376e-06	3.212837e-06	-0.000595959	-0.006326757	-1.21881e-06	7.882196e-06
	-0.0001720252	0.0005233489	0.000972873	0.000533158	-1.21881e-06	7.882196e-06	-0.0003870511	-0.006198521
3.8e+08	-0.0002403596	-0.00402207	5.843064e-05	6.373616e-05	0.0006580678	0.001800078	-0.0001413406	0.0005504642
	5.843064e-05	6.373616e-05	-6.533716e-05	-0.004050132	2.555708e-06	3.164321e-06	0.0008217385	0.001871873
	0.0006580678	0.001800078	2.555708e-06	3.164321e-06	-0.0001778828	-0.004149799	-7.399349e-07	1.006861e-05
	-0.0001413406	0.0005504642	0.0008217385	0.001871873	-7.399349e-07	1.006861e-05	-3.109945e-05	-0.004041206
3.9e+08	0.0004843597	-0.00196552	6.155441e-05	6.161102e-05	0.0007805551	0.003167901	-0.000106374	0.0005755075
	6.155441e-05	6.161102e-05	0.0005797377	-0.002006211	2.708444e-06	3.103875e-06	0.0008800517	0.003218227
	0.0007805551	0.003167901	2.708444e-06	3.103875e-06	0.0005471387	-0.002097067	3.872339e-07	1.223289e-05
	-0.000106374	0.0005755075	0.0008800517	0.003218227	3.872339e-07	1.223289e-05	0.0006249842	-0.001998171
4e+08	0.00149045	-7.545286e-05	6.50311e-05	5.928568e-05	0.001117805	0.00449879	-6.737653e-05	0.000597782
	6.50311e-05	5.928568e-05	0.001502408	-0.000116137	2.876658e-06	3.026594e-06	0.001146107	0.004538345
	0.001117805	0.00449879	2.876658e-06	3.026594e-06	0.001555054	-0.0002112955	2.154676e-06	1.421181e-05
	-6.737653e-05	0.000597782	0.001146107	0.004538345	2.154676e-06	1.421181e-05	0.001558785	-0.0001108908
4.1e+08	0.00274814	0.001610016	6.882323e-05	5.662436e-05	0.001660866	0.00575834	-2.47192e-05	0.0006166454
	6.882323e-05	5.662436e-05	0.002674853	0.001582634	3.056379e-06	2.928361e-06	0.001612768	0.005799117
	0.001660866	0.00575834	3.056379e-06	2.928361e-06	0.002815861	0.001469063	4.515173e-06	1.584728e-05
	-2.47192e-05	0.0006166454	0.001612768	0.005799117	4.515173e-06	1.584728e-05	0.002742158	0.001583163
4.2e+08	0.004222495	0.003057806	7.28591e-05	5.350287e-05	0.002395335	0.00691408	2.112181e-05	0.000631532
	7.28591e-05	5.350287e-05	0.004064208	0.003057376	3.242807e-06	2.806078e-06	0.002267671	0.006969056
	0.002395335	0.00691408	3.242807e-06	2.806078e-06	0.004294337	0.002910657	7.384523e-06	1.699551e-05
	2.112181e-05	0.000631532	0.002267671	0.006969056	7.384523e-06	1.699551e-05	0.004141916	0.003051306
4.3e+08	0.005874247	0.004240571	7.703643e-05	4.981661e-05	0.003301753	0.007936335	6.958158e-05	0.0006419708
	7.703643e-05	4.981661e-05	0.005633348	0.004280771	3.430577e-06	2.657827e-06	0.003093566	0.008019114
	0.003301753	0.007936335	3.430577e-06	2.657827e-06	0.00595089	0.004085937	1.064584e-05	1.753547e-05
	6.958158e-05	0.0006419708	0.003093566	0.008019114	1.064584e-05	1.753547e-05	0.00572062	0.004266312
4.4e+08	0.007660722	0.005137248	8.12277e-05	4.548735e-05	0.004356131	0.008798993	0.0001200283	0.0006475998
	8.12277e-05	4.548735e-05	0.007341762	0.005231443	3.614059e-06	2.482968e-06	0.00406878	0.008923433
	0.004356131	0.008798993	3.614059e-06	2.482968e-06	0.007742494	0.004973714	1.415583e-05	1.737596e-05
	0.0001200283	0.0006475998	0.00406878	0.008923433	1.415583e-05	1.737596e-05	0.007437463	0.005206952
4.5e+08	0.009536832	0.005733477	8.528718e-05	4.04687e-05	0.005530588	0.009480187	0.0001717837	0.0006481769
	8.528718e-05	4.04687e-05	0.009146487	0.005894371	3.787675e-06	2.282152e-06	0.005167794	0.009660003
	0.005530588	0.009480187	3.787675e-06	2.282152e-06	0.009623699	0.005559577	1.775255e-05	1.646112e-05
	0.0001717837	0.0006481769	0.005167794	0.009660003	1.775255e-05	1.646112e-05	0.009249211	0.005858399
4.6e+08	0.01145611	0.006021846	8.90597e-05	3.474947e-05	0.006794095	0.00996286	0.0002240674	0.0006436286
	8.90597e-05	3.474947e-05	0.01100309	0.006261141	3.946203e-06	2.057262e-06	0.006361917	0.01021122
	0.006794095	0.00996286	3.946203e-06	2.057262e-06	0.01154768	0.005836141	2.126498e-05	1.477368e-05
	0.0002240674	0.0006436286	0.006361917	0.01021122	2.126498e-05	1.477368e-05	0.01111119	0.006212477
4.7e+08	0.0133718	0.006001959	9.2272e-05	2.837848e-05	0.008113292	0.0102352	0.0002873495	0.0006266819
	9.2272e-05	2.837848e-05	0.01286668	0.006330058	4.085439e-06	1.810647e-06	0.007620039	0.01056434
	0.008113292	0.0102352	4.085439e-06	1.810647e-06	0.01346732	0.005803139	2.44074e-05	1.236319e-05
	0.0002873495	0.0006266819	0.007620039	0.01056434	2.44074e-05	1.236319e-05	0.01297834	0.006267734
4.8e+08	0.01523782	0.005680456	9.487453e-05	2.141412e-05	0.009453367	0.01029094	0.0003499849	0.0006019834
