!$
! Info: Touchstone file created by Circ.  Input file=Tx_8in_Rx_85ohms_TxVia_10mils_RxVia_20mils.circ
!$
# Hz S RI R 50
0	0.006518871	6.627391e-26	1.500932e-12	1.588568e-28	5.690846e-05	8.158267e-24	-4.728721e-09	5.789836e-25
	1.502546e-12	1.590446e-28	0.006521727	7.639495e-26	-2.742533e-12	3.097347e-28	5.433803e-05	9.23979e-24
	5.69565e-05	8.163035e-24	-2.791578e-12	3.157168e-28	0.006533766	6.645701e-26	-1.296106e-09	1.586546e-25
	-4.726577e-09	5.787209e-25	5.579502e-05	9.509961e-24	-1.296151e-09	1.586602e-25	0.006527339	7.286897e-26
1e+07	0.008537712	-0.007555374	-1.115491e-12	-4.137238e-12	0.0001761002	0.001493476	-8.280725e-09	1.674133e-08
	-1.11544e-12	-4.137511e-12	0.008524085	-0.007423081	-2.328589e-12	-5.017558e-12	0.0002348057	0.001489469
	0.0001761046	0.001493473	-2.328608e-12	-5.017304e-12	0.009621374	-0.007309262	-5.825273e-09	1.611401e-08
	-8.280725e-09	1.674133e-08	0.0002348381	0.001489457	-5.825273e-09	1.611401e-08	0.008513594	-0.007417684
2e+07	0.008701634	-0.01721139	-1.648278e-12	-6.5033e-12	0.0005574751	0.002943746	-5.462777e-09	1.420252e-08
	-1.648449e-12	-6.503446e-12	0.008803581	-0.01699307	-1.301212e-12	-9.072096e-12	0.0006339502	0.002887015
	0.000557474	0.002943743	-1.301071e-12	-9.071927e-12	0.009806891	-0.01720494	-6.846486e-09	1.295964e-08
	-5.462777e-09	1.420252e-08	0.0006339471	0.002886994	-6.846486e-09	1.295964e-08	0.008798105	-0.01697414
3e+07	0.006499613	-0.02751071	-4.235312e-12	-7.68557e-12	0.001210145	0.00425148	-2.73633e-09	1.268656e-08
	-4.235349e-12	-7.68555e-12	0.006677543	-0.02727571	-6.3254e-12	-1.174189e-11	0.001246792	0.004183085
	0.001210145	0.004251479	-6.325362e-12	-1.174191e-11	0.00761117	-0.02762819	-2.847197e-09	1.322521e-08
	-2.73633e-09	1.268656e-08	0.001246786	0.004183082	-2.847197e-09	1.322521e-08	0.006676294	-0.02724834
4e+07	0.002295373	-0.03748676	-6.683071e-12	-7.585084e-12	0.002058267	0.005413882	-6.309378e-10	1.155578e-08
	-6.683036e-12	-7.585085e-12	0.002521873	-0.03725576	-9.260984e-12	-1.217903e-11	0.002054838	0.005347155
	0.002058268	0.005413882	-9.261022e-12	-1.217903e-11	0.003397585	-0.03771276	1.14899e-10	1.247959e-08
	-6.309378e-10	1.155578e-08	0.002054838	0.005347156	1.14899e-10	1.247959e-08	0.002523668	-0.03722318
5e+07	-0.003672379	-0.0467061	-8.768558e-12	-7.653347e-12	0.003075295	0.006404491	1.102162e-09	1.093281e-08
	-8.768542e-12	-7.653356e-12	-0.003419831	-0.04648753	-1.160714e-11	-1.327519e-11	0.00303189	0.006349855
	0.003075296	0.00640449	-1.160716e-11	-1.327518e-11	-0.00259408	-0.04703401	1.895011e-09	1.220955e-08
	1.102162e-09	1.093281e-08	0.00303189	0.006349856	1.895011e-09	1.220955e-08	-0.003417347	-0.04645035
6e+07	-0.01117021	-0.05485111	-1.288544e-11	-9.778787e-12	0.00422901	0.007199784	3.108837e-09	1.118263e-08
	-1.288544e-11	-9.778752e-12	-0.01091075	-0.05464675	-1.39066e-11	-1.856508e-11	0.004146729	0.007166686
	0.004229011	0.007199784	-1.390659e-11	-1.856512e-11	-0.01012961	-0.05527573	1.97829e-09	1.384307e-08
	3.108837e-09	1.118263e-08	0.004146726	0.007166687	1.97829e-09	1.384307e-08	-0.01090883	-0.05460444
7e+07	-0.01994765	-0.06167278	-3.410886e-11	-1.53306e-11	0.005483328	0.007781738	8.441926e-09	1.385303e-08
	-3.410883e-11	-1.533047e-11	-0.01969752	-0.0614802	1.324432e-11	-1.608183e-11	0.005364526	0.007779085
	0.00548333	0.007781738	1.324441e-11	-1.608192e-11	-0.01895787	-0.06218867	-7.39691e-09	1.515194e-08
	8.441927e-09	1.385303e-08	0.005364521	0.007779088	-7.39691e-09	1.515194e-08	-0.01969699	-0.06143241
8e+07	-0.02973445	-0.06697895	-2.406587e-10	5.314613e-10	0.006799728	0.008138818	1.955028e-08	-2.884273e-08
	-2.406585e-10	5.314612e-10	-0.02950745	-0.06679328	-3.579547e-11	-9.474418e-14	0.006648171	0.008175087
	0.00679973	0.008138818	-3.579541e-11	-9.475534e-14	-0.02880811	-0.06758028	-6.422938e-09	1.776822e-09
	1.955028e-08	-2.884273e-08	0.006648167	0.008175092	-6.422938e-09	1.776822e-09	-0.02950934	-0.06673955
9e+07	-0.04024374	-0.07063062	-5.315459e-11	-6.634175e-11	0.008138677	0.008266434	-9.688525e-10	-3.300598e-09
	-5.315456e-11	-6.634182e-11	-0.04005228	-0.07044644	-2.83664e-11	-2.052854e-11	0.007959767	0.008349755
	0.008138678	0.008266434	-2.83664e-11	-2.052854e-11	-0.03939373	-0.0713118	-1.674213e-09	1.600837e-10
	-9.688524e-10	-3.300598e-09	0.007959764	0.008349759	-1.674213e-09	1.600837e-10	-0.04005777	-0.07038577
1e+08	-0.05117365	-0.07253639	-2.249743e-11	-6.745195e-12	0.009461347	0.00816723	-1.93762e-11	6.129972e-12
	-2.249743e-11	-6.745195e-12	-0.05103602	-0.0723556	-2.693498e-11	-2.34449e-11	0.009263458	0.008306631
	0.009461347	0.00816723	-2.693498e-11	-2.34449e-11	-0.05041892	-0.07329789	-3.283169e-11	-2.438237e-12
	-1.93762e-11	6.129972e-12	0.009263458	0.008306631	-3.283169e-11	-2.438237e-12	-0.05104616	-0.07228645
1.1e+08	-0.06221166	-0.07270964	-2.335286e-11	-2.180078e-12	0.01073101	0.007847951	-2.028271e-11	9.575817e-12
	-2.335286e-11	-2.180078e-12	-0.06216192	-0.07248102	-2.89434e-11	-2.187165e-11	0.01052721	0.008041088
	0.01073101	0.007847951	-2.89434e-11	-2.187165e-11	-0.06158358	-0.07350999	-3.418566e-11	4.058554e-12
	-2.028271e-11	9.575817e-12	0.01052721	0.008041087	-3.418566e-11	4.058554e-12	-0.06217597	-0.07240082
1.2e+08	-0.07310796	-0.071137	-2.399625e-11	4.391165e-13	0.01191	0.007324475	-2.088381e-11	1.285906e-11
	-2.399625e-11	4.391165e-13	-0.07312101	-0.07083048	-3.009474e-11	-2.137144e-11	0.01170435	0.007571634
	0.01191	0.007324475	-3.009474e-11	-2.137144e-11	-0.07259356	-0.07194944	-3.504611e-11	8.49393e-12
	-2.088381e-11	1.285906e-11	0.01170435	0.007571634	-3.504611e-11	8.49393e-12	-0.07313783	-0.07073742
1.3e+08	-0.08357189	-0.06787222	-2.422361e-11	2.961852e-12	0.01296765	0.006617629	-2.096973e-11	1.64768e-11
	-2.422361e-11	2.961852e-12	-0.08362853	-0.06747209	-3.098695e-11	-2.067538e-11	0.01276641	0.006920013
	0.01296765	0.006617629	-3.098695e-11	-2.067538e-11	-0.08316325	-0.06868015	-3.527752e-11	1.295083e-11
	-2.096973e-11	1.64768e-11	0.01276641	0.006920013	-3.527752e-11	1.295083e-11	-0.08364674	-0.06736473
1.4e+08	-0.09333615	-0.0630193	-2.379438e-11	5.601715e-12	0.01387726	0.005752168	-2.048616e-11	2.025373e-11
	-2.379438e-11	5.601715e-12	-0.09341723	-0.06251572	-3.154977e-11	-1.968723e-11	0.01368749	0.006110072
	0.01387726	0.005752168	-3.154977e-11	-1.968723e-11	-0.09302534	-0.06380944	-3.455718e-11	1.76008e-11
	-2.048616e-11	2.025373e-11	0.01368749	0.006110072	-3.455718e-11	1.76008e-11	-0.09343505	-0.06239289
1.5e+08	-0.1021586	-0.05672271	-2.27565e-11	8.38051e-12	0.0146169	0.004756223	-1.937211e-11	2.415066e-11
	-2.27565e-11	8.38051e-12	-0.1022447	-0.0561105	-3.171852e-11	-1.850438e-11	0.01444607	0.005168708
	0.0146169	0.004756223	-3.171852e-11	-1.850438e-11	-0.1019372	-0.0574841	-3.292846e-11	2.242598e-11
	-1.937211e-11	2.415066e-11	0.01444607	0.005168708	-3.292846e-11	2.242598e-11	-0.10226	-0.05597144
1.6e+08	-0.1098267	-0.04916171	-2.106934e-11	1.116848e-11	0.01516974	0.003660443	-1.75906e-11	2.80401e-11
	-2.106934e-11	1.116848e-11	-0.1098986	-0.04843994	-3.145626e-11	-1.72218e-11	0.01502538	0.004125194
	0.01516974	0.003660443	-3.145626e-11	-1.72218e-11	-0.109686	-0.0498854	-3.033882e-11	2.723142e-11
	-1.75906e-11	2.80401e-11	0.01502538	0.004125194	-3.033882e-11	2.723142e-11	-0.1099091	-0.04828436
1.7e+08	-0.1161617	-0.04054463	-1.871538e-11	1.383223e-11	0.01552419	0.002497132	-1.512695e-11	3.179016e-11
	-1.871538e-11	1.383223e-11	-0.1162007	-0.03971641	-3.074499e-11	-1.593484e-11	0.01541359	0.003010409
	0.01552419	0.002497132	-3.074499e-11	-1.593484e-11	-0.1160927	-0.04122346	-2.677096e-11	3.181853e-11
	-1.512695e-11	3.179016e-11	0.01541359	0.003010409	-2.677096e-11	3.181853e-11	-0.1162039	-0.03954454
1.8e+08	-0.1210217	-0.03110292	-1.570169e-11	1.623619e-11	0.01567394	0.001299426	-1.19903e-11	3.526644e-11
	-1.570169e-11	1.623619e-11	-0.1210102	-0.03017515	-2.958495e-11	-1.473901e-11	0.01560386	0.001856086
	0.01567394	0.001299426	-2.958495e-11	-1.473901e-11	-0.1210151	-0.0317314	-2.22443e-11	3.598729e-11
	-1.19903e-11	3.526644e-11	0.01560386	0.001856086	-2.22443e-11	3.598729e-11	-0.1210036	-0.02998776
1.9e+08	-0.1243039	-0.02108504	-1.206097e-11	1.824584e-11	0.0156178	0.0001005408	-8.214692e-12	3.833545e-11
	-1.206097e-11	1.824584e-11	-0.124226	-0.02006813	-2.799448e-11	-1.372828e-11	0.0155942	0.0006941122
	0.0156178	0.0001005408	-2.799448e-11	-1.372828e-11	-0.1243506	-0.02165919	-1.68161e-11	3.954119e-11
	-8.214692e-12	3.833545e-11	0.0155942	0.0006941122	-1.68161e-11	3.954119e-11	-0.1242072	-0.01986655
2e+08	-0.1259462	-0.01075031	-7.851784e-12	1.973206e-11	0.0153596	-0.001066925	-3.859341e-12	4.086876e-11
	-7.851784e-12	1.973206e-11	-0.1257882	-0.009657829	-2.600986e-11	-1.299258e-11	0.01538737	-0.0004441068
	0.0153596	-0.001066925	-2.600986e-11	-1.299258e-11	-0.1260372	-0.01126755	-1.05814e-11	4.229339e-11
	-3.859341e-12	4.086876e-11	0.01538737	-0.0004441068	-1.05814e-11	4.229339e-11	-0.1257551	-0.009443881
2.1e+08	-0.1259277	-0.0003626529	-3.157868e-12	2.05758e-11	0.01490793	-0.002171624	9.918882e-13	4.274756e-11
	-3.157868e-12	2.05758e-11	-0.1256789	0.0007891322	-2.368498e-11	-1.26149e-11	0.01499065	-0.001528233
	0.01490793	-0.002171624	-2.368498e-11	-1.26149e-11	-0.1260543	-0.0008216518	-3.671702e-12	4.407357e-11
	9.918882e-13	4.274756e-11	0.01499065	-0.001528233	-3.671702e-12	4.407357e-11	-0.1256297	0.001013144
2.2e+08	-0.1242686	0.009815504	1.913582e-12	2.067281e-11	0.01427586	-0.003184042	6.232009e-12	4.386719e-11
	1.913582e-12	2.067281e-11	-0.1239215	0.01100815	-2.109033e-11	-1.266802e-11	0.01441559	-0.00252953
	0.01427586	-0.003184042	-2.109033e-11	-1.266802e-11	-0.1244228	0.009414934	3.747741e-12	4.473471e-11
	6.232009e-12	4.386719e-11	0.01441559	-0.00252953	3.747741e-12	4.473471e-11	-0.1238547	0.01123952
2.3e+08	-0.1210294	0.01952924	7.234595e-12	1.993806e-11	0.01348064	-0.00407704	1.17333e-11	4.414154e-11
	7.234595e-12	1.993806e-11	-0.1205801	0.02074274	-1.831148e-11	-1.321124e-11	0.01367778	-0.003421368
	0.01348064	-0.00407704	-1.831148e-11	-1.321124e-11	-0.1212035	0.01918627	1.14821e-11	4.415956e-11
	1.17333e-11	4.414154e-11	0.01367778	-0.003421368	1.14821e-11	4.415956e-11	-0.1204948	0.02097843
2.4e+08	-0.1163089	0.02853689	1.265987e-11	1.830989e-11	0.01254336	-0.004826361	1.735051e-11	4.350726e-11
	1.265987e-11	1.830989e-11	-0.1157574	0.02975034	-1.544688e-11	-1.428717e-11	0.01279652	-0.004179704
	0.01254336	-0.004826361	-1.544688e-11	-1.428717e-11	-0.1164957	0.02824982	1.931223e-11	4.226652e-11
	1.735051e-11	4.350726e-11	0.01279652	-0.004179704	1.931223e-11	4.226652e-11	-0.1156533	0.02998709
2.5e+08	-0.1102418	0.03661558	1.803128e-11	1.575326e-11	0.01148855	-0.005411126	2.292506e-11	4.19272e-11
	1.803128e-11	1.575326e-11	-0.1095921	0.0378079	-1.260463e-11	-1.591866e-11	0.01179449	-0.004783548
	0.01148855	-0.005411126	-1.260463e-11	-1.591866e-11	-0.1104351	0.0363819	2.700141e-11	3.901438e-11
	2.292506e-11	4.19272e-11	0.01179449	-0.004783548	2.700141e-11	3.901438e-11	-0.1094695	0.03804231
2.6e+08	-0.1029957	0.0435663	2.318273e-11	1.226226e-11	0.01034376	-0.0058143	2.828966e-11	3.939207e-11
	2.318273e-11	1.226226e-11	-0.1022561	0.044717	-9.898676e-12	-1.810639e-11	0.0106974	-0.005215421
	0.01034376	-0.0058143	-9.898676e-12	-1.810639e-11	-0.1031897	0.04338288	3.430287e-11	3.4406e-11
	2.828966e-11	3.939207e-11	0.0106974	-0.005215421	3.430287e-11	3.4406e-11	-0.1021158	0.04494565
2.7e+08	-0.09476688	0.04921866	2.794575e-11	7.86174e-12	0.009139025	-0.006023138	3.327361e-11	3.592362e-11
	2.794575e-11	7.86174e-12	-0.09394961	0.05030856	-7.444067e-12	-2.082718e-11	0.009533525	-0.0054618
	0.009139025	-0.006023138	-7.444067e-12	-2.082718e-11	-0.09495684	0.0490818	4.096817e-11	2.849039e-11
	3.327361e-11	3.592362e-11	0.009533525	-0.0054618	4.096817e-11	2.849039e-11	-0.09379317	0.05052815
2.8e+08	-0.08577625	0.05343498	3.215536e-11	2.607859e-12	0.007906317	-0.006029598	3.770858e-11	3.15751e-11
	3.215536e-11	2.607859e-12	-0.08489731	0.054447	-5.351835e-12	-2.403331e-11	0.008333163	-0.005513539
	0.007906317	-0.006029598	-5.351835e-12	-2.403331e-11	-0.08595807	0.0533406	4.675605e-11	2.136342e-11
	3.770858e-11	3.15751e-11	0.008333163	-0.005513539	4.675605e-11	2.136342e-11	-0.08472691	0.05465444
2.9e+08	-0.0762637	0.05611385	3.565597e-11	-3.412592e-12	0.006678859	-0.0058307	4.143455e-11	2.643084e-11
	3.565597e-11	-3.412592e-12	-0.07534254	0.0570337	-3.723394e-12	-2.765316e-11	0.007128064	-0.005366248
	0.006678859	-0.0058307	-3.723394e-12	-2.765316e-11	-0.07643417	0.05605756	5.144146e-11	1.316651e-11
	4.143455e-11	2.643084e-11	0.007128064	-0.005366248	5.144146e-11	1.316651e-11	-0.07516097	0.05722623
3e+08	-0.06648263	0.0571929	3.830711e-11	-1.008399e-11	0.005490367	-0.005428805	4.430566e-11	2.060491e-11
	3.830711e-11	-1.008399e-11	-0.06554165	0.05800971	-2.645021e-12	-3.159317e-11	0.005950702	-0.005020599
	0.005490367	-0.005428805	-2.645021e-12	-3.159317e-11	-0.06663938	0.05717014	5.482434e-11	4.08367e-12
	4.430566e-11	2.060491e-11	0.005950702	-0.005020599	5.482434e-11	4.08367e-12	-0.06535222	0.05818505
3.1e+08	-0.05669372	0.05665072	3.998458e-11	-1.726379e-11	0.004374202	-0.004831794	4.619603e-11	1.42385e-11
	3.998458e-11	-1.726379e-11	-0.05575766	0.05735764	-2.198458e-12	-3.573592e-11	0.004833487	-0.004482549
	0.004374202	-0.004831794	-2.198458e-12	-3.573592e-11	-0.05683523	0.0566569	5.673794e-11	-5.663199e-12
	4.619603e-11	1.42385e-11	0.004833487	-0.004482549	5.673794e-11	-5.663199e-12	-0.05556417	0.05751403
3.2e+08	-0.04715839	0.05450781	4.059003e-11	-2.478458e-11	0.003362449	-0.004053102	4.700476e-11	7.496199e-12
	4.059003e-11	-2.478458e-11	-0.04625361	0.05510247	-2.438959e-12	-3.994197e-11	0.003807882	-0.003763422
	0.003362449	-0.004053102	-2.438959e-12	-3.994197e-11	-0.04728397	0.05453844	5.705613e-11	-1.58208e-11
	4.700476e-11	7.496199e-12	0.003807882	-0.003763422	5.705613e-11	-1.58208e-11	-0.04606025	0.05523882
3.3e+08	-0.0381321	0.05082657	4.006881e-11	-3.24661e-11	0.002484941	-0.003111592	4.666019e-11	5.612521e-13
	4.006881e-11	-3.24661e-11	-0.03728577	0.05131136	-3.346009e-12	-4.408394e-11	0.002903467	-0.002879841
	0.002484941	-0.003111592	-3.346009e-12	-4.408394e-11	-0.03824181	0.05087736	5.569946e-11	-2.611228e-11
	4.666019e-11	5.612521e-13	0.002903467	-0.002879841	5.569946e-11	-2.611228e-11	-0.03709697	0.05142733
3.4e+08	-0.0298575	0.04571008	3.838969e-11	-4.011637e-11	0.001768274	-0.002031238	4.512322e-11	-6.369187e-12
	3.838969e-11	-4.011637e-11	-0.02909676	0.04609239	-4.902981e-12	-4.803427e-11	0.00214698	-0.001853472
	0.001768274	-0.002031238	-4.902981e-12	-4.803427e-11	-0.02995213	0.04577709	5.263115e-11	-3.623839e-11
	4.512322e-11	-6.369187e-12	0.00214698	-0.001853472	5.263115e-11	-3.623839e-11	-0.02891707	0.04618845
3.5e+08	-0.02255788	0.03929979	3.55563e-11	-4.753863e-11	0.001234848	-0.0008405968	4.23912e-11	-1.309238e-11
	3.55563e-11	-4.753863e-11	-0.02190893	0.03959202	-7.066719e-12	-5.165963e-11	0.00156137	-0.0007105734
	0.001234848	-0.0008405968	-7.066719e-12	-5.165963e-11	-0.02263886	0.03937954	4.788304e-11	-4.590426e-11
	4.23912e-11	-1.309238e-11	0.00156137	-0.0007105734	4.788304e-11	-4.590426e-11	-0.02174289	0.03966943
3.6e+08	-0.01643091	0.0317721	3.160734e-11	-5.453799e-11	0.000901988	0.0004279183	3.849727e-11	-1.940527e-11
	3.160734e-11	-5.453799e-11	-0.01591805	0.03199154	-9.763591e-12	-5.483636e-11	0.001164922	0.0005186649
	0.000901988	0.0004279183	-9.763591e-12	-5.483636e-11	-0.01650023	0.03186161	4.154022e-11	-5.482395e-11
	3.849727e-11	-1.940527e-11	0.001164922	0.0005186649	4.154022e-11	-5.482395e-11	-0.01577006	0.0320524
3.7e+08	-0.01164298	0.02333376	2.661561e-11	-6.092749e-11	0.000781194	0.001738969	3.351038e-11	-2.511137e-11
	2.661561e-11	-6.092749e-11	-0.01128776	0.0235023	-1.289616e-11	-5.746393e-11	0.0009704976	0.001800974
	0.000781194	0.001738969	-1.289616e-11	-5.746393e-11	-0.01170306	0.0234307	3.37346e-11	-6.272522e-11
	3.351038e-11	-2.511137e-11	0.0009704976	0.001800974	3.37346e-11	-6.272522e-11	-0.01116188	0.02354949
3.8e+08	-0.008324378	0.0142164	2.068618e-11	-6.653457e-11	0.0008775818	0.003055385	2.753381e-11	-3.002753e-11
	2.068618e-11	-6.653457e-11	-0.008144696	0.01436003	-1.63482e-11	-5.946443e-11	0.0009849464	0.003101032
	0.0008775818	0.003055385	-1.63482e-11	-5.946443e-11	-0.008377924	0.01431912	2.464608e-11	-6.936206e-11
	2.753381e-11	-3.002753e-11	0.0009849464	0.003101032	2.464608e-11	-6.936206e-11	-0.008044559	0.01439721
3.9e+08	-0.00656542	0.004670118	1.395318e-11	-7.120674e-11	0.001189545	0.004339392	2.070216e-11	-3.399018e-11
	1.395318e-11	-7.120674e-11	-0.006574796	0.004818337	-1.999032e-11	-6.078582e-11	0.001208734	0.004382614
	0.001189545	0.004339392	-1.999032e-11	-6.078582e-11	-0.006615326	0.00477769	1.449672e-11	-7.452345e-11
	2.070216e-11	-3.399018e-11	0.001208734	0.004382614	1.449672e-11	-7.452345e-11	-0.006503414	0.004849839
4e+08	-0.006413814	-0.005043505	6.575552e-12	-7.481655e-11	0.001708682	0.005553904	1.317727e-11	-3.68607e-11
	6.575552e-12	-7.481655e-11	-0.00662071	-0.004858483	-2.368605e-11	-6.140373e-11	0.001635814	0.005609835
	0.001708682	0.005553904	-2.368605e-11	-6.140373e-11	-0.006462979	-0.00493126	3.543209e-12	-7.804054e-11
	1.317727e-11	-3.68607e-11	0.001635814	0.005609835	3.543209e-12	-7.804054e-11	-0.006580374	-0.004827755
4.1e+08	-0.007873253	-0.01465882	-1.268061e-12	-7.726547e-11	0.002419992	0.006663829	5.143088e-12	-3.852999e-11
	-1.268061e-12	-7.726547e-11	-0.008280566	-0.01440296	-2.729783e-11	-6.13218e-11	0.002253771	0.006748392
	0.002419992	0.006663829	-2.729783e-11	-6.13218e-11	-0.007924444	-0.01454136	-7.931818e-12	-7.979222e-11
	5.143088e-12	-3.852999e-11	0.002253771	0.006748392	-7.931818e-12	-7.979222e-11	-0.008272729	-0.01436764
4.2e+08	-0.0109034	-0.02391368	-9.384946e-12	-7.848672e-11	0.003302362	0.007637313	-3.200061e-12	-3.892177e-11
	-9.384946e-12	-7.848672e-11	-0.01150811	-0.0235521	-3.069291e-11	-6.057065e-11	0.003044219	0.007766772
	0.003302362	0.007637313	-3.069291e-11	-6.057065e-11	-0.0109591	-0.02378979	-1.962927e-11	-7.97086e-11
	-3.200061e-12	-3.892177e-11	0.003044219	0.007766772	-1.962927e-11	-7.97086e-11	-0.0115333	-0.02350653
4.3e+08	-0.01542121	-0.03255687	-1.757428e-11	-7.844684e-11	0.004329292	0.008446859	-1.164176e-11	-3.799472e-11
	-1.757428e-11	-7.844684e-11	-0.01621419	-0.03205489	-3.374843e-11	-5.920574e-11	0.003983465	0.008637344
	0.004329292	0.008446859	-3.374843e-11	-5.920574e-11	-0.0154835	-0.03242473	-3.124343e-11	-7.777251e-11
	-1.164176e-11	-3.799472e-11	0.003983465	0.008637344	-3.124343e-11	-7.777251e-11	-0.01627196	-0.03199327
4.4e+08	-0.02130356	-0.04035516	-2.563307e-11	-7.714607e-11	0.005469851	0.009070269	-1.996784e-11	-3.574332e-11
	-2.563307e-11	-7.714607e-11	-0.02226965	-0.03967942	-3.635594e-11	-5.730428e-11	0.005043366	0.009337284
	0.005469851	0.009070269	-3.635594e-11	-5.730428e-11	-0.021374	-0.04021245	-4.247147e-11	-7.401898e-11
	-1.996784e-11	-3.574332e-11	0.005043366	0.009337284	-4.247147e-11	-7.401898e-11	-0.02235854	-0.03959597
4.5e+08	-0.02839114	-0.04709974	-3.33619e-11	-7.46178e-11	0.006689801	0.009491346	-2.796666e-11	-3.219752e-11
	-3.33619e-11	-7.46178e-11	-0.02950928	-0.04621922	-3.84249e-11	-5.49615e-11	0.006192371	0.009849281
	0.006689801	0.009491346	-3.84249e-11	-5.49615e-11	-0.02847064	-0.04694376	-5.302257e-11	-6.853306e-11
	-2.796666e-11	-3.219752e-11	0.006192371	0.009849281	-5.302257e-11	-6.853306e-11	-0.02962683	-0.04610838
4.6e+08	-0.03649326	-0.05261178	-4.057028e-11	-7.092691e-11	0.007952817	0.009700351	-3.543502e-11	-2.742131e-11
	-4.057028e-11	-7.092691e-11	-0.03773697	-0.05149888	-3.988528e-11	-5.228636e-11	0.007396657	0.01016201
	0.007952817	0.009700351	-3.988528e-11	-5.228636e-11	-0.03658206	-0.0524396	-6.262593e-11	-6.1446e-11
	-3.543502e-11	-2.742131e-11	0.007396657	0.01016201	-6.262593e-11	-6.1446e-11	-0.03787975	-0.05135548
4.7e+08	-0.04539362	-0.05674702	-4.708136e-11	-6.616733e-11	0.009221764	0.00969418	-4.218346e-11	-2.151025e-11
	-4.708136e-11	-6.616733e-11	-0.04673155	-0.05537846	-4.068915e-11	-4.93971e-11	0.008621315	0.01027035
	0.009221764	0.00969418	-4.068915e-11	-4.93971e-11	-0.04549123	-0.05655561	-7.103772e-11	-5.293026e-11
