!$
! Info: Touchstone file created by Circ.  Input file=Tx_8in_Rx_100ohms_TxVia_10mils_RxVia_20mils.circ
!$
# Hz S RI R 50
0	0.008369741	6.599361e-26	1.496257e-12	1.587249e-28	5.667644e-05	1.049196e-23	-4.711117e-09	5.768285e-25
	1.497869e-12	1.589119e-28	0.008372588	7.606876e-26	-2.730724e-12	3.087589e-28	5.410677e-05	1.188651e-23
	5.672427e-05	1.049809e-23	-2.779586e-12	3.147187e-28	0.008384578	6.617577e-26	-1.291281e-09	1.580645e-25
	-4.70898e-09	5.765668e-25	5.556307e-05	1.223407e-23	-1.291326e-09	1.580701e-25	0.008378179	7.255937e-26
1e+07	0.0118544	0.005433697	5.003971e-12	-6.589411e-12	0.000205313	0.001472319	-8.338099e-09	1.661626e-08
	5.004023e-12	-6.589682e-12	0.01222343	0.005468027	3.349814e-12	-7.722766e-12	0.0004872464	0.001510424
	0.0002053174	0.001472316	3.349795e-12	-7.722513e-12	0.01142113	0.005665183	-5.902152e-09	1.603089e-08
	-8.338099e-09	1.661626e-08	0.0004872791	0.001510412	-5.902152e-09	1.603089e-08	0.01211577	0.005480197
2e+07	0.01544134	0.008089484	7.79173e-12	-5.185822e-12	0.0005630352	0.002933023	-5.606794e-09	1.407034e-08
	7.791562e-12	-5.185968e-12	0.01575661	0.008014421	8.423212e-12	-6.822077e-12	0.0007366714	0.003113847
	0.0005630342	0.00293302	8.42335e-12	-6.821908e-12	0.01534512	0.008614189	-6.973281e-09	1.283549e-08
	-5.606794e-09	1.407034e-08	0.000736669	0.003113826	-6.973281e-09	1.283549e-08	0.0156838	0.008079418
3e+07	0.01857766	0.009289294	6.687384e-12	-6.864994e-12	0.001145885	0.004282918	-2.954517e-09	1.257776e-08
	6.687346e-12	-6.864975e-12	0.01884436	0.00917877	6.308841e-12	-1.129393e-11	0.001236248	0.004512154
	0.001145885	0.004282917	6.308879e-12	-1.129395e-11	0.01874585	0.009864142	-3.072382e-09	1.312913e-08
	-2.954517e-09	1.257776e-08	0.001236243	0.004512151	-3.072382e-09	1.312913e-08	0.01880306	0.009264005
4e+07	0.02148514	0.009736852	4.979079e-12	-8.882674e-12	0.001933694	0.005507466	-9.109249e-10	1.148927e-08
	4.979114e-12	-8.882675e-12	0.02170408	0.009610885	4.609407e-12	-1.538463e-11	0.001973979	0.005761167
	0.001933695	0.005507465	4.60937e-12	-1.538463e-11	0.02187158	0.01027892	-1.849246e-10	1.244161e-08
	-9.109249e-10	1.148927e-08	0.001973979	0.005761168	-1.849246e-10	1.244161e-08	0.02169243	0.009703792
5e+07	0.02420514	0.009608027	2.961248e-12	-1.3289e-11	0.002901799	0.00657925	7.622331e-10	1.092322e-08
	2.961265e-12	-1.328901e-11	0.02437633	0.0094788	2.555437e-12	-2.203372e-11	0.003024626	0.00679247
	0.0029018	0.006579249	2.555418e-12	-2.203371e-11	0.02476942	0.01006546	1.520027e-09	1.223155e-08
	7.62233e-10	1.092322e-08	0.003024626	0.00679247	1.520027e-09	1.223155e-08	0.02439122	0.009571954
6e+07	0.02673183	0.008994396	-1.541433e-12	-2.077089e-11	0.004021942	0.007473481	2.688424e-09	1.126159e-08
	-1.541436e-12	-2.077086e-11	0.02685626	0.008872724	2.290141e-12	-3.208196e-11	0.004202516	0.007632428
	0.004021944	0.00747348	2.290151e-12	-3.208199e-11	0.02743473	0.009330593	1.46674e-09	1.38824e-08
	2.688424e-09	1.126159e-08	0.004202513	0.007632429	1.46674e-09	1.38824e-08	0.02689517	0.008960781
7e+07	0.02904263	0.00795994	-2.381254e-11	-3.916956e-11	0.005275302	0.008161368	7.838087e-09	1.41991e-08
	-2.381252e-11	-3.916944e-11	0.02912249	0.007855656	3.763304e-11	-2.07873e-11	0.005477725	0.008266305
	0.005275304	0.008161368	3.763314e-11	-2.078739e-11	0.02984453	0.00814832	-8.042141e-09	1.479907e-08
	7.838088e-09	1.41991e-08	0.00547772	0.008266307	-8.04214e-09	1.479907e-08	0.02918272	0.007933689
8e+07	0.0311098	0.006559043	-3.302149e-10	5.239495e-10	0.006613572	0.008634188	2.098863e-08	-2.785992e-08
	-3.302147e-10	5.239493e-10	0.03114846	0.006481088	-3.040097e-11	2.684837e-12	0.006817204	0.008682859
	0.006613574	0.008634188	-3.040091e-11	2.684829e-12	0.03196964	0.006580306	-6.558598e-09	1.460613e-09
	2.098863e-08	-2.785992e-08	0.006817199	0.008682862	-6.558598e-09	1.460613e-09	0.03122629	0.006544671
9e+07	0.03290615	0.004843757	-5.592134e-11	-6.168118e-11	0.008000425	0.008883442	-7.903247e-10	-3.358164e-09
	-5.592131e-11	-6.168124e-11	0.03290836	0.004800434	-3.159054e-11	-2.169784e-11	0.008185389	0.008875066
	0.008000427	0.008883442	-3.159054e-11	-2.169784e-11	0.03377928	0.004683109	-1.690002e-09	7.301133e-11
	-7.903246e-10	-3.358164e-09	0.008185386	0.008875069	-1.690002e-09	7.30113e-11	0.03299903	0.004846044
1e+08	0.03441731	0.002874091	-2.523793e-11	-4.716986e-12	0.009402897	0.008908367	-2.63672e-11	5.542102e-12
	-2.523793e-11	-4.716986e-12	0.03439041	0.002874108	-3.443675e-11	-2.488116e-11	0.009540818	0.008837004
	0.009402897	0.008908366	-3.443675e-11	-2.488116e-11	0.03523859	0.002507171	-3.574712e-11	-1.989233e-12
	-2.63672e-11	5.542102e-12	0.009540818	0.008837004	-3.574712e-11	-1.989233e-12	0.0344873	0.002898414
1.1e+08	0.03563707	0.0006180111	-2.567141e-11	6.78542e-13	0.01078895	0.008689609	-2.65738e-11	1.263916e-11
	-2.567141e-11	6.78542e-13	0.03559171	0.0006620736	-3.812383e-11	-1.965476e-11	0.01083915	0.008607368
	0.01078895	0.008689609	-3.812383e-11	-1.965476e-11	0.03631732	0.0001424638	-3.679253e-11	6.411177e-12
	-2.65738e-11	1.263916e-11	0.01083915	0.008607368	-3.679253e-11	6.411177e-12	0.03568792	0.000670374
1.2e+08	0.0364688	-0.001822278	-2.513442e-11	5.204062e-12	0.01210048	0.00824576	-2.629619e-11	1.773382e-11
	-2.513442e-11	5.204062e-12	0.03640885	-0.001732996	-3.97032e-11	-1.626264e-11	0.0120822	0.008181174
	0.01210048	0.00824576	-3.97032e-11	-1.626264e-11	0.03703614	-0.002358777	-3.635947e-11	1.340886e-11
	-2.629619e-11	1.773382e-11	0.0120822	0.008181174	-3.635947e-11	1.340886e-11	0.03650431	-0.001738505
1.3e+08	0.03691482	-0.004375816	-2.486814e-11	7.828878e-12	0.01330731	0.007596062	-2.6005e-11	2.170304e-11
	-2.486814e-11	7.828878e-12	0.03684593	-0.004239391	-4.023141e-11	-1.475302e-11	0.01323215	0.007564594
	0.01330731	0.007596062	-4.023141e-11	-1.475302e-11	0.03737951	-0.004949506	-3.598433e-11	1.777446e-11
	-2.6005e-11	2.170304e-11	0.01323215	0.007564594	-3.598433e-11	1.777446e-11	0.03693931	-0.004257731
1.4e+08	0.03697374	-0.006982963	-2.402319e-11	1.065204e-11	0.01437917	0.006761531	-2.505724e-11	2.591686e-11
	-2.402319e-11	1.065204e-11	0.03690219	-0.006798154	-4.03018e-11	-1.292184e-11	0.0142582	0.006774257
	0.01437917	0.006761531	-4.03018e-11	-1.292184e-11	0.0373436	-0.007576239	-3.47777e-11	2.242755e-11
	-2.505724e-11	2.591686e-11	0.0142582	0.006774257	-3.47777e-11	2.242755e-11	0.03699204	-0.006828383
1.5e+08	0.03664931	-0.009586447	-2.256477e-11	1.353276e-11	0.01528901	0.005767284	-2.340828e-11	3.021881e-11
	-2.256477e-11	1.353276e-11	0.03658173	-0.00935298	-3.98525e-11	-1.09132e-11	0.0151335	0.005832164
	0.01528901	0.005767284	-3.98525e-11	-1.09132e-11	0.03693166	-0.0101852	-3.26878e-11	2.716244e-11
	-2.340828e-11	3.021881e-11	0.0151335	0.005832164	-3.26878e-11	2.716244e-11	0.03666668	-0.009394052
1.6e+08	0.03595154	-0.01213102	-2.047766e-11	1.634265e-11	0.01601399	0.004642228	-2.103595e-11	3.446435e-11
	-2.047766e-11	1.634265e-11	0.03589473	-0.01184972	-3.885323e-11	-8.854297e-12	0.01583544	0.004764561
	0.01601399	0.004642228	-3.885323e-11	-8.854297e-12	0.03615373	-0.01272362	-2.96936e-11	3.179159e-11
	-2.103595e-11	3.446435e-11	0.01583544	0.004764561	-2.96936e-11	3.179159e-11	0.03597354	-0.01190047
1.7e+08	0.03489701	-0.0145639	-1.776698e-11	1.895822e-11	0.01653612	0.003418432	-1.794049e-11	3.85138e-11
	-1.776698e-11	1.895822e-11	0.03485771	-0.01423677	-3.729819e-11	-6.864951e-12	0.0163461	0.003601063
	0.01653612	0.003418432	-3.729819e-11	-6.864951e-12	0.03502657	-0.01514076	-2.580441e-11	3.613525e-11
	-1.794049e-11	3.85138e-11	0.0163461	0.003601063	-2.580441e-11	3.613525e-11	0.03492929	-0.0142959
1.8e+08	0.0335088	-0.0168355	-1.445771e-11	2.126052e-11	0.01684277	0.002130337	-1.414433e-11	4.223193e-11
	-1.445771e-11	2.126052e-11	0.03349346	-0.01646577	-3.520304e-11	-5.05881e-12	0.01665266	0.0023738
	0.01684277	0.002130337	-3.520304e-11	-5.05881e-12	0.03357342	-0.01738874	-2.105885e-11	4.002097e-11
	-1.414433e-11	4.223193e-11	0.01665266	0.0023738	-2.105885e-11	4.002097e-11	0.03355693	-0.01653187
1.9e+08	0.03181623	-0.01890025	-1.059418e-11	2.313165e-11	0.01692698	0.0008138932	-9.690406e-12	4.54896e-11
	-1.059418e-11	2.313165e-11	0.0318308	-0.01849231	-3.260348e-11	-3.542185e-12	0.0167477	0.001116541
	0.01692698	0.0008138932	-3.260348e-11	-3.542185e-12	0.03182371	-0.01942352	-1.552394e-11	4.328568e-11
	-9.690406e-12	4.54896e-11	0.0167477	0.001116541	-1.552394e-11	4.328568e-11	0.03188546	-0.01856387
2e+08	0.02985434	-0.02071739	-6.240507e-12	2.446802e-11	0.01678766	-0.0004943691	-4.64334e-12	4.816337e-11
	-6.240507e-12	2.446802e-11	0.02990402	-0.02027677	-2.955309e-11	-2.412876e-12	0.01662935	-0.0001362097
	0.01678766	-0.0004943691	-2.955309e-11	-2.412876e-12	0.02981251	-0.02120571	-9.293767e-12	4.577878e-11
	-4.64334e-12	4.816337e-11	0.01662935	-0.0001362097	-9.293767e-12	4.577878e-11	0.02994944	-0.0203522
2.1e+08	0.02766327	-0.02225172	-1.47764e-12	2.518011e-11	0.01642961	-0.001758281	9.103807e-13	5.014205e-11
	-1.47764e-12	2.518011e-11	0.02775233	-0.02178496	-2.612193e-11	-1.757981e-12	0.01630137	-0.001350119
	0.01642961	-0.001758281	-2.612193e-11	-1.757981e-12	0.02757991	-0.02270141	-2.487776e-12	4.736565e-11
	9.103807e-13	5.014205e-11	0.01630137	-0.001350119	-2.487776e-12	4.736565e-11	0.02778828	-0.02186262
2.2e+08	0.02528749	-0.02347429	3.597926e-12	2.518707e-11	0.01586339	-0.002942975	6.866855e-12	5.132773e-11
	3.597926e-12	2.518707e-11	0.02541902	-0.02298876	-2.239507e-11	-1.650967e-12	0.01577297	-0.002491931
	0.01586339	-0.002942975	-2.239507e-11	-1.650967e-12	0.02517023	-0.0238828	4.751601e-12	4.793125e-11
	6.866855e-12	5.132773e-11	0.01577297	-0.002491931	4.751601e-12	4.793125e-11	0.02544557	-0.02306701
2.3e+08	0.02277487	-0.02436296	8.875729e-12	2.442357e-11	0.01510504	-0.004015799	1.310542e-11	5.163848e-11
	8.875729e-12	2.442357e-11	0.02295068	-0.02386668	-1.847014e-11	-2.149797e-12	0.01505864	-0.003530335
	0.01510504	-0.004015799	-1.847014e-11	-2.149797e-12	0.02263113	-0.02472878	1.226179e-11	4.738353e-11
	1.310542e-11	5.163848e-11	0.01505864	-0.003530335	1.226179e-11	4.738353e-11	0.02296814	-0.02394389
2.4e+08	0.02017574	-0.02490276	1.423353e-11	2.284206e-11	0.01417564	-0.004947166	1.949074e-11	5.101121e-11
	1.423353e-11	2.284205e-11	0.02039615	-0.02440417	-1.445487e-11	-3.295056e-12	0.01417767	-0.004436784
	0.01417564	-0.004947166	-1.445487e-11	-3.295056e-12	0.02001262	-0.0252254	1.986328e-11	4.565683e-11
	1.949074e-11	5.101121e-11	0.01417767	-0.004436784	1.986328e-11	4.565683e-11	0.0204051	-0.02447878
2.5e+08	0.0175418	-0.02508625	1.954014e-11	2.041458e-11	0.01310076	-0.005711328	2.58756e-11	4.940384e-11
	1.954014e-11	2.041458e-11	0.01780562	-0.02459393	-1.046408e-11	-5.108237e-12	0.01315375	-0.005186242
	0.01310076	-0.005711328	-1.046408e-11	-5.108237e-12	0.01736603	-0.02536607	2.736381e-11	4.271459e-11
	2.58756e-11	4.940384e-11	0.01315375	-0.005186242	2.736381e-11	4.271459e-11	0.01780688	-0.02466449
2.6e+08	0.01492504	-0.02491357	2.465837e-11	1.713446e-11	0.01190977	-0.006287055	3.210391e-11	4.679762e-11
	2.465837e-11	1.713446e-11	0.0152295	-0.02443598	-6.616525e-12	-7.590581e-12	0.01201422	-0.005757838
	0.01190977	-0.006287055	-6.616525e-12	-7.590581e-12	0.01474291	-0.02515174	3.45627e-11	3.855187e-11
	3.210391e-11	4.679762e-11	0.01201422	-0.005757838	3.45627e-11	3.855187e-11	0.01522414	-0.0245012
2.7e+08	0.01237666	-0.02439243	2.944832e-11	1.301734e-11	0.01063508	-0.006658187	3.801423e-11	4.31987e-11
	2.944832e-11	1.301734e-11	0.01271741	-0.02393763	-3.031468e-12	-1.072234e-11	0.01078947	-0.006135405
	0.01063508	-0.006658187	-3.031468e-12	-1.072234e-11	0.01219398	-0.02459082	4.125595e-11	3.319698e-11
	3.801423e-11	4.31987e-11	0.01078947	-0.006135405	4.125595e-11	3.319698e-11	0.01270671	-0.0239964
2.8e+08	0.009945977	-0.02353789	3.377105e-11	8.101988e-12	0.00931125	-0.006814058	4.344365e-11	3.863969e-11
	3.377105e-11	8.101988e-12	0.01031718	-0.02311322	1.749047e-13	-1.446259e-11	0.009512019	-0.006307908
	0.00931125	-0.006814058	1.749047e-13	-1.446259e-11	0.009767983	-0.02369901	4.724165e-11	2.671272e-11
	4.344365e-11	3.863969e-11	0.009512019	-0.006307908	4.724165e-11	2.671272e-11	0.0103026	-0.02316466
2.9e+08	0.007679357	-0.02237199	3.749225e-11	2.450355e-12	0.00797407	-0.006749767	4.82321e-11	3.318015e-11
	3.749225e-11	2.450355e-12	0.008073769	-0.02198384	2.893216e-12	-1.87497e-11	0.008215762	-0.00626972
	0.00797407	-0.006749767	2.893216e-12	-1.87497e-11	0.007510701	-0.02249887	5.232576e-11	1.919641e-11
	4.82321e-11	3.318015e-11	0.008215762	-0.00626972	5.232576e-11	1.919641e-11	0.008056908	-0.02202733
3e+08	0.005619247	-0.02092323	4.048607e-11	-3.852964e-12	0.006659626	-0.006466304	5.222672e-11	2.690666e-11
	4.048607e-11	-3.852964e-12	0.006028417	-0.02057676	5.024578e-12	-2.35024e-11	0.006935003	-0.006020764
	0.006659626	-0.006466304	5.024578e-12	-2.35024e-11	0.005463956	-0.02101936	5.6328e-11	1.077902e-11
	5.222672e-11	2.690666e-11	0.006935003	-0.006020764	5.6328e-11	1.077902e-11	0.006010968	-0.02061195
3.1e+08	0.003803284	-0.01922593	4.263906e-11	-1.070173e-11	0.005403323	-0.00597051	5.52867e-11	1.993218e-11
	4.263906e-11	-1.070173e-11	0.004217739	-0.01892485	6.484068e-12	-2.862148e-11	0.005703582	-0.00556651
	0.005403323	-0.00597051	6.484068e-12	-2.862148e-11	0.00366473	-0.01929512	5.908796e-11	1.623446e-12
	5.52867e-11	1.993218e-11	0.005703582	-0.00556651	5.908796e-11	1.623446e-12	0.004201447	-0.0189517
3.2e+08	0.002263489	-0.01731941	4.38538e-11	-1.796994e-11	0.004238946	-0.005274889	5.728772e-11	1.239435e-11
	4.38538e-11	-1.796994e-11	0.002672991	-0.01706578	7.204046e-12	-3.399225e-11	0.004553975	-0.004917817
	0.004238946	-0.005274889	7.204046e-12	-3.399225e-11	0.002144365	-0.01736575	6.047069e-11	-8.078579e-12
	5.728772e-11	1.239435e-11	0.004553975	-0.004917817	6.047069e-11	-8.078579e-12	0.0026596	-0.01708454
3.3e+08	0.001025607	-0.0152471	4.405237e-11	-2.551426e-11	0.003197763	-0.004397258	5.812645e-11	4.45309e-12
	4.405237e-11	-2.551426e-11	0.001419443	-0.01504123	7.137009e-12	-3.948749e-11	0.003516447	-0.004090635
	0.003197763	-0.004397258	7.137009e-12	-3.948749e-11	0.0009279418	-0.01527484	6.037205e-11	-1.811054e-11
	5.812645e-11	4.45309e-12	0.003516447	-0.004090635	6.037205e-11	-1.811054e-11	0.001410639	-0.01505246
3.4e+08	0.0001085933	-0.0130556	4.317957e-11	-3.317703e-11	0.002307696	-0.003360267	5.772479e-11	-3.712643e-12
	4.317957e-11	-3.317703e-11	0.0004758786	-0.0128959	6.25794e-12	-4.497101e-11	0.00261825	-0.003105579
	0.002307696	-0.003360267	6.25794e-12	-4.497101e-11	3.373897e-05	-0.01306905	5.872352e-11	-2.823622e-11
	5.772479e-11	-3.712643e-12	0.00261825	-0.003105579	5.872352e-11	-2.823622e-11	0.0004732482	-0.01290042
3.5e+08	-0.0004757704	-0.01079355	4.120551e-11	-4.078999e-11	0.001592583	-0.00219078	5.603334e-11	-1.190901e-11
	4.120551e-11	-4.078999e-11	-0.0001457607	-0.01067651	4.566057e-12	-5.030169e-11	0.001882921	-0.001987367
	0.001592583	-0.00219078	4.566057e-12	-5.030169e-11	-0.0005271093	-0.010797	5.549586e-11	-3.820575e-11
	5.603334e-11	-1.190901e-11	0.001882921	-0.001987367	5.549586e-11	-3.820575e-11	-0.0001407842	-0.01067545
3.6e+08	-0.0007230691	-0.00851058	3.812745e-11	-4.817876e-11	0.001071554	-0.0009191531	5.303401e-11	-1.993164e-11
	3.812745e-11	-4.817876e-11	-0.0004405675	-0.008430814	2.085799e-12	-5.533783e-11	0.001329667	-0.0007641681
	0.001071554	-0.0009191531	2.085799e-12	-5.533783e-11	-0.0007508172	-0.008508241	5.070189e-11	-4.776227e-11
	5.303401e-11	-1.993164e-11	0.001329667	-0.0007641681	5.070189e-11	-4.776227e-11	-0.0004267476	-0.00842552
3.7e+08	-0.0006362989	-0.006256206	3.397165e-11	-5.516641e-11	0.0007585304	0.0004215826	4.874317e-11	-2.757229e-11
	3.397165e-11	-5.516641e-11	-0.0004107147	-0.006206492	-1.132949e-12	-5.99418e-11	0.000972873	0.000533158
	0.0007585304	0.0004215826	-1.132949e-12	-5.99418e-11	-0.0006409698	-0.00625209	4.439813e-11	-5.664988e-11
	4.874317e-11	-2.757229e-11	0.000972873	0.000533158	4.439813e-11	-5.664988e-11	-0.0003870511	-0.006198521
3.8e+08	-0.000225739	-0.0040787	2.879356e-11	-6.157929e-11	0.0006618661	0.001796609	4.321147e-11	-3.462367e-11
	2.879356e-11	-6.157929e-11	-6.533716e-05	-0.004050132	-5.015556e-12	-6.398467e-11	0.0008217385	0.001871873
	0.0006618661	0.001796609	-5.015556e-12	-6.398467e-11	-0.0002083904	-0.004076573	3.668465e-11	-6.462096e-11
	4.321147e-11	-3.462367e-11	0.0008217385	0.001871873	3.668465e-11	-6.462096e-11	-3.109945e-05	-0.004041206
3.9e+08	0.0004913448	-0.002024039	2.267758e-11	-6.725186e-11	0.0007841434	0.003170247	3.652418e-11	-4.088568e-11
	2.267758e-11	-6.725186e-11	0.0005797377	-0.002006211	-9.464196e-12	-6.73508e-11	0.0008800517	0.003218227
	0.0007841434	0.003170247	-9.464196e-12	-6.73508e-11	0.0005291636	-0.002027351	2.770376e-11	-7.144393e-11
	3.652418e-11	-4.088568e-11	0.0008800517	0.003218227	2.770376e-11	-7.144393e-11	0.0006249842	-0.001998171
4e+08	0.001491148	-0.0001348879	1.573585e-11	-7.203159e-11	0.001122117	0.004506909	2.88e-11	-4.617156e-11
	1.573585e-11	-7.203159e-11	0.001502408	-0.000116137	-1.436028e-11	-6.994211e-11	0.001146107	0.004538345
	0.001122117	0.004506909	-1.436028e-11	-6.994211e-11	0.001547457	-0.0001467177	1.763716e-11	-7.691078e-11
	2.88e-11	-4.617156e-11	0.001146107	0.004538345	1.763716e-11	-7.691078e-11	0.001558785	-0.0001108908
4.1e+08	0.002743925	0.001550319	8.106109e-12	-7.578383e-11	0.001666815	0.00577204	2.018882e-11	-5.031368e-11
	8.106109e-12	-7.578383e-11	0.002674853	0.001582634	-1.956772e-11	-7.16819e-11	0.001612768	0.005799117
	0.001666815	0.00577204	-1.956772e-11	-7.16819e-11	0.002816377	0.001527314	6.701837e-12	-8.084414e-11
	2.018882e-11	-5.031368e-11	0.001612768	0.005799117	6.701837e-12	-8.084414e-11	0.002742158	0.001583163
4.2e+08	0.00421471	0.002998208	-5.128502e-14	-7.839626e-11	0.002403792	0.006933028	1.08683e-11	-5.316895e-11
	-5.128502e-14	-7.839626e-11	0.004064208	0.003057376	-2.493691e-11	-7.251808e-11	0.002267671	0.006969056
	0.002403792	0.006933028	-2.493691e-11	-7.251808e-11	0.004300667	0.002961823	-4.85558e-12	-8.310335e-11
	1.08683e-11	-5.316895e-11	0.002267671	0.006969056	-4.85558e-12	-8.310335e-11	0.004141916	0.003051306
4.3e+08	0.005864163	0.00418116	-8.557206e-12	-7.978277e-11	0.003313525	0.007960061	1.03954e-12	-5.462351e-11
	-8.557206e-12	-7.978277e-11	0.005633348	0.004280771	-3.030935e-11	-7.242555e-11	0.003093566	0.008019114
	0.003313525	0.007960061	-3.030935e-11	-7.242555e-11	0.005960762	0.004129671	-1.676539e-11	-8.358951e-11
	1.03954e-12	-5.462351e-11	0.003093566	0.008019114	-1.676539e-11	-8.358951e-11	0.00572062	0.004266312
4.4e+08	0.007649495	0.005077874	-1.721827e-11	-7.988668e-11	0.004371936	0.008826904	-9.078081e-12	-5.459657e-11
	-1.721827e-11	-7.988668e-11	0.007341762	0.005231443	-3.552265e-11	-7.140771e-11	0.00406878	0.008923433
	0.004371936	0.008826904	-3.552265e-11	-7.140771e-11	0.007753727	0.005010056	-2.874232e-11	-8.224923e-11
	-9.078081e-12	-5.459657e-11	0.00406878	0.008923433	-2.874232e-11	-8.224923e-11	0.007437463	0.005206952
4.5e+08	0.009525468	0.005673791	-2.583192e-11	-7.868312e-11	0.005551043	0.009511585	-1.925267e-11	-5.304332e-11
	-2.583192e-11	-7.868312e-11	0.009146487	0.005894371	-4.041585e-11	-6.949701e-11	0.005167794	0.009660003
	0.005551043	0.009511585	-4.041585e-11	-6.949701e-11	0.009634253	0.005588918	-4.049362e-11	-7.907696e-11
	-1.925267e-11	-5.304332e-11	0.005167794	0.009660003	-4.049362e-11	-7.907696e-11	0.009249211	0.005858399
4.6e+08	0.01144545	0.005961337	-3.419179e-11	-7.618049e-11	0.006819695	0.009996957	-2.924609e-11	-4.995676e-11
	-3.419179e-11	-7.618049e-11	0.01100309	0.006261141	-4.483712e-11	-6.675197e-11	0.006361917	0.01021122
	0.006819695	0.009996957	-4.483712e-11	-6.675197e-11	0.01155571	0.005859173	-5.172489e-11	-7.411332e-11
	-2.924609e-11	-4.995676e-11	0.006361917	0.01021122	-5.172489e-11	-7.411332e-11	0.01111119	0.006212477
4.7e+08	0.01336246	0.005940026	-4.209314e-11	-7.242084e-11	0.008144401	0.01027114	-3.881925e-11	-4.536813e-11
	-4.209314e-11	-7.242084e-11	0.01286668	0.006330058	-4.865019e-11	-6.324897e-11	0.007620039	0.01056434
	0.008144401	0.01027114	-4.865019e-11	-6.324897e-11	0.01347121	0.005820797	-6.213565e-11	-6.744245e-11
