!$
! Info: Touchstone file created by Circ.  Input file=Tx_8in_Rx_85ohms_TxVia_10mils_RxVia_20mils.circ
!$
# Hz S RI R 50
0	0.00652106	5.531045e-26	-4.343872e-05	1.779119e-25	5.625062e-05	6.898416e-24	-4.34644e-05	2.98271e-24
	-4.343873e-05	1.79006e-25	0.006521727	7.639495e-26	-4.343148e-05	6.787167e-26	5.433803e-05	9.23979e-24
	5.494949e-05	6.721603e-24	-4.343148e-05	6.79662e-26	0.006536382	5.792856e-26	-4.344124e-05	3.668106e-25
	-4.346439e-05	2.981658e-24	5.579502e-05	9.509961e-24	-4.344122e-05	3.649018e-25	0.006527339	7.286897e-26
1e+07	0.008503561	-0.007418811	-9.117892e-05	-2.103817e-05	0.0002373089	0.001485658	-6.648095e-06	-1.731186e-06
	-9.117892e-05	-2.103818e-05	0.008524085	-0.007423081	-3.102443e-05	6.444569e-05	0.0002348057	0.001489469
	0.000237265	0.001485661	-3.102443e-05	6.444569e-05	0.008545717	-0.007406466	-9.120039e-05	-2.105794e-05
	-6.648095e-06	-1.731185e-06	0.0002348381	0.001489457	-9.120039e-05	-2.105794e-05	0.008513594	-0.007417684
2e+07	0.008807636	-0.01697826	-8.408429e-05	1.293039e-05	0.0006434077	0.002877948	-5.375417e-06	-1.323945e-05
	-8.408429e-05	1.293039e-05	0.008803581	-0.01699307	-3.810039e-05	8.641595e-05	0.0006339502	0.002887015
	0.0006433983	0.002877976	-3.810039e-05	8.641595e-05	0.00884465	-0.01696382	-8.410456e-05	1.284831e-05
	-5.375416e-06	-1.323945e-05	0.0006339471	0.002886994	-8.410456e-05	1.284832e-05	0.008798105	-0.01697414
3e+07	0.00671624	-0.02726286	-8.238543e-05	9.41016e-06	0.001267112	0.004166223	-1.467351e-05	-1.554239e-05
	-8.238543e-05	9.41016e-06	0.006677543	-0.02727571	-3.348372e-05	0.0001053278	0.001246792	0.004183085
	0.001267113	0.004166228	-3.348372e-05	0.0001053278	0.006749498	-0.02723997	-8.241652e-05	9.283919e-06
	-1.467351e-05	-1.554239e-05	0.001246786	0.004183082	-8.241652e-05	9.283919e-06	0.006676294	-0.02724834
4e+07	0.002604215	-0.0372553	-8.144115e-05	9.361685e-06	0.002089235	0.005319032	-2.237324e-05	-1.432097e-05
	-8.144115e-05	9.361685e-06	0.002521873	-0.03725576	-2.106641e-05	0.0001179005	0.002054838	0.005347155
	0.002089231	0.00531903	-2.106641e-05	0.0001179005	0.002634432	-0.03722241	-8.148612e-05	9.18412e-06
	-2.237324e-05	-1.432097e-05	0.002054838	0.005347156	-8.148612e-05	9.184119e-06	0.002523668	-0.03722318
5e+07	-0.003286939	-0.04651138	-8.092833e-05	1.095512e-05	0.003082648	0.006306177	-2.876272e-05	-1.102887e-05
	-8.092833e-05	1.095512e-05	-0.003419831	-0.04648753	-3.620863e-06	0.0001228925	0.00303189	0.006349855
	0.003082646	0.006306176	-3.620863e-06	0.0001228925	-0.003259305	-0.04646761	-8.099481e-05	1.071964e-05
	-2.876272e-05	-1.102887e-05	0.00303189	0.006349856	-8.099481e-05	1.071964e-05	-0.003417347	-0.04645035
6e+07	-0.01072304	-0.05470819	-8.059571e-05	1.36241e-05	0.004215016	0.007102606	-3.391767e-05	-6.236777e-06
	-8.059571e-05	1.36241e-05	-0.01091075	-0.05464675	1.617413e-05	0.0001194196	0.004146729	0.007166686
	0.004215022	0.007102604	1.617413e-05	0.0001194196	-0.01069763	-0.05465277	-8.069502e-05	1.332507e-05
	-3.391767e-05	-6.236777e-06	0.004146726	0.007166687	-8.069502e-05	1.332507e-05	-0.01090883	-0.05460444
7e+07	-0.0194537	-0.06159339	-8.02318e-05	1.71101e-05	0.005450334	0.007689475	-3.78105e-05	-2.377717e-07
	-8.02318e-05	1.71101e-05	-0.01969752	-0.0614802	3.555729e-05	0.000107032	0.005364526	0.007779085
	0.005450345	0.007689467	3.555729e-05	0.000107032	-0.01943014	-0.06152554	-8.037882e-05	1.674408e-05
	-3.78105e-05	-2.377719e-07	0.005364521	0.007779088	-8.037882e-05	1.674408e-05	-0.01969699	-0.06143241
8e+07	-0.02920936	-0.06697262	-7.965625e-05	2.124478e-05	0.006750294	0.008054777	-4.032933e-05	6.808282e-06
	-7.965625e-05	2.124478e-05	-0.02950745	-0.06679328	5.164888e-05	8.571939e-05	0.006648171	0.008175087
	0.006750304	0.008054765	5.164888e-05	8.571939e-05	-0.02918714	-0.0668915	-7.986899e-05	2.08118e-05
	-4.032933e-05	6.808282e-06	0.006648167	0.008175092	-7.986899e-05	2.08118e-05	-0.02950934	-0.06673955
9e+07	-0.03970489	-0.070706	-7.872179e-05	2.588332e-05	0.008075802	0.00819377	-4.122708e-05	1.487077e-05
	-7.872179e-05	2.588332e-05	-0.04005228	-0.07044644	6.128801e-05	5.570902e-05	0.007959767	0.008349755
	0.008075808	0.008193759	6.128801e-05	5.570902e-05	-0.03968332	-0.0706107	-7.902052e-05	2.538794e-05
	-4.122708e-05	1.487077e-05	0.007959764	0.008349759	-7.902052e-05	2.538794e-05	-0.04005777	-0.07038577
1e+08	-0.05064753	-0.07270866	-7.733752e-05	3.088217e-05	0.009389842	0.008110433	-3.946861e-05	2.461666e-05
	-7.733752e-05	3.088217e-05	-0.05103602	-0.0723556	5.875259e-05	1.502211e-05	0.009263458	0.008306631
	0.009389842	0.008110433	5.875259e-05	1.502211e-05	-0.05062547	-0.0725981	-7.774411e-05	3.033395e-05
	-3.946861e-05	2.461666e-05	0.009263458	0.008306631	-7.774411e-05	3.033395e-05	-0.05104616	-0.07228645
1.1e+08	-0.06174312	-0.07293966	-7.541707e-05	3.599207e-05	0.01065979	0.00780122	-3.319995e-05	3.063015e-05
	-7.541707e-05	3.599207e-05	-0.06216192	-0.07248102	5.955789e-05	-4.07114e-05	0.01052721	0.008041088
	0.01065979	0.00780122	5.955789e-05	-4.07114e-05	-0.06171785	-0.07281453	-7.594995e-05	3.54102e-05
	-3.319995e-05	3.063015e-05	0.01052721	0.008041087	-7.594995e-05	3.54102e-05	-0.06217597	-0.07240082
1.2e+08	-0.07268542	-0.07140321	-7.284147e-05	4.119117e-05	0.01183737	0.007284839	-2.786162e-05	3.458156e-05
	-7.284147e-05	4.119117e-05	-0.07312101	-0.07083048	5.43721e-05	-9.282742e-05	0.01170435	0.007571634
	0.01183737	0.007284839	5.43721e-05	-9.282742e-05	-0.07265693	-0.07126355	-7.351653e-05	4.059788e-05
	-2.786162e-05	3.458156e-05	0.01170435	0.007571634	-7.351653e-05	4.059788e-05	-0.07313783	-0.07073742
1.3e+08	-0.08319161	-0.06816502	-6.962196e-05	4.632532e-05	0.01289339	0.006584323	-2.341937e-05	3.70567e-05
	-6.962196e-05	4.632532e-05	-0.08362853	-0.06747209	3.947495e-05	-0.0001430996	0.01276641	0.006920013
	0.01289339	0.006584323	3.947495e-05	-0.0001430996	-0.08315921	-0.06801038	-7.045128e-05	4.574751e-05
	-2.341937e-05	3.70567e-05	0.01276641	0.006920013	-7.045128e-05	4.574751e-05	-0.08364674	-0.06736473
1.4e+08	-0.09299578	-0.06333201	-6.577423e-05	5.126882e-05	0.01380147	0.00572488	-2.172394e-05	3.742305e-05
	-6.577423e-05	5.126882e-05	-0.09341723	-0.06251572	1.424703e-05	-0.0001900825	0.01368749	0.006110072
	0.01380147	0.00572488	1.424703e-05	-0.0001900825	-0.09295826	-0.06316199	-6.676405e-05	5.073671e-05
	-2.172394e-05	3.742305e-05	0.01368749	0.006110072	-6.676405e-05	5.073671e-05	-0.09343505	-0.06239289
1.5e+08	-0.1018563	-0.05705009	-6.134376e-05	5.586837e-05	0.01453985	0.004734827	-1.98276e-05	3.791004e-05
	-6.134376e-05	5.586837e-05	-0.1022447	-0.0561105	-2.107381e-05	-0.0002318545	0.01444607	0.005168708
	0.01453985	0.004734827	-2.107381e-05	-0.0002318545	-0.1018121	-0.05686455	-6.249458e-05	5.541459e-05
	-1.98276e-05	3.791004e-05	0.01444607	0.005168708	-6.249458e-05	5.541459e-05	-0.10226	-0.05597144
1.6e+08	-0.1095611	-0.0494994	-5.64002e-05	6.001558e-05	0.01509181	0.003644887	-1.77641e-05	3.843286e-05
	-5.64002e-05	6.001558e-05	-0.1098986	-0.04843994	-6.562283e-05	-0.0002664488	0.01502538	0.004125194
	0.01509181	0.003644887	-6.562283e-05	-0.0002664488	-0.1095084	-0.04929862	-5.770546e-05	5.967381e-05
	-1.77641e-05	3.843286e-05	0.01502538	0.004125194	-5.770546e-05	5.967381e-05	-0.1099091	-0.04828436
1.7e+08	-0.1159315	-0.04088886	-5.103114e-05	6.362338e-05	0.01544584	0.002487382	-1.555847e-05	3.893192e-05
	-5.103114e-05	6.362338e-05	-0.1162007	-0.03971641	-0.000118019	-0.0002920624	0.01541359	0.003010409
	0.01544584	0.002487382	-0.000118019	-0.0002920624	-0.1158683	-0.04067355	-5.24769e-05	6.342664e-05
	-1.555847e-05	3.893192e-05	0.01541359	0.003010409	-5.24769e-05	6.342664e-05	-0.1162039	-0.03954454
1.8e+08	-0.1208255	-0.03145029	-4.533679e-05	6.662786e-05	0.01559566	0.001295435	-1.323272e-05	3.936276e-05
	-4.533679e-05	6.662786e-05	-0.1210102	-0.03017515	-0.0001764604	-0.0003071943	0.01560386	0.001856086
	0.01559566	0.001295435	-0.0001764604	-0.0003071943	-0.1207501	-0.03122166	-4.690188e-05	6.660676e-05
	-1.323272e-05	3.936276e-05	0.01560386	0.001856086	-4.690188e-05	6.660676e-05	-0.1210036	-0.02998776
1.9e+08	-0.1241406	-0.02143246	-3.942478e-05	6.898901e-05	0.01554015	0.0001022261	-1.080829e-05	3.969128e-05
	-3.942478e-05	6.898901e-05	-0.124226	-0.02006813	-0.0002388259	-0.0003107415	0.0155942	0.0006941122
	0.01554015	0.0001022262	-0.0002388259	-0.0003107415	-0.1240511	-0.02119218	-4.108134e-05	6.917004e-05
	-1.080829e-05	3.969128e-05	0.0155942	0.0006941122	-4.108134e-05	6.917004e-05	-0.1242072	-0.01986655
2e+08	-0.1258144	-0.01109488	-3.340507e-05	7.069042e-05	0.01528315	-0.001059698	-8.306785e-06	3.989127e-05
	-3.340507e-05	7.069042e-05	-0.1257882	-0.009657829	-0.0003027843	-0.0003020642	0.01538737	-0.0004441068
	0.01528315	-0.001059698	-0.0003027843	-0.0003020642	-0.1257094	-0.01084502	-3.511955e-05	7.109437e-05
	-8.306785e-06	3.989127e-05	0.01538737	-0.0004441068	-3.511955e-05	7.109437e-05	-0.1257551	-0.009443881
2.1e+08	-0.1258261	-0.0007016289	-2.738542e-05	7.173832e-05	0.01483325	-0.002159053	-5.750212e-06	3.994305e-05
	-2.738542e-05	7.173832e-05	-0.1256789	0.0007891322	-0.0003659082	-0.0002810204	0.01499065	-0.001528233
	0.01483325	-0.002159053	-0.0003659082	-0.0002810204	-0.1257046	-0.0004446285	-2.91199e-05	7.237899e-05
	-5.750212e-06	3.994305e-05	0.01499065	-0.001528233	-2.91199e-05	7.237899e-05	-0.1256297	0.001013144
2.2e+08	-0.1241959	0.009484728	-2.146721e-05	7.21598e-05	0.01420355	-0.003166391	-3.160701e-06	3.983244e-05
	-2.146721e-05	7.21598e-05	-0.1239215	0.01100815	-0.0004257888	-0.0002479746	0.01441559	-0.00252953
	0.01420355	-0.003166391	-0.0004257888	-0.0002479746	-0.1240572	0.009746144	-2.318113e-05	7.304305e-05
	-3.160701e-06	3.983244e-05	0.01441559	-0.00252953	-2.318113e-05	7.304305e-05	-0.1238547	0.01123952
2.3e+08	-0.1209839	0.01920915	-1.574185e-05	7.200065e-05	0.01341126	-0.004054646	-5.601448e-07	3.955006e-05
	-1.574185e-05	7.200065e-05	-0.1205801	0.02074274	-0.000480147	-0.0002037821	0.01367778	-0.003421368
	0.01341126	-0.004054646	-0.000480147	-0.0002037821	-0.1208279	0.01947206	-1.739386e-05	7.312383e-05
	-5.601448e-07	3.955006e-05	0.01367778	-0.003421368	-1.739386e-05	7.312383e-05	-0.1204948	0.02097843
2.4e+08	-0.1162889	0.02822985	-1.028749e-05	7.13228e-05	0.01247744	-0.004799637	2.029945e-06	3.90908e-05
	-1.028749e-05	7.13228e-05	-0.1157574	0.02975034	-0.0005269372	-0.0001497447	0.01279652	-0.004179704
	0.01247744	-0.004799637	-0.0005269372	-0.0001497447	-0.1161159	0.02849123	-1.183744e-05	7.267472e-05
	2.029945e-06	3.90908e-05	0.01279652	-0.004179704	-1.183744e-05	7.267472e-05	-0.1156533	0.02998709
2.5e+08	-0.1102454	0.0363238	-5.166343e-06	7.020111e-05	0.0114266	-0.00538056	4.589028e-06	3.845314e-05
	-5.166343e-06	7.020111e-05	-0.1095921	0.0378079	-0.0005644384	-8.755246e-05	0.01179449	-0.004783548
	0.0114266	-0.00538056	-0.0005644384	-8.755246e-05	-0.1100564	0.03658063	-6.577307e-06	7.176246e-05
	4.589028e-06	3.845314e-05	0.01179449	-0.004783548	-6.577307e-06	7.176246e-05	-0.1094695	0.03804231
2.6e+08	-0.1030207	0.04329186	-4.223572e-07	6.871988e-05	0.01028622	-0.005780451	7.09766e-06	3.763872e-05
	-4.223572e-07	6.871988e-05	-0.1022561	0.044717	-0.0005913292	-1.920061e-05	0.0106974	-0.005215421
	0.01028622	-0.005780451	-0.0005913292	-1.920061e-05	-0.1028172	0.0435412	-1.66249e-06	7.046414e-05
	7.09766e-06	3.763872e-05	0.0106974	-0.005215421	-1.66249e-06	7.046414e-05	-0.1021158	0.04494565
2.7e+08	-0.09481116	0.04896342	3.920379e-06	6.696882e-05	0.00908627	-0.005986633	9.537793e-06	3.665171e-05
	3.920379e-06	6.696882e-05	-0.09394961	0.05030856	-0.0006067458	5.310141e-05	0.009533525	-0.0054618
	0.00908627	-0.005986633	-0.0006067458	5.310141e-05	-0.09459518	0.04920253	2.876219e-06	6.886363e-05
	9.537793e-06	3.665171e-05	0.009533525	-0.0054618	2.876219e-06	6.886363e-05	-0.09379317	0.05052815
2.8e+08	-0.08583724	0.05320059	7.858665e-06	6.503876e-05	0.007858644	-0.005991124	1.189281e-05	3.549854e-05
	7.858665e-06	6.503876e-05	-0.08489731	0.054447	-0.0006103137	0.0001270409	0.008333163	-0.005513539
	0.007858644	-0.005991124	-0.0006103137	0.0001270409	-0.0856114	0.05342704	7.027663e-06	6.704771e-05
	1.189281e-05	3.549854e-05	0.008333163	-0.005513539	7.027663e-06	6.704771e-05	-0.08472691	0.05465444
2.9e+08	-0.0763387	0.05590172	1.141019e-05	6.301672e-05	0.006636471	-0.005790992	1.414763e-05	3.418735e-05
	1.141019e-05	6.301672e-05	-0.07534254	0.0570337	-0.0006021586	0.0002003101	0.007128064	-0.005366248
	0.006636471	-0.005790992	-0.0006021586	0.0002003101	-0.0761061	0.05611348	1.080079e-05	6.510141e-05
	1.414763e-05	3.418735e-05	0.007128064	-0.005366248	1.080079e-05	6.510141e-05	-0.07516097	0.05722623
3e+08	-0.0665688	0.05700412	1.461246e-05	6.098113e-05	0.00545336	-0.005388636	1.628871e-05	3.272766e-05
	1.461246e-05	6.098113e-05	-0.06554165	0.05800971	-0.0005828978	0.0002707112	0.005950702	-0.005020599
	0.00545336	-0.005388636	-0.0005828978	0.0002707112	-0.06633292	0.05719965	1.42241e-05	6.310342e-05
	1.628871e-05	3.272766e-05	0.005950702	-0.005020599	1.42241e-05	6.310342e-05	-0.06535222	0.05818505
3.1e+08	-0.05678806	0.05648605	1.749625e-05	5.895801e-05	0.00434256	-0.004791956	1.830412e-05	3.113099e-05
	1.749625e-05	5.895801e-05	-0.05575766	0.05735764	-0.0005501588	0.0003388885	0.004833487	-0.004482549
	0.00434256	-0.004791956	-0.0005501588	0.0003388885	-0.05655275	0.05666442	1.732109e-05	6.108095e-05
	1.830412e-05	3.113099e-05	0.004833487	-0.004482549	1.732109e-05	6.108095e-05	-0.05556417	0.05751403
3.2e+08	-0.04725784	0.05436766	2.009044e-05	5.696871e-05	0.003336033	-0.004014388	2.018391e-05	2.940956e-05
	2.009044e-05	5.696871e-05	-0.04625361	0.05510247	-0.0005011701	0.0004045429	0.003807882	-0.003763422
	0.003336033	-0.004014388	-0.0005011701	0.0004045429	-0.04702715	0.05452859	2.011365e-05	5.905803e-05
	2.018391e-05	2.940956e-05	0.003807882	-0.003763422	2.011365e-05	5.905803e-05	-0.04606025	0.05523882
3.3e+08	-0.0382335	0.05071096	2.251869e-05	5.512729e-05	0.002463491	-0.003074778	2.191878e-05	2.757398e-05
	2.251869e-05	5.512729e-05	-0.03728577	0.05131136	-0.0004444164	0.0004604268	0.002903467	-0.002879841
	0.002463491	-0.003074778	-0.0004444164	0.0004604268	-0.03801165	0.05085483	2.271594e-05	5.715786e-05
	2.191878e-05	2.757398e-05	0.002903467	-0.002879841	2.271594e-05	5.715786e-05	-0.03709697	0.05142733
3.4e+08	-0.02995771	0.04561864	2.486835e-05	5.343852e-05	0.001751407	-0.001997057	2.350041e-05	2.563681e-05
	2.486835e-05	5.343852e-05	-0.02909676	0.04609239	-0.0003820997	0.0005056636	0.00214698	-0.001853472
	0.001751407	-0.001997057	-0.0003820997	0.0005056636	-0.02974893	0.04574656	2.521076e-05	5.539349e-05
	2.350041e-05	2.563681e-05	0.00214698	-0.001853472	2.521076e-05	5.539349e-05	-0.02891707	0.04618845
3.5e+08	-0.02265382	0.03923173	2.722431e-05	5.188171e-05	0.001222065	-0.0008097216	2.492245e-05	2.361174e-05
	2.722431e-05	5.188171e-05	-0.02190893	0.03959202	-0.0003165168	0.0005398892	0.00156137	-0.0007105734
	0.001222065	-0.0008097216	-0.0003165168	0.0005398892	-0.02246221	0.03934556	2.768119e-05	5.37537e-05
	2.492245e-05	2.361174e-05	0.00156137	-0.0007105734	2.768119e-05	5.37537e-05	-0.02174289	0.03966943
3.6e+08	-0.01651962	0.0317262	2.96617e-05	5.041162e-05	0.0008926811	0.0004549009	2.617988e-05	2.151276e-05
	2.96617e-05	5.041162e-05	-0.01591805	0.03199154	-0.0002499202	0.0005632627	0.001164922	0.0005186649
	0.0008926811	0.0004549009	-0.0002499202	0.0005632627	-0.01634905	0.03182857	3.020292e-05	5.220277e-05
	2.617988e-05	2.151276e-05	0.001164922	0.0005186649	3.020292e-05	5.220277e-05	-0.01577006	0.0320524
3.7e+08	-0.01172171	0.02330841	3.223893e-05	4.896155e-05	0.0007746653	0.001761574	2.726901e-05	1.935401e-05
	3.223893e-05	4.896155e-05	-0.01128776	0.0235023	-0.0001843991	0.0005764354	0.0009704976	0.001800974
	0.0007746653	0.001761574	-0.0001843991	0.0005764354	-0.01157563	0.02340264	3.283762e-05	5.06832e-05
	2.726901e-05	1.935401e-05	0.0009704976	0.001800974	3.283762e-05	5.06832e-05	-0.01116188	0.02354949
3.8e+08	-0.008390615	0.01420961	3.499197e-05	4.744863e-05	0.0008730597	0.003073248	2.818761e-05	1.714971e-05
	3.499197e-05	4.744863e-05	-0.008144696	0.01436003	-0.0001217669	0.0005804919	0.0009849464	0.003101032
	0.0008730597	0.003073248	-0.0001217669	0.0005804919	-0.008271965	0.01429967	3.562716e-05	4.912013e-05
	2.818761e-05	1.714971e-05	0.0009849464	0.003101032	3.562716e-05	4.912013e-05	-0.008044559	0.01439721
3.9e+08	-0.00661697	0.004679581	3.793034e-05	4.578056e-05	0.001186207	0.004352281	2.893492e-05	1.491399e-05
	3.793034e-05	4.578056e-05	-0.006574796	0.004818337	-6.346653e-05	0.000576865	0.001208734	0.004382614
	0.001186207	0.004352281	-6.346653e-05	0.000576865	-0.006528064	0.004769995	3.858905e-05	4.742749e-05
	2.893492e-05	1.491399e-05	0.001208734	0.004382614	3.858905e-05	4.742749e-05	-0.006503414	0.004849839
4e+08	-0.006448842	-0.005020386	4.103495e-05	4.386356e-05	0.001705678	0.005561725	2.95116e-05	1.266063e-05
	4.103495e-05	4.386356e-05	-0.00662071	-0.004858483	-1.050275e-05	0.0005672295	0.001635814	0.005609835
	0.001705678	0.005561725	-1.050275e-05	0.0005672295	-0.006391249	-0.004924635	4.171389e-05	4.55153e-05
	2.95116e-05	1.266063e-05	0.001635814	0.005609835	4.171389e-05	4.55153e-05	-0.006580374	-0.004827755
4.1e+08	-0.00789033	-0.01462487	4.425855e-05	4.161057e-05	0.002416473	0.006666633	2.991959e-05	1.040286e-05
	4.425855e-05	4.161057e-05	-0.008280566	-0.01440296	3.65986e-05	0.0005533819	0.002253771	0.006748392
	0.002416473	0.006666633	3.65986e-05	0.0005533819	-0.007864791	-0.01451847	4.496512e-05	4.329751e-05
	2.991959e-05	1.040286e-05	0.002253771	0.006748392	4.496512e-05	4.329751e-05	-0.008272729	-0.01436764
4.2e+08	-0.01090153	-0.02387187	4.752848e-05	3.89491e-05	0.003297501	0.007635288	3.016195e-05	8.153237e-06
	4.752848e-05	3.89491e-05	-0.01150811	-0.0235521	7.779845e-05	0.0005371145	0.003044219	0.007766772
	0.003297501	0.007635288	7.779845e-05	0.0005371145	-0.0109079	-0.02374932	4.828099e-05	4.069962e-05
	3.016195e-05	8.153237e-06	0.003044219	0.007766772	4.828099e-05	4.069962e-05	-0.0115333	-0.02350653
4.3e+08	-0.01539985	-0.03251027	5.075166e-05	3.582804e-05	0.004322311	0.008440329	3.024262e-05	5.923504e-06
	5.075166e-05	3.582804e-05	-0.01621419	-0.03205489	0.0001135189	0.0005200934	0.003983465	0.008637344
	0.004322311	0.008440329	0.0001135189	0.0005200934	-0.01543705	-0.03236603	5.157871e-05	3.766542e-05
	3.024262e-05	5.923504e-06	0.003983465	0.008637344	5.157871e-05	3.766542e-05	-0.01627196	-0.03199327
4.4e+08	-0.02126265	-0.04030686	5.382127e-05	3.222261e-05	0.005460046	0.009059675	3.016623e-05	3.724575e-06
	5.382127e-05	3.222261e-05	-0.02226965	-0.03967942	0.0001445887	0.0005037463	0.005043366	0.009337284
	0.005460046	0.009059675	0.0001445887	0.0005037463	-0.02132866	-0.04013552	5.476036e-05	3.416216e-05
	3.016623e-05	3.724575e-06	0.005043366	0.009337284	5.476036e-05	3.416216e-05	-0.02235854	-0.03959597
4.5e+08	-0.02833105	-0.04705276	5.662467e-05	2.813718e-05	0.006676554	0.009477236	2.993785e-05	1.566597e-06
	5.662467e-05	2.813718e-05	-0.02950928	-0.04621922	0.0001721625	0.0004891708	0.006192371	0.009849281
	0.006676554	0.009477236	0.0001721625	0.0004891708	-0.02842292	-0.04684919	5.772005e-05	3.018381e-05
	2.993785e-05	1.566597e-06	0.006192371	0.009849281	5.772005e-05	3.018381e-05	-0.02962683	-0.04610838
4.6e+08	-0.03641482	-0.05256903	5.905164e-05	2.360563e-05	0.007935616	0.009683356	2.956292e-05	-5.409552e-07
	5.905164e-05	2.360563e-05	-0.03773697	-0.05149888	0.0001976201	0.0004770661	0.007396657	0.01016201
	0.007935616	0.009683356	0.0001976201	0.0004770661	-0.03652872	-0.05232855	6.035154e-05	2.575197e-05
	2.956292e-05	-5.409552e-07	0.007396657	0.01016201	6.035154e-05	2.575197e-05	-0.03787975	-0.05135548
4.7e+08	-0.04529808	-0.0567112	6.100211e-05	1.868946e-05	0.009200212	0.009674997	2.904711e-05	-2.589134e-06
	6.100211e-05	1.868946e-05	-0.04673155	-0.05537846	0.0002224526	0.0004676947	0.008621315	0.01027035
	0.009200212	0.009674997	0.0002224526	0.0004676947	-0.04542937	-0.05642973	6.255557e-05	2.091475e-05
	2.904711e-05	-2.589134e-06	0.008621315	0.01027035	6.255557e-05	2.091475e-05	-0.04689522	-0.05519789
