!$
! Info: Touchstone file created by Circ.  Input file=Tx_8in_Rx_93ohms_TxVia_10mils_RxVia_20mils.circ
!$
# Hz S RI R 50
0	0.007411577	5.509299e-26	1.102943e-10	1.577328e-28	5.603558e-05	7.847891e-24	-5.054315e-09	6.191426e-25
	1.103062e-10	1.57921e-28	0.00741224	7.608603e-26	5.456554e-10	3.067683e-27	5.412392e-05	1.051322e-23
	5.47346e-05	7.646735e-24	5.455938e-10	3.074863e-27	0.007426871	5.770068e-26	-9.170963e-09	1.137017e-24
	-5.053431e-09	6.190343e-25	5.558058e-05	1.082062e-23	-9.171159e-09	1.13704e-24	0.007417841	7.257523e-26
1e+07	0.01059899	-0.0005603715	4.8479e-11	-2.484825e-11	0.0002340041	0.001504811	-7.313334e-09	1.689486e-08
	4.847902e-11	-2.484855e-11	0.0108164	-0.0005749102	6.710759e-10	1.083225e-09	0.0002309487	0.001499754
	0.0002339601	0.001504815	6.710759e-10	1.083225e-09	0.01083418	-0.000584031	-8.708513e-09	1.665513e-08
	-7.313334e-09	1.689486e-08	0.0002309813	0.001499742	-8.708513e-09	1.665513e-08	0.0106096	-0.0005848335
2e+07	0.01253585	-0.00371392	4.984414e-11	-3.069049e-11	0.0005530226	0.003000093	-6.336516e-09	1.357833e-08
	4.984393e-11	-3.06906e-11	0.01268486	-0.003817147	8.415959e-10	1.913136e-09	0.0005449657	0.002992196
	0.0005530127	0.003000121	8.41596e-10	1.913136e-09	0.01271102	-0.003837441	-7.984871e-09	1.407624e-08
	-6.336516e-09	1.357833e-08	0.0005449629	0.002992175	-7.984871e-09	1.407624e-08	0.01252664	-0.003760567
3e+07	0.01318242	-0.007859569	6.981148e-11	-6.305962e-11	0.001168752	0.004342465	-2.9791e-09	1.301288e-08
	6.981144e-11	-6.305958e-11	0.01326582	-0.007989886	9.094235e-10	2.705011e-09	0.00113905	0.004338775
	0.001168753	0.00434247	9.094235e-10	2.705011e-09	0.01330549	-0.008024321	-4.167263e-09	1.418363e-08
	-2.9791e-09	1.301288e-08	0.001139045	0.004338772	-4.167263e-09	1.418363e-08	0.01314438	-0.007920991
4e+07	0.0128111	-0.01225455	7.658087e-11	-9.960825e-11	0.002018806	0.005534193	-2.06603e-10	1.195856e-08
	7.658085e-11	-9.960829e-11	0.01282782	-0.01239001	9.404034e-10	3.51672e-09	0.001971075	0.005537963
	0.002018802	0.005534191	9.404033e-10	3.51672e-09	0.01288519	-0.01244314	-1.059617e-09	1.34015e-08
	-2.06603e-10	1.195856e-08	0.001971075	0.005537965	-1.059617e-09	1.34015e-08	0.01273519	-0.01232513
5e+07	0.01154481	-0.01662185	8.334052e-11	-1.301604e-10	0.003037337	0.006559657	1.650643e-09	1.093928e-08
	8.334048e-11	-1.301605e-10	0.0114942	-0.01674548	9.585854e-10	4.334224e-09	0.002969368	0.006575821
	0.003037336	0.006559656	9.585854e-10	4.334224e-09	0.01157208	-0.01682303	9.345915e-10	1.250306e-08
	1.650643e-09	1.093928e-08	0.002969367	0.006575821	9.345915e-10	1.250306e-08	0.01142213	-0.01669251
6e+07	0.009478644	-0.02077419	1.059426e-10	-1.52834e-10	0.004195963	0.007396412	2.648228e-09	1.04855e-08
	1.059427e-10	-1.52834e-10	0.009361584	-0.02087056	9.724766e-10	5.141496e-09	0.004106603	0.007430338
	0.004195968	0.00739641	9.724766e-10	5.141496e-09	0.009461215	-0.020979	1.842742e-09	1.202454e-08
	2.648228e-09	1.04855e-08	0.0041066	0.007430339	1.842742e-09	1.202454e-08	0.009303174	-0.02083373
7e+07	0.006706464	-0.02456601	2.191167e-10	-1.230496e-10	0.005462248	0.008025806	2.100516e-09	1.128507e-08
	2.19117e-10	-1.230496e-10	0.0065259	-0.02462048	1.031823e-09	5.913127e-09	0.005351494	0.008083108
	0.005462259	0.008025799	1.031823e-09	5.913127e-09	0.006646857	-0.02476659	1.087005e-09	1.220886e-08
	2.100516e-09	1.128507e-08	0.005351489	0.008083111	1.087005e-09	1.220886e-08	0.006474757	-0.0246026
8e+07	0.003328735	-0.02787955	-3.764902e-11	-1.559619e-09	0.006800778	0.008434267	-4.133488e-09	1.053232e-08
	-3.764859e-11	-1.55962e-09	0.00308995	-0.02787821	1.226806e-09	6.913336e-09	0.006669829	0.008520603
	0.006800789	0.008434256	1.226806e-09	6.913336e-09	0.003230148	-0.0280687	-3.108427e-09	1.100346e-08
	-4.133488e-09	1.053232e-08	0.006669824	0.008520607	-3.108427e-09	1.100346e-08	0.003039372	-0.02788093
9e+07	-0.0005447918	-0.03061937	1.246268e-10	-3.692292e-10	0.008174198	0.008613958	-3.620201e-09	1.581276e-09
	1.246272e-10	-3.692297e-10	-0.000833869	-0.03054902	1.036816e-09	7.891758e-09	0.008025497	0.008734841
	0.008174205	0.008613948	1.036816e-09	7.891758e-09	-0.000678097	-0.03079019	-3.965524e-09	3.807441e-09
	-3.620201e-09	1.581276e-09	0.008025494	0.008734845	-3.965524e-09	3.807441e-09	-0.0008910535	-0.03057274
1e+08	-0.004785282	-0.0327016	8.371554e-11	-3.226879e-10	0.009544058	0.0085626	-3.071264e-10	-4.520048e-11
	8.371554e-11	-3.226879e-10	-0.005111991	-0.0325482	9.034156e-10	8.696908e-09	0.009381514	0.008723383
	0.009544058	0.0085626	9.034156e-10	8.696908e-09	-0.004945783	-0.03284558	-7.888645e-10	1.301579e-09
	-3.071264e-10	-4.520048e-11	0.009381514	0.008723383	-7.888645e-10	1.301579e-09	-0.005184892	-0.03259374
1.1e+08	-0.009248365	-0.03417017	7.39912e-11	-3.656577e-10	0.01087054	0.008287886	-3.409825e-10	1.887682e-11
	7.39912e-11	-3.656577e-10	-0.009594884	-0.03393467	9.095242e-10	9.635426e-09	0.01069921	0.008491222
	0.01087054	0.008287886	9.095242e-10	9.635426e-09	-0.009422899	-0.03429487	-8.338271e-10	1.592464e-09
	-3.409825e-10	1.887682e-11	0.01069921	0.008491222	-8.338271e-10	1.592464e-09	-0.009694014	-0.03398859
1.2e+08	-0.01390371	-0.03494503	6.01318e-11	-4.10878e-10	0.01212099	0.007800685	-3.637506e-10	8.857142e-11
	6.01318e-11	-4.10878e-10	-0.01426414	-0.03462555	9.39409e-10	1.059109e-08	0.01194579	0.00804975
	0.01212099	0.007800685	9.39409e-10	1.059109e-08	-0.01409553	-0.03505195	-8.441592e-10	1.899957e-09
	-3.637506e-10	8.857142e-11	0.01194579	0.008049749	-8.441592e-10	1.899957e-09	-0.01438659	-0.0346796
1.3e+08	-0.01861292	-0.03499673	4.033153e-11	-4.570415e-10	0.01326148	0.007116698	-3.735562e-10	1.643588e-10
	4.033153e-11	-4.570415e-10	-0.01897779	-0.03459004	9.972952e-10	1.156029e-08	0.0130884	0.007413842
	0.01326148	0.007116698	9.972952e-10	1.156029e-08	-0.01882208	-0.03508401	-8.169599e-10	2.218075e-09
	-3.735562e-10	1.643588e-10	0.0130884	0.007413842	-8.169599e-10	2.218075e-09	-0.01912201	-0.03463882
1.4e+08	-0.02325131	-0.0343298	1.382546e-11	-5.033039e-10	0.01426162	0.00625746	-3.689424e-10	2.438524e-10
	1.382546e-11	-5.033039e-10	-0.02360973	-0.0338339	1.087116e-09	1.253769e-08	0.01409727	0.006603859
	0.01426162	0.00625746	1.087116e-09	1.253769e-08	-0.02347657	-0.03439496	-7.497359e-10	2.539245e-09
	-3.689424e-10	2.438524e-10	0.01409727	0.006603859	-7.497359e-10	2.539245e-09	-0.02377381	-0.0338728
1.5e+08	-0.02770124	-0.03297009	-1.966886e-11	-5.494719e-10	0.01509517	0.005249139	-3.492669e-10	3.237468e-10
	-1.966886e-11	-5.494719e-10	-0.02804146	-0.03238476	1.211641e-09	1.351711e-08	0.01494651	0.005644672
	0.01509517	0.005249139	1.211641e-09	1.351711e-08	-0.0279404	-0.03301064	-6.411571e-10	2.854561e-09
	-3.492669e-10	3.237468e-10	0.01494651	0.005644672	-6.411571e-10	2.854561e-09	-0.02822298	-0.03240981
1.6e+08	-0.03185359	-0.03096199	-6.140332e-11	-5.911897e-10	0.01574065	0.004121708	-3.137006e-10	4.021924e-10
	-6.140332e-11	-5.911897e-10	-0.03216344	-0.03028906	1.372471e-09	1.449186e-08	0.01561476	0.00456489
	0.01574065	0.004121708	1.372471e-09	1.449186e-08	-0.0321037	-0.03097576	-4.926158e-10	3.158867e-09
	-3.137006e-10	4.021924e-10	0.01561476	0.004564891	-4.926158e-10	3.158867e-09	-0.03235944	-0.03029693
1.7e+08	-0.03560977	-0.02836631	-1.109383e-10	-6.26178e-10	0.01618187	0.00290808	-2.62307e-10	4.760066e-10
	-1.109383e-10	-6.26178e-10	-0.03587711	-0.02760985	1.569823e-09	1.545493e-08	0.01608567	0.003396039
	0.01618187	0.00290808	1.569823e-09	1.545493e-08	-0.03586735	-0.02835162	-3.056596e-10	3.444923e-09
	-2.62307e-10	4.760066e-10	0.01608567	0.003396039	-3.056596e-10	3.444923e-09	-0.03608421	-0.02759787
1.8e+08	-0.03888361	-0.02525808	-1.671864e-10	-6.521315e-10	0.01640831	0.001643189	-1.958054e-10	5.42005e-10
	-1.671864e-10	-6.521315e-10	-0.03909681	-0.02442442	1.802558e-09	1.639927e-08	0.01634831	0.002171683
	0.01640831	0.001643189	1.802558e-09	1.639927e-08	-0.03914482	-0.02521387	-8.302218e-11	3.705833e-09
	-1.958054e-10	5.42005e-10	0.01634831	0.002171683	-8.302218e-11	3.705833e-09	-0.03931127	-0.02439063
1.9e+08	-0.04160309	-0.02172425	-2.283844e-10	-6.669149e-10	0.01641526	0.00036304	-1.155625e-10	5.971469e-10
	-2.283844e-10	-6.669149e-10	-0.04175141	-0.02082194	2.068186e-09	1.7318e-08	0.01639729	0.000926529
	0.01641526	0.00036304	2.068186e-09	1.7318e-08	-0.04186384	-0.02165011	1.714685e-10	3.935191e-09
	-1.155625e-10	5.971469e-10	0.01639729	0.0009265291	1.714685e-10	3.935191e-09	-0.0419693	-0.02076512
2e+08	-0.04371167	-0.01786119	-2.921257e-10	-6.687652e-10	0.01620395	-0.0008962459	-2.355149e-11	6.386723e-10
	-2.921257e-10	-6.687652e-10	-0.04378577	-0.01690089	2.362908e-09	1.82047e-08	0.01623291	-0.0003044848
	0.01620395	-0.0008962459	2.362908e-09	1.82047e-08	-0.04396783	-0.01775742	4.529842e-10	4.127204e-09
	-2.355149e-11	6.386723e-10	0.01623291	-0.0003044847	4.529842e-10	4.127204e-09	-0.04400303	-0.01682055
2.1e+08	-0.04516935	-0.01377217	-3.554541e-10	-6.564828e-10	0.01578141	-0.002099376	7.771786e-11	6.642252e-10
	-3.554541e-10	-6.564828e-10	-0.04516167	-0.0127664	2.681696e-09	1.905356e-08	0.01586106	-0.001487085
	0.01578141	-0.002099376	2.681696e-09	1.905356e-08	-0.04541684	-0.01363975	7.557856e-10	4.276806e-09
	7.771786e-11	6.642252e-10	0.01586106	-0.001487085	7.557856e-10	4.276806e-09	-0.04537425	-0.01266278
2.2e+08	-0.04595329	-0.009564597	-4.150142e-10	-6.295942e-10	0.01516025	-0.003212791	1.852936e-10	6.719564e-10
	-4.150142e-10	-6.295942e-10	-0.04585843	-0.008527423	3.018396e-09	1.985965e-08	0.01529296	-0.002588525
	0.01516025	-0.003212791	3.018396e-09	1.985965e-08	-0.04618823	-0.009405161	1.073309e-09	4.379761e-09
	1.852936e-10	6.719564e-10	0.01529296	-0.002588525	1.073309e-09	4.379761e-09	-0.04606243	-0.008401481
2.3e+08	-0.04605808	-0.005347325	-4.672488e-10	-5.884701e-10	0.01435825	-0.004205514	2.95895e-10	6.606007e-10
	-4.672488e-10	-5.884701e-10	-0.0458731	-0.00429399	3.365884e-09	2.061909e-08	0.01454491	-0.0035784
	0.01435825	-0.004205514	3.365884e-09	2.061909e-08	-0.04627684	-0.005163135	1.39825e-09	4.432763e-09
	2.95895e-10	6.606007e-10	0.01454491	-0.0035784	1.39825e-09	4.432763e-09	-0.04606486	-0.004147358
2.4e+08	-0.04549559	-0.001227934	-5.08626e-10	-5.343807e-10	0.01339793	-0.00504993	4.060382e-10	6.295263e-10
	-5.08626e-10	-5.343807e-10	-0.04522028	-0.0001744129	3.71624e-09	2.132926e-08	0.01363778	-0.00442939
	0.01339793	-0.00504993	3.71624e-09	2.132926e-08	-0.04569497	-0.001021815	1.722658e-09	4.433561e-09
	4.060382e-10	6.295263e-10	0.01363778	-0.00442939	1.722658e-09	4.433561e-09	-0.04539646	-9.339654e-06
2.5e+08	-0.04429443	0.002689909	-5.358921e-10	-4.694976e-10	0.01230588	-0.005722469	5.121649e-10	5.787557e-10
	-5.358921e-10	-4.694976e-10	-0.04393142	0.003727397	4.060964e-09	2.198892e-08	0.01259647	-0.00511793
	0.01230588	-0.005722469	4.060964e-09	2.198892e-08	-0.04447168	0.002914631	2.038028e-09	4.381063e-09
	5.121649e-10	5.787557e-10	0.01259647	-0.00511793	2.038028e-09	4.381063e-09	-0.04408916	0.003908111
2.6e+08	-0.042499	0.006308956	-5.397557e-10	-3.933982e-10	0.01111211	-0.0062042	6.106697e-10	5.088307e-10
	-5.397557e-10	-3.933982e-10	-0.0420539	0.007314512	4.392417e-09	2.259969e-08	0.01144926	-0.005624781
	0.01111211	-0.0062042	4.392417e-09	2.259969e-08	-0.04265197	0.006548584	2.342068e-09	4.278908e-09
	6.106697e-10	5.088307e-10	0.01144926	-0.005624781	2.342068e-09	4.278908e-09	-0.04219083	0.007507558
2.7e+08	-0.04016824	0.009540724	-5.221905e-10	-3.147789e-10	0.009849248	-0.006481297	6.982447e-10	4.211774e-10
	-5.221905e-10	-3.147789e-10	-0.03964955	0.01049922	4.701223e-09	2.316172e-08	0.0102271	-0.0059355
	0.009849248	-0.006481297	4.701223e-09	2.316172e-08	-0.04029537	0.009791207	2.621562e-09	4.123667e-09
	6.982447e-10	4.211774e-10	0.0102271	-0.0059355	2.621562e-09	4.123667e-09	-0.03976391	0.01070095
2.8e+08	-0.03737402	0.0123076	-4.835653e-10	-2.389304e-10	0.008551684	-0.00654539	7.718506e-10	3.176782e-10
	-4.835653e-10	-2.389304e-10	-0.03679301	0.01320525	4.97837e-09	2.367806e-08	0.008962814	-0.006040795
	0.008551684	-0.00654539	4.97837e-09	2.367806e-08	-0.03747441	0.01256466	2.865781e-09	3.91738e-09
	7.718506e-10	3.176782e-10	0.008962814	-0.006040795	2.865781e-09	3.91738e-09	-0.03688371	0.01341174
2.9e+08	-0.03419918	0.01454466	-4.243719e-10	-1.70541e-10	0.007254718	-0.006393781	8.287982e-10	2.006788e-10
	-4.243719e-10	-1.70541e-10	-0.03356969	0.01536951	5.215472e-09	2.41537e-08	0.007690276	-0.005936757
	0.007254718	-0.006393781	5.215472e-09	2.41537e-08	-0.03427263	0.0148039	3.065098e-09	3.664583e-09
	8.287982e-10	2.006788e-10	0.007690276	-0.005936757	3.065098e-09	3.664583e-09	-0.03363632	0.0155767
3e+08	-0.03073542	0.01620118	-3.461964e-10	-1.141353e-10	0.005993624	-0.00602952	8.668239e-10	7.293177e-11
	-3.461964e-10	-1.141353e-10	-0.03007356	0.01694359	5.404923e-09	2.459517e-08	0.006443536	-0.005624967
	0.005993624	-0.00602952	5.404923e-09	2.459517e-08	-0.03078245	0.0164582	3.210337e-09	3.371658e-09
	8.668239e-10	7.293177e-11	0.006443536	-0.005624967	3.210337e-09	3.371658e-09	-0.03011642	0.01714738
3.1e+08	-0.02708091	0.01724179	-2.516457e-10	-7.380375e-11	0.004802736	-0.005461346	8.841354e-10	-6.248644e-11
	-2.516457e-10	-7.380375e-11	-0.02640463	0.01789486	5.540196e-09	2.501046e-08	0.005255959	-0.005112464
	0.004802736	-0.005461346	5.540196e-09	2.501046e-08	-0.02710275	0.01749233	3.293154e-09	3.046841e-09
	8.841354e-10	-6.248644e-11	0.005255959	-0.005112464	3.293154e-09	3.046841e-09	-0.02642473	0.01809122
3.2e+08	-0.02333776	0.01764729	-1.442103e-10	-5.296162e-11	0.003714546	-0.004703472	8.794395e-10	-2.022571e-10
	-1.442103e-10	-5.296162e-11	-0.02266644	0.01820717	5.616118e-09	2.540882e-08	0.004159355	-0.004411583
	0.003714546	-0.004703472	5.616118e-09	2.540882e-08	-0.02333635	0.01788729	3.306427e-09	2.70014e-09
	8.794395e-10	-2.022571e-10	0.004159355	-0.004411583	3.306427e-09	2.70014e-09	-0.02266546	0.01839229
3.3e+08	-0.01960947	0.01741494	-2.806416e-11	-5.415628e-11	0.002758837	-0.003775238	8.519562e-10	-3.428955e-10
	-2.806416e-11	-5.415628e-11	-0.01896334	0.01788115	5.629112e-09	2.580052e-08	0.003183152	-0.003539653
	0.002758837	-0.003775238	5.629112e-09	2.580052e-08	-0.0195874	0.01764072	3.244661e-09	2.343166e-09
	8.519562e-10	-3.428955e-10	0.003183152	-0.003539653	3.244661e-09	2.343166e-09	-0.01894361	0.01805152
3.4e+08	-0.01599827	0.01655852	9.217828e-11	-7.893909e-11	0.001961873	-0.002700623	8.014244e-10	-4.808209e-10
	9.217828e-11	-7.893909e-11	-0.01539783	0.01693408	5.577398e-09	2.619654e-08	0.002353607	-0.002518567
	0.001961873	-0.002700623	5.577398e-09	2.619654e-08	-0.01595872	0.01676684	3.104365e-09	1.988858e-09
	8.014244e-10	-4.808209e-10	0.002353607	-0.002518567	3.104365e-09	1.988858e-09	-0.01536228	0.01708663
3.5e+08	-0.01260254	0.01510782	2.117226e-10	-1.27808e-10	0.001345681	-0.00150763	7.28101e-10	-6.124184e-10
	2.117226e-10	-1.27808e-10	-0.01206797	0.01539933	5.46114e-09	2.660831e-08	0.001693098	-0.001374226
	0.001345681	-0.00150763	5.46114e-09	2.660831e-08	-0.0125492	0.01529599	2.884384e-09	1.651118e-09
	7.28101e-10	-6.124184e-10	0.001693098	-0.001374226	2.884384e-09	1.651118e-09	-0.01202003	0.0155315
3.6e+08	-0.009514332	0.01310783	3.258557e-10	-2.002256e-10	0.0009274258	-0.0002275486	6.327597e-10	-7.340965e-10
	3.258557e-10	-2.002256e-10	-0.009064855	0.01332544	5.282524e-09	2.704729e-08	0.001219509	-0.0001358671
	0.0009274258	-0.0002275486	5.282524e-09	2.704729e-08	-0.009451312	0.0132738	2.586155e-09	1.344351e-09
	6.327597e-10	-7.340965e-10	0.001219509	-0.0001358671	2.586155e-09	1.344351e-09	-0.009008362	0.01343526
3.7e+08	-0.006817036	0.01061748	4.301831e-10	-2.947039e-10	0.0007189163	0.001105871	5.166909e-10	-8.423416e-10
	4.301831e-10	-2.947039e-10	-0.0064703	0.01077473	5.045776e-09	2.752462e-08	0.0009457242	0.001164701
	0.0007189163	0.001105871	5.045776e-09	2.752462e-08	-0.00674877	0.01075989	2.213855e-09	1.082944e-09
	5.166909e-10	-8.423416e-10	0.0009457242	0.001164701	2.213855e-09	1.082944e-09	-0.006409414	0.01086091
3.8e+08	-0.004583315	0.007708047	5.208241e-10	-4.08948e-10	0.0007262485	0.002457334	3.81703e-10	-9.337739e-10
	5.208241e-10	-4.08948e-10	-0.004354795	0.007821629	4.757107e-09	2.805075e-08	0.0008792548	0.002493951
	0.0007262484	0.002457334	4.757107e-09	2.805075e-08	-0.004514427	0.007826303	1.774445e-09	8.806969e-10
	3.81703e-10	-9.337739e-10	0.0008792548	0.002493951	1.774445e-09	8.806969e-10	-0.004293868	0.007883597
3.9e+08	-0.00287328	0.004461303	5.945513e-10	-5.400383e-10	0.0009496066	0.00379096	2.301249e-10	-1.00521e-09
	5.945513e-10	-5.400383e-10	-0.002775726	0.004550685	4.424585e-09	2.863509e-08	0.00102201	0.003817541
	0.0009496066	0.00379096	4.424585e-09	2.863509e-08	-0.002808464	0.004555584	1.277566e-09	7.502426e-10
	2.301249e-10	-1.00521e-09	0.001022011	0.003817541	1.277566e-09	7.502426e-10	-0.002719181	0.004588618
4e+08	-0.001733016	0.0009673063	6.488669e-10	-6.846325e-10	0.001383228	0.005071282	6.480619e-11	-1.053733e-09
	6.488669e-10	-6.846325e-10	-0.001775959	0.001054286	4.057949e-09	2.928568e-08	0.001370225	0.005101251
	0.001383228	0.005071282	4.057949e-09	2.928568e-08	-0.001676903	0.001038579	7.353183e-10	7.024909e-10
	6.480619e-11	-1.053733e-09	0.001370225	0.005101251	7.353183e-10	7.024909e-10	-0.001728164	0.001069106
4.1e+08	-0.00119347	-0.002677948	6.820139e-10	-8.391658e-10	0.002015535	0.006264233	-1.108897e-10	-1.076776e-09
	6.820139e-10	-8.391658e-10	-0.00138281	-0.002569791	3.66835e-09	3.000885e-08	0.00191454	0.006311931
	0.002015535	0.006264233	3.66835e-09	3.000885e-08	-0.001150496	-0.002627942	1.61901e-10	7.461237e-10
	-1.108897e-10	-1.076776e-09	0.00191454	0.006311931	1.61901e-10	7.461237e-10	-0.001347947	-0.002576422
4.2e+08	-0.00126974	-0.006375042	6.929314e-10	-1.000029e-09	0.002829442	0.007338104	-2.931057e-10	-1.072218e-09
	6.929314e-10	-1.000029e-09	-0.001607424	-0.006220958	3.268054e-09	3.080905e-08	0.002640257	0.007418418
	0.002829442	0.007338104	3.268054e-09	3.080905e-08	-0.001244017	-0.00634383	-4.268487e-10	8.87179e-10
	-2.931057e-10	-1.072218e-09	0.002640257	0.007418418	-4.268487e-10	8.87179e-10	-0.001589368	-0.00624668
4.3e+08	-0.001960777	-0.01002373	6.811655e-10	-1.163705e-09	0.003802817	0.008264444	-4.775304e-10	-1.038481e-09
	6.811655e-10	-1.163705e-09	-0.002444587	-0.009798473	2.870095e-09	3.16886e-08	0.00352773	0.008392402
	0.003802817	0.008264444	2.870095e-09	3.16886e-08	-0.001955973	-0.01000816	-1.014007e-09	1.128746e-09
	-4.775304e-10	-1.038481e-09	0.00352773	0.008392402	-1.014007e-09	1.128746e-09	-0.002446785	-0.009840282
4.4e+08	-0.003249513	-0.01352552	6.467527e-10	-1.326863e-09	0.004909092	0.009018864	-6.594619e-10	-9.746447e-10
	6.467527e-10	-1.326863e-09	-0.003872963	-0.01320406	2.487901e-09	3.264759e-08	0.004552919	0.009209217
	0.004909092	0.009018864	2.487901e-09	3.264759e-08	-0.003268741	-0.01352185	-1.582166e-09	1.47079e-09
	-6.594619e-10	-9.746447e-10	0.004552919	0.009209217	-1.582166e-09	1.47079e-09	-0.003898333	-0.01325839
4.5e+08	-0.005103402	-0.01678624	5.900985e-10	-1.486391e-09	0.006118014	0.009581729	-8.339017e-10	-8.805472e-10
	5.900985e-10	-1.486391e-09	-0.005855759	-0.01634448	2.13491e-09	3.368383e-08	0.005688056	0.009848523
	0.006118014	0.009581729	2.13491e-09	3.368383e-08	-0.005149119	-0.01679022	-2.114062e-09	1.910117e-09
	-8.339017e-10	-8.805472e-10	0.005688056	0.009848523	-2.114062e-09	1.910117e-09	-0.005906597	-0.01640729
4.6e+08	-0.007475353	-0.0197184	5.11868e-10	-1.639381e-09	0.007396491	0.009938708	-9.956755e-10	-7.568773e-10
	5.11868e-10	-1.639381e-09	-0.008341798	-0.0191339	1.824173e-09	3.479288e-08	0.00690243	0.01029486
	0.007396491	0.009938708	1.824173e-09	3.479288e-08	-0.007549298	-0.0197254	-2.593165e-09	2.440472e-09
	-9.956755e-10	-7.568773e-10	0.00690243	0.01029486	-2.593165e-09	2.440472e-09	-0.008419681	-0.01920082
4.7e+08	-0.01030506	-0.02224345	4.12909e-10	-1.78308e-09	0.008709528	0.01008117	-1.139595e-09	-6.052497e-10
	4.12909e-10	-1.78308e-09	-0.01126694	-0.0214961	1.567976e-09	3.59681e-08	0.008163243	0.01053807
	0.008709528	0.01008117	1.567976e-09	3.59681e-08	-0.01040818	-0.02224855	-3.00429e-09	3.052759e-09
	-1.139595e-09	-6.052497e-10	0.008163243	0.01053807	-3.00429e-09	3.052759e-09	-0.01137272	-0.02156251
