! Created Fri Jun 28 09:28:34 2019
# hz S ma R 50
! 4 Port Network Data from SP1.SP block
! freq  magS11  angS11  magS12  angS12  magS13  angS13  magS14  angS14  
!       magS21  angS21  magS22  angS22  magS23  angS23  magS24  angS24  
!       magS31  angS31  magS32  angS32  magS33  angS33  magS34  angS34  
!       magS41  angS41  magS42  angS42  magS43  angS43  magS44  angS44  
!     
          50000000      0.0488386798        -86.2261145     5.80572639e-05        -135.808163        0.018212017         49.2711256     0.000139087504        -133.643309
                   5.80572652e-05        -135.808163       0.0490001335         -87.503735     3.84568987e-05        -137.661356       0.0174797942         52.5514674
                     0.0182120181         49.2711388      3.8456879e-05        -137.661366       0.0488624853        -86.1972652     9.36981945e-05        -138.117654
                   0.000139087513        -133.643309       0.0174797908         52.5514586     9.36981955e-05        -138.117656       0.0491256253        -87.5308638

          60000000      0.0540991619        -97.7106627     6.90408858e-05        -141.744495       0.0211258777         41.8786665     0.000165762832        -139.830584
                   6.90408859e-05        -141.744496       0.0542333016        -99.0812491     4.54781544e-05        -144.216071       0.0203697908         46.1044949
                     0.0211258781         41.8786702     4.54781637e-05        -144.216068       0.0541186798        -97.6776335     0.000111408967        -143.834898
                    0.00016576283        -139.830581       0.0203697878         46.1044919     0.000111408967        -143.834898       0.0543801563        -99.0957423

          70000000      0.0590786116        -108.114182      8.0267341e-05        -147.989344       0.0237222834         34.3925503     0.000192785985        -146.269435
                   8.02673408e-05        -147.989344       0.0591167537        -109.628147     5.24594697e-05        -150.958629       0.0230007454         39.7305237
                     0.0237222833         34.3925449     5.24594796e-05        -150.958628       0.0590910639         -108.08304     0.000129353666        -149.987336
                   0.000192785985        -146.269435       0.0230007425         39.7305267     0.000129353676        -149.987335       0.0592809295        -109.629811

          80000000      0.0635898846        -117.676361      9.1762654e-05        -154.489875       0.0259743644         26.8102537     0.000220188158        -152.902987
                   9.17626536e-05        -154.489875       0.0634340809        -119.438546     5.94266469e-05        -157.824607        0.025356375         33.4718358
                     0.0259743638         26.8102402     5.94266471e-05        -157.824606       0.0635926588        -117.647125     0.000147528924         -156.45216
                   0.000220188158        -152.902987       0.0253563723         33.4718407     0.000147528924        -156.452161       0.0636116226        -119.427422

          90000000      0.0673896257        -126.761443     0.000103565709        -161.238096       0.0278737939          19.114939      0.00024803616         -159.71694
                   0.000103565708        -161.238096       0.0669152536        -128.908484     6.64134441e-05        -164.803191       0.0274372902         27.3549291
                     0.0278738016         19.1149103     6.64134343e-05        -164.803194       0.0673809481        -126.732403     0.000165948029        -163.180037
                   0.000248036159         -159.71694       0.0274372968         27.3549412      0.00016594803        -163.180037       0.0671016547        -128.883984

         100000000      0.0704490083        -135.277541     0.000115609407          -168.1834       0.0294042432         11.2884429     0.000276219564        -166.667716
                   0.000115609407          -168.1834       0.0695129081        -137.975305     7.34166468e-05        -171.860759       0.0292342815         21.4106853
                     0.0294042495         11.2883984     7.34166458e-05        -171.860758       0.0704279612         -135.24721      0.00018450953        -170.102378
                   0.000276219563        -166.667716        0.029234306         21.4107077     0.000184509531        -170.102379       0.0697038928        -137.937425

         110000000      0.0726244269        -143.263705     0.000127854832        -175.313911       0.0305657124         3.28326166     0.000304662353        -173.740097
                   0.000127854831        -175.313911       0.0710831107        -146.731431     8.04397108e-05        -178.995427        0.030742129         15.6707528
                     0.0305657101         3.28323209     8.04397108e-05        -178.995426       0.0725897149        -143.232718     0.000203124634        -177.182715
                   0.000304662353        -173.740097       0.0307421455         15.6707648     0.000203124634        -177.182716       0.0712737653        -146.681085

         120000000      0.0738247515        -150.940782     0.000140262916         177.396173       0.0313782798        -4.92959119     0.000333337261         179.077563
                   0.000140262915         177.396173       0.0715094397        -155.429313     8.74917876e-05         173.798627       0.0320007128         10.1325966
                     0.0313782781         -4.9296113     8.74917876e-05         173.798627       0.0737734506        -150.907461     0.000221743182         175.600013
                   0.000333337261         179.077563       0.0320007303         10.1326043     0.000221743181         175.600013       0.0716942564         -155.36514

         130000000      0.0740016928        -158.361248     0.000152802777         169.956053       0.0318667408        -13.4108609     0.000362205456         171.790277
                   0.000152802777         169.956053       0.0707288939        -164.198143     9.45785479e-05         166.513731       0.0330389263         4.80992026
                     0.0318667217        -13.4108681     9.45785499e-05         166.513731        0.073931701        -158.323808     0.000240296001         168.262351
                   0.000362205551          171.79028       0.0330389353         4.80992096     0.000240295998         168.262351       0.0709017566        -164.118396

         140000000      0.0731537439        -165.202276      0.00016532247         162.452374       0.0320282898        -22.2037818     0.000391026388         164.468143
                   0.000165322469         162.452374       0.0687227968        -172.809674     0.000101668448         159.208205       0.0338512334       -0.249817005
                     0.0320282715         -22.203781     0.000101668449         159.208205       0.0730646212        -165.158191     0.000258621212         160.888073
                    0.00039102639         164.468143       0.0338512515       -0.249810187     0.000258621208         160.888073       0.0688785184        -172.713118

         150000000      0.0713184249        -171.595961     0.000177838891         154.868786       0.0319278708         -31.399086     0.000419848184         157.092513
                   0.000177838891         154.868786         0.06550266         178.463064      0.00010877262         151.852572       0.0344989116        -5.05973012
                     0.0319278711        -31.3990855      0.00010877262         151.852572       0.0712103404        -171.542694     0.000276712383         153.465634
                   0.000419848184         157.092513       0.0344989129        -5.05973643     0.000276712383         153.465634       0.0656356846         178.578693

         160000000      0.0685357477        -177.490624     0.000190334939         147.213088       0.0316198488        -41.0854803     0.000448665301         149.666302
                   0.000190334939         147.213088       0.0610777697         169.460997     0.000115888131         144.442191       0.0350236293        -9.62065545
                     0.0316198492        -41.0854784      0.00011588813         144.442191       0.0684095644        -177.424046     0.000294539335         146.006899
                   0.000448665299         149.666303       0.0350236398        -9.62065762     0.000294539335         146.006899       0.0611822418         169.598751

         170000000      0.0648108396         177.421988      0.00020269255         139.541707       0.0311490384        -51.3418391     0.000477311815         142.235393
                    0.00020269255         139.541707       0.0554081938         160.183576     0.000122990233         137.020711         0.03543842        -13.9022764
                     0.0311490297        -51.3418319     0.000122990242         137.020712       0.0646695145         177.507461     0.000312031258         138.569745
                   0.000477311815         142.235393       0.0354384296        -13.9022746     0.000312031257         138.569745       0.0554790336         160.347991

         180000000      0.0603715882         173.254497      0.00021497164         131.845149       0.0306149002        -62.2574712     0.000505910089         134.785682
                   0.000214971639         131.845149        0.048658511         150.238085     0.000130091054         129.567968       0.0358055296        -17.9132908
                     0.0306149005        -62.2574648     0.000130091054         129.567968       0.0602198135          173.36709     0.000329257488         131.144103
                   0.000505910088         134.785682       0.0358055306        -17.9132942     0.000329257489         131.144103       0.0486896826          150.43481

         190000000      0.0554273098         170.325484      0.00022719698         124.127684       0.0301155005        -73.8962232     0.000534525106         127.316438
                    0.00022719698         124.127684       0.0409511652         139.067082     0.000137195481         122.081889       0.0362373796        -21.5412051
                     0.0301155002        -73.8962064     0.000137195481         122.081889       0.0552724647         170.475994     0.000346280444         123.735321
                   0.000534525105         127.316438       0.0362373803        -21.5412075     0.000346280446         123.735321       0.0409357899         139.304456

         200000000      0.0502353271         169.203491     0.000239299298         116.417385       0.0297551109         -86.272233     0.000563074937         119.850265
                   0.000239299298         116.417385       0.0324506482         125.616695     0.000144290156         114.588322       0.0368058994        -25.4872945
                     0.0297551099        -86.2722164     0.000144290155         114.588322       0.0500895694         169.406823     0.000363141736         116.373415
                   0.000563074935         119.850265       0.0368058996        -25.4872941     0.000363141738         116.373415       0.0323806218         125.902596

         210000000      0.0453773867         170.410908     0.000251357809          108.70785       0.0296649683        -99.3130716     0.000591707659         112.375379
                   0.000251357804         108.707852        0.023774156         106.851217     0.000151390328         107.077109       0.0372388397        -29.0348999
                     0.0296649685         -99.313072     0.000151390328         107.077109        0.045258154         170.681368     0.000379988433         109.045643
                   0.000591707659         112.375379       0.0372388398        -29.0348995     0.000379988433         109.045643        0.023638241         107.164972

         220000000        0.04159113         174.411366     0.000263413782          100.99692       0.0299641154        -112.842781     0.000620495309         104.887118
                   0.000263413697         100.996912       0.0165807403         74.8839417     0.000158505104         99.5464212       0.0378447061        -32.4538363
                     0.0299641129        -112.842765     0.000158505104         99.5464209        0.041522192         174.751835     0.000396952999         101.745751
                   0.000620495307         104.887118       0.0378447063        -32.4538359     0.000396953002         101.745751        0.016378422         74.9917821

         230000000      0.0397394087         -178.84437     0.000275452034         93.2890145       0.0307435956        -126.604946     0.000649412077         97.3866973
                   0.000275452033         93.2890145       0.0153079564          24.150104     0.000165632515         92.0040168       0.0386039369        -35.8397424
                     0.0307435921        -126.604931     0.000165632516          92.004017       0.0397449732        -178.463879     0.000414143146         94.4734918
                   0.000649412075         97.3866974       0.0386039371         -35.839742     0.000414143148         94.4734918       0.0151455482          23.565802

         240000000      0.0406686347         -170.94798     0.000287566426          85.568548       0.0320644227        -140.270528      0.00067858843         89.8580288
                   0.000287566425          85.568548       0.0222025666        -15.7127609     0.000172788338         84.4359747       0.0395389461        -39.2774324
                     0.0320644148        -140.270536     0.000172788338         84.4359743       0.0407592551        -170.593858     0.000431717518         87.2032638
                   0.000678588429         89.8580286       0.0395389462        -39.2774322     0.000431717515         87.2032653       0.0221741233        -16.3473613

         250000000      0.0445318165        -164.319391     0.000299756564         77.8278973       0.0339389251        -153.525609     0.000707990391         82.2939106
                   0.000299756564         77.8278972       0.0329088389        -37.8518037     0.000179968902         76.8410621       0.0406617811        -42.8406664
                      0.033938925         -153.52561     0.000179968902         76.8410621       0.0446957679        -164.049121     0.000449768979         79.9163154
                   0.000707990391         82.2939106       0.0406617811        -42.8406661      0.00044976898         79.9163154       0.0329744961        -38.3069319

         260000000      0.0508601833        -160.264797     0.000312004674         70.0607017       0.0363289351        -166.169613     0.000737531923         74.6885886
                   0.000312004673         70.0607017        0.044971847        -52.5755735     0.000187164571         69.2185985       0.0419618605        -46.5755503
                     0.0363289228        -166.169611      0.00018716457         69.2185984       0.0510741019        -160.093699     0.000468338177           72.59809
                   0.000737531919         74.6885885       0.0419618607          -46.57555     0.000468338181         72.5980901       0.0451007869        -52.9080348

         270000000      0.0589659388        -158.975821     0.000324330886         62.2537163       0.0391684213        -178.087754     0.000767175676          67.031398
                   0.000324330885         62.2537163       0.0575933032        -64.1155785     0.000194369287         61.5601787       0.0434315667         -50.534863
                     0.0391684212        -178.087754     0.000194369288         61.5601787       0.0592062411        -158.890667     0.000487452257         65.2250359
                   0.000767175676          67.031398       0.0434315669        -50.5348627     0.000487452257         65.2250359       0.0577688656        -64.3697549

         280000000      0.0680169476        -160.111319     0.000336654933         54.3986395        0.042376258         170.778195     0.000796705142         59.3177005
                   0.000336654932         54.3986395       0.0702241583        -73.9077935     0.000201555582         53.8650126       0.0450676899        -54.7743836
                     0.0423762521         170.778203     0.000201555581         53.8650129       0.0682641569        -160.091494      0.00050703233          57.774333
                    0.00079670514         59.3177006       0.0450676899        -54.7743833     0.000507032332         57.7743327       0.0704347697        -74.1105562

         290000000      0.0776356348        -162.892279     0.000348943883         46.4867378       0.0458589027         160.354715     0.000825972115         51.5421022
                   0.000348943883         46.4867377       0.0827439404        -82.8346266     0.000208701022         46.1277918       0.0468345346        -59.2958517
                     0.0458589027         160.354715     0.000208701022         46.1277918       0.0778756904        -162.921582     0.000526979017         50.2347403
                   0.000825972115         51.5421022       0.0468345346        -59.2958512     0.000526979017         50.2347403       0.0829806522        -83.0008042

         300000000      0.0874187397        -166.866932      0.00036108063         38.5173996       0.0495300103         150.577364     0.000854682236         43.7074191
                    0.00036108063         38.5173996       0.0949130204        -91.2059791     0.000215765591         38.3515803        0.048707831        -64.1045653
                     0.0495300105         150.577364     0.000215765584         38.3515792        0.087640811        -166.934545     0.000547105334         42.5986459
                   0.000854682236         43.7074191       0.0487078322        -64.1045759     0.000547105335         42.5986459       0.0951675922        -91.3449401

         310000000      0.0969387432        -171.773437      0.00037296554         30.4906622       0.0533036098         141.391756     0.000882565343         35.8184419
                    0.00037296554         30.4906622        0.106449827        -99.1065624     0.000222705726         30.5389624        0.050669808        -69.2173978
                     0.0533036034         141.391762     0.000222705725         30.5389627        0.097133844        -171.871933     0.000567159239         34.8598629
                   0.000882565342         35.8184421       0.0506698078        -69.2173976      0.00056715924         34.8598626        0.106714599        -99.2245558

         320000000       0.106064572        -177.322127     0.000384499852         22.4055181       0.0571052413         132.696019     0.000909364668         27.8776392
                   0.000384499852          22.405518        0.117292651         -106.70543     0.000229482133         22.6893587        0.052685605        -74.6105366
                     0.0571052414         132.696018     0.000229482133         22.6893586        0.106225805        -177.446599     0.000586902291         27.0195154
                   0.000909364668         27.8776392       0.0526856051        -74.6105362     0.000586902291         27.0195154        0.117559697         -106.80701

         330000000       0.114394036         176.614875     0.000395428848          14.278453       0.0608711592         124.439354     0.000934579755         19.9031431
                   0.000395428848          14.278453        0.127069566        -114.030886     0.000236035214         14.8187831       0.0547434429        -80.2699316
                      0.060871153         124.439359     0.000236035215         14.8187834         0.11451552         176.467024     0.000605969744         19.0883344
