! Created Fri Jun 28 09:24:52 2019
# hz S ma R 50
! 4 Port Network Data from SP1.SP block
! freq  magS11  angS11  magS12  angS12  magS13  angS13  magS14  angS14  
!       magS21  angS21  magS22  angS22  magS23  angS23  magS24  angS24  
!       magS31  angS31  magS32  angS32  magS33  angS33  magS34  angS34  
!       magS41  angS41  magS42  angS42  magS43  angS43  magS44  angS44  
!     
          50000000      0.0497331971        -86.0964883        0.960831896        -37.3544463       0.0174041426         48.5019832       0.0021156284        -124.611593
                      0.960831896        -37.3544463       0.0490001335         -87.503735       0.0021168745         -124.59086       0.0174797942         52.5514674
                     0.0174041508          48.502033       0.0021168753        -124.591026       0.0497648942        -86.2110327        0.960791728        -37.3868672
                    0.00211562924        -124.611755       0.0174797908         52.5514586        0.960791728        -37.3868672       0.0491256253        -87.5308638

          60000000      0.0552663405        -97.2037684        0.957916229        -44.7506982       0.0202440547         40.9757436       0.0026409526        -126.394065
                      0.957916229        -44.7506982       0.0542333016        -99.0812491      0.00264291471        -126.380279       0.0203697908         46.1044949
                     0.0202440579         40.9757487      0.00264291506        -126.380294       0.0552858822        -97.3382377        0.957876434        -44.7895339
                    0.00264095289        -126.394084       0.0203697878         46.1044919        0.957876434        -44.7895339       0.0543801563        -99.0957423

          70000000       0.060487759        -107.235233        0.954764685        -52.1240503       0.0228090663         33.3638403      0.00325282224        -129.691762
                      0.954764685        -52.1240503       0.0591167537        -109.628147      0.00325552177        -129.686043       0.0230007454         39.7305237
                     0.0228090658         33.3638321      0.00325552286        -129.686028       0.0604997012        -107.390716        0.954722394        -52.1692672
                    0.00325282324        -129.691751       0.0230007425         39.7305267        0.954722394        -52.1692672       0.0592809295        -109.629811

          80000000      0.0652023658         -116.43564        0.951420219        -59.4708821       0.0250766964         25.6663353      0.00394788771        -134.275417
                      0.951420219        -59.4708821       0.0634340809        -119.438546       0.0039513471        -134.277832        0.025356375         33.4718358
                     0.0250767037         25.6663131      0.00395134718        -134.277794       0.0652046221        -116.612032        0.951375151        -59.5224516
                    0.00394788782        -134.275378       0.0253563723         33.4718407         0.95137515        -59.5224516       0.0636116226        -119.427422

          90000000      0.0691633892        -125.165878        0.948008198        -66.7970122       0.0270416382         17.8708683       0.0047240516        -139.937413
                      0.948008198        -66.7970122       0.0669152536        -128.908484      0.00472825167        -139.947627       0.0274372902         27.3549291
                     0.0270416359         17.8708375      0.00472824931        -139.947565       0.0691518949         -125.36224        0.947960863        -66.8549184
                    0.00472404836        -139.937348       0.0274372968         27.3549412        0.947960863        -66.8549184       0.0671016547        -128.883984

         100000000       0.072341898        -133.338796        0.944524435        -74.0962995        0.028688966         9.96451942      0.00556578648        -146.424653
                      0.944524435        -74.0962995       0.0695129081        -137.975305       0.0055706561         -146.44211       0.0292342815         21.4106853
                     0.0286889728         9.96447521      0.00557064864        -146.441974       0.0723122496        -133.553776        0.944477591        -74.1604987
                    0.00556577884        -146.424526        0.029234306         21.4107077        0.944477591        -74.1604988       0.0697038928        -137.937425

         110000000      0.0745836715        -140.997373        0.941007928        -81.3614785       0.0300098561         1.91686476      0.00645732671        -153.572268
                      0.941007929        -81.3614785       0.0710831107        -146.731431      0.00646281107        -153.595555        0.030742129         15.6707528
                     0.0300098632         1.91683216      0.00646280878        -153.595459       0.0745346829        -141.230592        0.940959195          -81.43199
                    0.00645732239        -153.572177       0.0307421455         15.6707648        0.940959195          -81.43199       0.0712737653        -146.681085

         120000000      0.0758121052        -148.353323        0.937585911        -88.6131296       0.0310363463         -6.2999418      0.00739588236        -161.209991
                      0.937585911        -88.6131296       0.0715094397        -155.429313      0.00740188577        -161.238444       0.0320007128         10.1325966
                     0.0310363537        -6.29996601      0.00740188596        -161.238371       0.0757408268        -148.604558        0.937537636        -88.6899202
                     0.0073958796        -161.209922       0.0320007303         10.1326043        0.937537636        -88.6899202       0.0716942564         -155.36514

         130000000      0.0759772979        -155.459041         0.93431878        -95.8593839       0.0317898463        -14.7311197      0.00837444836        -169.248575
                       0.93431878        -95.8593839       0.0707288939        -164.198143       0.0083808793        -169.281508       0.0330389263         4.80992026
                     0.0317898541        -14.7311346      0.00838088068        -169.281454       0.0758814811         -155.72777        0.934269753        -95.9424504
                    0.00837444694        -169.248518       0.0330389353         4.80992096        0.934269753        -95.9424504       0.0709017566        -164.118396

         140000000      0.0750855068        -161.998267         0.93116765         -103.07192       0.0322616346        -23.4040833      0.00936628764        -177.519358
                       0.93116765         -103.07192       0.0687227968        -172.809674      0.00937303724        -177.556167       0.0338512334       -0.249817005
                     0.0322616426        -23.4040928       0.0093730394        -177.556121       0.0749624738        -162.283389        0.931118413        -103.161292
                    0.00936628606         -177.51931       0.0338512515       -0.249810187        0.931118413        -103.161292       0.0688785184        -172.713118

         150000000      0.0731741793        -168.100344        0.928172449        -110.276177        0.032508713        -32.3816353       0.0103725184         174.009971
                      0.928172449        -110.276177         0.06550266         178.463064       0.0103794889         173.969838       0.0344989116        -5.05973012
                     0.0325087124        -32.3816403       0.0103794905         173.969856       0.0730224072        -168.400354        0.928123506        -110.371831
                     0.0103725182         174.009995       0.0344989129        -5.05973643        0.928123506        -110.371831       0.0656356846         178.578693

         160000000      0.0702863095        -173.714369        0.925352152        -117.481324       0.0325736137        -41.7211832       0.0113880852         165.374752
                      0.925352152        -117.481324       0.0610777697         169.460997       0.0113951839         165.331792       0.0350236293        -9.62065545
                     0.0325736132        -41.7211865       0.0113951857         165.331811       0.0701048795        -174.027067        0.925303975        -117.583302
                     0.0113880841         165.374772       0.0350236398        -9.62065762        0.925303975        -117.583302       0.0611822418         169.598751

         170000000      0.0664359674        -178.534813        0.922726101        -124.665274       0.0324833655        -51.4685407       0.0123857997         156.665789
                      0.922726102        -124.665274       0.0554081938         160.183576       0.0123929507         156.620463         0.03543842        -13.9022764
                     0.0324833651        -51.4685425       0.0123929512         156.620478       0.0662241539        -178.856497        0.922678681        -124.773601
                     0.0123857992         156.665803       0.0354384296        -13.9022746         0.92267868        -124.773601       0.0554790336         160.347991

         180000000      0.0618547163         177.547408        0.920248067        -131.849433       0.0323139678        -61.6748186       0.0133727699         147.893913
                      0.920248067        -131.849433        0.048658511         150.238085       0.0133798942         147.846533       0.0358055296        -17.9132908
                     0.0323139675        -61.6748186       0.0133798952         147.846541       0.0616127871         177.223324        0.920203399        -131.964145
                     0.0133727708         147.893925       0.0358055306        -17.9132942        0.920203399        -131.964145       0.0486896826          150.43481

         190000000       0.056757014         174.843796        0.917895195        -139.040745       0.0321322182        -72.3759011       0.0143458469         139.084474
                      0.917895195        -139.040745       0.0409511652         139.067082       0.0143529147         139.035343       0.0362373796        -21.5412051
                      0.032132218        -72.3759013       0.0143529157         139.035347       0.0564870341          174.52856         0.91785117        -139.161878
                     0.0143458468         139.084481       0.0362373803        -21.5412075         0.91785117        -139.161878       0.0409357899         139.304456

         200000000       0.051406653         173.916539         0.91568474        -146.224972        0.032004144        -83.5817749       0.0152915471         130.270688
                       0.91568474        -146.224972       0.0324506482         125.616695       0.0152985222          130.21999       0.0368058994        -25.4872945
                     0.0320041439         -83.581775       0.0152985239         130.219994       0.0511131717         173.629177        0.915641042        -146.352565
                     0.0152915479         130.270692       0.0368058996        -25.4872941        0.915641042        -146.352565       0.0323806218         125.902596

         210000000      0.0463853818          175.27732        0.913546162        -153.413145       0.0320193181        -95.2581353       0.0162022211         121.458133
                      0.913546162        -153.413145        0.023774156         106.851217        0.016209097         121.406048       0.0372388397        -29.0348999
                     0.0320193179        -95.2581354       0.0162090976         121.406055       0.0460785799         175.047541        0.913502271        -153.547217
                     0.0162022219         121.458137       0.0372388398        -29.0348995        0.913502271        -153.547217        0.023638241         107.164972

         220000000      0.0424279042         179.392582        0.911439778        -160.606198       0.0322592793        -107.321626       0.0170821865         112.678277
                      0.911439778        -160.606198       0.0165807403         74.8839417       0.0170889739         112.624864       0.0378447061        -32.4538363
                     0.0322592791        -107.321626       0.0170889746         112.624868       0.0421269624         179.256949        0.911394956        -160.746782
                      0.017082187         112.678283       0.0378447063        -32.4538359        0.911394956        -160.746782        0.016378422         74.9917821

         230000000      0.0403977605        -173.749943        0.909348807        -167.799334        0.032790641        -119.653673       0.0179179878         103.944139
                      0.909348807        -167.799333       0.0153079564          24.150104       0.0179246962         103.889377       0.0386039369        -35.8397424
                     0.0327906408        -119.653672       0.0179246967         103.889384       0.0401318853        -173.769922        0.909304101        -167.946423
                     0.0179179885         103.944143       0.0386039371         -35.839742        0.909304101        -167.946423       0.0151455482          23.565802

         240000000      0.0411441585        -165.677298        0.907211532        -174.998458       0.0336727931        -132.076279       0.0187211111         95.2544323
                      0.907211532        -174.998458       0.0222025666        -15.7127609       0.0187277895         95.1981961       0.0395389461        -39.2774324
                      0.033672793        -132.076279       0.0187277901         95.1981997       0.0409442543        -165.611335         0.90716236        -175.152037
                     0.0187211117         95.2544359       0.0395389462        -39.2774322         0.90716236        -175.152037       0.0221741233        -16.3473613

         250000000      0.0448326815        -158.777446        0.904996101         177.800103        0.034940352        -144.391037       0.0194891341         86.6249721
                      0.904996101         177.800103       0.0329088389        -37.8518037       0.0194957844         86.5671034       0.0406617811        -42.8406664
                     0.0349403517        -144.391037       0.0194957838         86.5671086       0.0447119345        -158.695833        0.904945148         177.640057
                     0.0194891347         86.6249755       0.0406617811        -42.8406661        0.904945148         177.640057       0.0329744961        -38.3069319

         260000000      0.0510037263        -154.399822         0.90268533         170.598794       0.0365929561        -156.443051       0.0202158977         78.0558405
                       0.90268533         170.598794        0.044971847        -52.5755735       0.0202225442         77.9960883       0.0419618605        -46.5755503
                     0.0365929559        -156.443051       0.0202225447         77.9960917       0.0509562968        -154.359782        0.902630047         170.432308
                     0.0202158979         78.0558464       0.0419618607          -46.57555        0.902630047         170.432308       0.0451007869        -52.9080348

         270000000      0.0589589088        -152.788308        0.900243593          163.39714        0.038609817        -168.099041       0.0209084348         69.5436126
                      0.900243593          163.39714       0.0575933032        -64.1155785       0.0209150574         69.4816908       0.0434315667         -50.534863
                     0.0386098168         -168.09904       0.0209150575         69.4816965       0.0589682604        -152.812559        0.900185286         163.224276
                     0.0209084353          69.543616       0.0434315669        -50.5348627        0.900185286         163.224276       0.0577688656        -64.3697549

         280000000      0.0678439931        -153.617951          0.8976752         156.200911       0.0409564816        -179.240821       0.0215676519         61.1044483
                        0.8976752         156.200911       0.0702241583        -73.9077935       0.0215742234         61.0399946       0.0450676899        -54.7743836
                     0.0409564814        -179.240821        0.021574223         61.0399969       0.0678924058         -153.70713         0.89761159         156.021727
                     0.0215676523         61.1044515       0.0450676899        -54.7743833         0.89761159         156.021727       0.0704347697        -74.1105562

         290000000      0.0772736951        -156.120453        0.894972093         149.008359       0.0435727116         170.132925       0.0221948801         52.7187673
                      0.894972093         149.008359       0.0827439404        -82.8346266       0.0222013229         52.6514247       0.0468345346        -59.2958517
                     0.0435727113         170.132925       0.0222013221          52.651429       0.0773463177        -156.267566        0.894903014         148.822935
                     0.0221948797         52.7187695       0.0468345346        -59.2958512        0.894903014         148.822935       0.0829806522        -83.0008042

         300000000      0.0868366547        -159.842123        0.892147449          141.82382       0.0464003429         160.025145       0.0227862586         44.3913984
                      0.892147449          141.82382       0.0949130204        -91.2059791       0.0227924531         44.3208137        0.048707831        -64.1045653
                     0.0464003427         160.025146       0.0227924533          44.320814       0.0869212454         -160.03882        0.892072999         141.632245
                     0.0227862588         44.3913988       0.0487078322        -64.1045759        0.892072999         141.632245       0.0951675922        -91.3449401

         310000000      0.0960947338        -164.514838        0.889202173         134.653178       0.0493767897         150.437379       0.0233517241         36.1250934
                      0.889202173         134.653178        0.106449827        -99.1065624       0.0233574763         36.0509571        0.050669808        -69.2173978
                     0.0493767956         150.437372       0.0233574762          36.050955       0.0961814873         -164.75345        0.889124542         134.455517
                      0.023351724         36.1250914       0.0506698078        -69.2173976        0.889124542         134.455517        0.106714599        -99.2245558

         320000000       0.104918224        -169.849287        0.886169812         127.494091       0.0524404864         141.305036       0.0238913412         27.9045172
                      0.886169812         127.494091        0.117292651         -106.70543       0.0238964464         27.8265642        0.052685605        -74.6105366
                     0.0524404863         141.305036       0.0238964459         27.8265661        0.104998925        -170.124053        0.886087789         127.290433
                     0.0238913408         27.9045191       0.0526856051        -74.6105362        0.886087789         127.290433        0.117559697         -106.80701

         330000000       0.112904588        -175.712693        0.883141955         120.352644       0.0555406692         132.603376        0.024388363         19.7469136
                      0.883141955         120.352644        0.127069566        -114.030886       0.0243925265         19.6649503       0.0547434429        -80.2699316
                      0.055540669         132.603377       0.0243925261         19.6649521        0.112972912        -176.018796        0.883058456         120.143025
