! Created Fri Jun 28 09:33:41 2019
# hz S ma R 50
! 4 Port Network Data from SP1.SP block
! freq  magS11  angS11  magS12  angS12  magS13  angS13  magS14  angS14  
!       magS21  angS21  magS22  angS22  magS23  angS23  magS24  angS24  
!       magS31  angS31  magS32  angS32  magS33  angS33  magS34  angS34  
!       magS41  angS41  magS42  angS42  magS43  angS43  magS44  angS44  
!     
          50000000    0.000842071221         48.5829165     7.52796604e-07         130.170942     0.000575535405          86.094687     3.54286035e-05         86.3550167
                    7.5279671e-07         130.170951       0.0490001335         -87.503735     1.21022968e-06         111.717121       0.0174797942         52.5514674
                   0.000575535226         86.0946905     1.21022963e-06         111.717114     0.000781010431          43.851432     3.69874207e-05         86.2823355
                   3.54286035e-05         86.3550167       0.0174797908         52.5514586     3.69874208e-05         86.2823356       0.0491256253        -87.5308638

          60000000    0.000935324391         52.2551062     1.04702458e-06         126.378199     0.000685956498         86.6512445     4.20623369e-05         85.8603049
                    1.0470247e-06         126.378202       0.0542333016        -99.0812491     1.60809461e-06          111.21776       0.0203697908         46.1044949
                   0.000685956407          86.651248     1.60809452e-06         111.217757     0.000856203392         47.5463417     4.39486386e-05         85.8822543
                   4.20623369e-05         85.8603049       0.0203697878         46.1044919     4.39486386e-05         85.8822543       0.0543801563        -99.0957423

          70000000       0.001034072          55.104942     1.37474429e-06         121.998547     0.000799496191         86.8294624       4.850794e-05         85.5104357
                   1.37474444e-06         121.998545       0.0591167537        -109.628147     2.04807048e-06         109.642435       0.0230007454         39.7305237
                   0.000799496149         86.8294651     2.04807033e-06         109.642436     0.000936653695          50.485506     5.07295903e-05         85.5989142
                     4.850794e-05         85.5104357       0.0230007425         39.7305267     5.07295903e-05         85.5989142       0.0592809295        -109.629811

          80000000     0.00113418969         57.4605103     1.72818801e-06         117.316359     0.000913223894         86.9086977     5.47804605e-05         85.3113947
                   1.72818818e-06         117.316355       0.0634340809        -119.438546     2.52044473e-06         107.361641        0.025356375         33.4718358
                   0.000913223878         86.9086995     2.52044455e-06         107.361642      0.00101893305         52.9163086     5.73448416e-05          85.443966
                   5.47804605e-05         85.3113947       0.0253563723         33.4718407     5.73448416e-05          85.443966       0.0636116226        -119.427422

          90000000     0.00123501733         59.3883184     2.10016157e-06          112.49458      0.00102617366         86.9835965     6.09029655e-05         85.2779004
                   2.10016118e-06         112.494569       0.0669152536        -128.908484     3.01547313e-06         104.618761       0.0274372902         27.3549291
                    0.00102617366         86.9835975     3.01547344e-06          104.61877      0.00110164887         54.9530057     6.38168597e-05         85.4340861
                   6.09029655e-05         85.2779004       0.0274372968         27.3549412     6.38168597e-05          85.434086       0.0671016547        -128.883984

         100000000     0.00133592674         61.0072011     2.48280685e-06         107.646053       0.0011383252         87.0741066     6.69364617e-05         85.3958113
                   2.48280513e-06          107.64603       0.0695129081        -137.975305      3.5225052e-06         101.594409       0.0292342815         21.4106853
                    0.00113832521         87.0741069     3.52250673e-06         101.594427      0.00118448971         56.6849744     7.02044773e-05         85.5579475
                   6.69364617e-05         85.3958113        0.029234306         21.4107077     7.02044773e-05         85.5579475       0.0697038928        -137.937425

         110000000     0.00143648431          62.391558     2.86911345e-06         102.845543      0.00125263511         87.4134607     7.29559237e-05         85.6470654
                   2.86911217e-06         102.845531       0.0710831107        -146.731431     4.03196248e-06         98.4111954        0.030742129         15.6707528
                    0.00125263511         87.4134609     4.03196366e-06         98.4112049      0.00126694713         58.1846559     7.65790124e-05         85.7990288
                   7.29559237e-05         85.6470654       0.0307421455         15.6707648     7.65790124e-05         85.7990288       0.0712737653        -146.681085

         120000000     0.00153775817         63.5588746     3.25461365e-06         98.1406275      0.00136787431         87.6336168     7.90282775e-05         86.0264262
                   3.25461214e-06         98.1406195       0.0715094397        -155.429313     4.53680887e-06         95.1622579       0.0320007128         10.1325966
                    0.00136787432          87.633617     4.53681028e-06         95.1622643      0.00135018891          59.459464     8.30048562e-05         86.1536192
                   7.90282775e-05         86.0264262       0.0320007303         10.1326043     8.30048561e-05         86.1536192       0.0716942564         -155.36514

         130000000     0.00163940016         64.5469207     3.63578744e-06         93.5679423      0.00148413903         87.7709713     8.52419499e-05         86.5037382
                   3.63578659e-06         93.5679411       0.0707288939        -164.198143     5.03133906e-06          91.912556       0.0330389263         4.80992026
                    0.00148413903         87.7709714     5.03133988e-06         91.9125571      0.00143385717           60.54584     8.95662925e-05         86.5946159
                   8.52419499e-05         86.5037382       0.0330389353         4.80992096     8.95662925e-05         86.5946159       0.0709017566        -164.118396

         140000000     0.00174113583         65.3864953     4.00656155e-06         89.1874603      0.00160178078         87.8443576     9.16948207e-05          87.012121
                   4.00655972e-06         89.1874537       0.0687227968        -172.809674     5.50767204e-06         88.7399702       0.0338512334       -0.249817005
                    0.00160178078         87.8443577     5.50767378e-06          88.739975       0.0015176679          61.474333     9.63565029e-05         87.0616785
                   9.16948207e-05          87.012121       0.0338512515       -0.249810187     9.63565028e-05         87.0616785       0.0688785184        -172.713118

         150000000     0.00184274924           66.10274     4.36832843e-06         85.0008726       0.0017215388          87.852979     9.84483216e-05         87.5160389
                   4.36832829e-06          85.000878         0.06550266         178.463064     5.96582616e-06         85.6670203       0.0344989116        -5.05973012
                    0.00172153881         87.8529791      5.9658263e-06         85.6670165      0.00160139595         62.2704446     0.000103433833         87.5230829
                   9.84483216e-05         87.5160389       0.0344989129        -5.05973643     0.000103433833         87.5230829       0.0656356846         178.578693

         160000000     0.00194407129         66.7162229     4.72214128e-06         81.0155398      0.00184459269         87.7566012     0.000105558325          87.970038
                   4.72214005e-06         81.0155415       0.0610777697         169.460997     6.40570754e-06         82.7155835       0.0350236293        -9.62065545
                    0.00184459269         87.7566013     6.40570871e-06          82.715582      0.00168486364         62.9554205     0.000110851449         87.9380538
                   0.000105558325          87.970038       0.0350236398        -9.62065762     0.000110851449         87.9380538       0.0611822418         169.598751

         170000000     0.00204497105         67.2438166     5.06699147e-06         77.2615861      0.00197098685         87.4212859     0.000113060994         88.3165048
                   5.06699028e-06         77.2615844       0.0554081938         160.183576     6.82565599e-06         79.9242332         0.03543842        -13.9022764
                    0.00197098685         87.4212859     6.82565713e-06         79.9242339      0.00176793211         63.5469537     0.000118643929          88.254569
                   0.000113060994         88.3165048       0.0354384296        -13.9022746     0.000118643929          88.254569       0.0554790336         160.347991

         180000000     0.00214534886         67.6993775     5.40922174e-06         73.7170646      0.00208999782         86.6712141     0.000120945341         88.5265178
                   5.40922161e-06         73.7170676        0.048658511         150.238085     7.23158566e-06         77.2845477       0.0358055296        -17.9132908
                    0.00208999782         86.6712141     7.23158577e-06         77.2845455      0.00185049475         64.0597557     0.000126800872         88.4464322
                   0.000120945341         88.5265178       0.0358055306        -17.9132942     0.000126800872         88.4464322       0.0486896826          150.43481

         190000000      0.0022451274         68.0942932     5.75462442e-06         70.3652641      0.00218176265         86.0290706     0.000129182402         88.5735483
                   5.75462433e-06         70.3652662       0.0409511652         139.067082     7.62901593e-06         74.7901439       0.0362373796        -21.5412051
                    0.00218176265         86.0290706     7.62901601e-06         74.7901423       0.0019324682         64.5060349     0.000135294732         88.4893434
                   0.000129182402         88.5735483       0.0362373803        -21.5412075     0.000135294732         88.4893434       0.0409357899         139.304456

         200000000     0.00234424715         68.4381177     6.10743221e-06         67.1813226      0.00226933572         86.0796703      0.00013771163         88.4347875
                   6.10743217e-06         67.1813222       0.0324506482         125.616695     8.02214115e-06         72.4276279       0.0368058994        -25.4872945
                    0.00226933572         86.0796704      8.0221412e-06         72.4276281      0.00201378748         64.8961291      0.00014406765         88.3621322
                    0.00013771163         88.4347875       0.0368058996        -25.4872941      0.00014406765         88.3621322       0.0323806218         125.902596

         210000000     0.00244267032         68.7388184     6.47579244e-06         64.1305932      0.00237006434         86.3185828     0.000146441021         88.1116195
                   6.47579241e-06         64.1305928        0.023774156         106.851217     8.41904863e-06         70.1708473       0.0372388397        -29.0348999
                    0.00237006434         86.3185828     8.41904866e-06         70.1708475      0.00209440996         65.2387347     0.000153031327         88.0656466
                   0.000146441021         88.1116195       0.0372388398        -29.0348995     0.000153031327         88.0656466        0.023638241         107.164972

         220000000     0.00254037283          69.002975     6.86883734e-06         61.1520948      0.00247806516          86.487968     0.000155263116         87.6110479
                   6.86883731e-06         61.1520944       0.0165807403         74.8839417     8.82855879e-06         67.9694052       0.0378447061        -32.4538363
                    0.00247806516          86.487968     8.82855882e-06         67.9694054      0.00217430762          65.541076     0.000162082353         87.6059118
                   0.000155263116         87.6110479       0.0378447063        -32.4538359     0.000162082353         87.6059118        0.016378422         74.9917821

         230000000     0.00263734072         69.2360857     7.29205511e-06         58.1971441      0.00258875743          86.580226     0.000164049754         86.9413939
                   7.29205509e-06         58.1971438       0.0153079564          24.150104     9.25588482e-06         65.7831265       0.0386039369        -35.8397424
                    0.00258875743          86.580226     9.25588485e-06         65.7831267      0.00225346316         65.8092213     0.000171097158         86.9903224
                   0.000164049754         86.9413939       0.0386039371         -35.839742     0.000171097158         86.9903224       0.0151455482          23.565802

         240000000     0.00273356883         69.4427649     7.75366758e-06         55.1857968      0.00270035874         86.6206959     0.000172669821         86.1279148
                   7.75366755e-06         55.1857966       0.0222025666        -15.7127609      9.7079935e-06         63.5400308       0.0395389461        -39.2774324
                    0.00270035874         86.6206959     9.70799353e-06         63.5400309      0.00233186865         66.0482871     0.000179949084          86.242036
                   0.000172669821         86.1279148       0.0395389462        -39.2774322     0.000179949084          86.242036       0.0221741233        -16.3473613

         250000000     0.00282905928          69.626892     8.25962269e-06         52.0447103       0.0028122131         86.6282788     0.000180991928         85.2013282
                   8.25962268e-06           52.04471       0.0329088389        -37.8518037     1.01890229e-05         61.1702624       0.0406617811        -42.8406664
                     0.0028122131         86.6282788     1.01890229e-05         61.1702626      0.00240952393         66.2625916     0.000188511233         85.3894904
                   0.000180991928         85.2013282       0.0406617811        -42.8406661     0.000188511233         85.3894904       0.0329744961        -38.3069319

         260000000     0.00292382003         69.7917333     8.81154196e-06          48.726665      0.00292407151         86.6146557     0.000188881915         84.1847928
                   8.81154193e-06         48.7266647        0.044971847        -52.5755735     1.06985853e-05         58.6269573       0.0419618605        -46.5755503
                    0.00292407152         86.6146557     1.06985853e-05         58.6269575      0.00248643511         66.4557831     0.000196654144         84.4544478
                   0.000188881915         84.1847928       0.0419618607          -46.57555     0.000196654144         84.4544478       0.0451007869        -52.9080348

         270000000     0.00301786362         69.9400437       9.410817e-06         45.1771224      0.00303583868         86.5869659     0.000196222784          83.110588
                   9.41081697e-06         45.1771221       0.0575933032        -64.1155785     1.12349176e-05         55.8533758       0.0434315667         -50.534863
                    0.00303583868         86.5869659     1.12349177e-05          55.853376      0.00256261324         66.6309461     0.000204265218         83.4672352
                   0.000196222784          83.110588       0.0434315669        -50.5348627     0.000204265218         83.4672352       0.0577688656        -64.3697549

         280000000     0.00311120605         70.0741496     1.00589604e-05          41.336569      0.00314748099         86.5496828     0.000202931823         82.0262065
                   1.00589604e-05         41.3365688       0.0702241583        -73.9077935      1.1794984e-05         52.7821886       0.0450676899        -54.7743836
                      0.003147481         86.5496828     1.17949841e-05         52.7821888      0.00263807316         66.7906913     0.000211265734         82.4722223
                   0.000202931823         82.0262065       0.0450676899        -54.7743833     0.000211265734         82.4722223       0.0704347697        -74.1105562

         290000000     0.00320386596         70.1960186     1.07506466e-05         37.1999911      0.00325899093         86.5056964     0.000208923149         80.9538219
                   1.07506466e-05         37.1999907       0.0827439404        -82.8346266     1.23696991e-05         49.4009285       0.0468345346        -59.2958517
                    0.00325899093         86.5056964     1.23696992e-05         49.4009288      0.00271283264         66.9372297     0.000217574182         81.4905974
                   0.000208923149         80.9538219       0.0468345346        -59.2958512     0.000217574182         81.4905974       0.0829806522        -83.0008042

         300000000     0.00329586379         70.3073171     1.14817456e-05         32.7575097       0.0033703721         86.4569291     0.000214147196         79.9312462
                   1.14817455e-05         32.7575195       0.0949130204        -91.2059791     1.29504456e-05         45.6878165        0.048707831        -64.1045653
                     0.0033703721         86.4569291     1.29504453e-05         45.6878082      0.00278691147         67.0724358     0.000223145109         80.5577969
                   0.000214147196         79.9312462       0.0487078322        -64.1045759     0.000223145109         80.5577969       0.0951675922        -91.3449401

         310000000     0.00338722121         70.4094586     1.22483565e-05         27.9877685      0.00348163279         86.4046915     0.000218624546         79.0007857
                   1.22483565e-05         27.9877683        0.106449827        -99.1065624     1.35273084e-05         41.6081608        0.050669808        -69.2173978
                    0.00348163279         86.4046915     1.35273084e-05         41.6081609      0.00286033086         67.1978999      0.00022800146         79.7130345
                   0.000218624546         79.0007857       0.0506698078        -69.2173976      0.00022800146         79.7130345        0.106714599        -99.2245558

         320000000     0.00347796056         70.5036435     1.30426764e-05         22.9107139      0.00359278298         86.3498953     0.000222366292         78.1881378
                   1.30426764e-05         22.9107135        0.117292651         -106.70543     1.40884228e-05         37.1691619        0.052685605        -74.6105366
                    0.00359278298         86.3498953     1.40884228e-05         37.1691621       0.0029331129         67.3149725     0.000232157305         78.9800731
                   0.000222366292         78.1881378       0.0526856051        -74.6105362     0.000232157305         78.9800731        0.117559697         -106.80701

         330000000     0.00356810446         70.5908932     1.38613788e-05         17.5340557      0.00370383293         86.2931859     0.000225459474          77.537049
                   1.38613788e-05         17.5340554        0.127069566        -114.030886     1.46259627e-05         32.3575077       0.0547434429        -80.2699316
                    0.00370383293         86.2931859     1.46259628e-05         32.3575079      0.00300528003         67.4248019     0.000235701038         78.3986088
