! Created Fri Jun 28 09:32:05 2019
# hz S ma R 50
! 4 Port Network Data from SP1.SP block
! freq  magS11  angS11  magS12  angS12  magS13  angS13  magS14  angS14  
!       magS21  angS21  magS22  angS22  magS23  angS23  magS24  angS24  
!       magS31  angS31  magS32  angS32  magS33  angS33  magS34  angS34  
!       magS41  angS41  magS42  angS42  magS43  angS43  magS44  angS44  
!     
          50000000    0.000834145132         48.0682489     3.57360239e-05         86.3674136     0.000574962473         86.0820058     6.59892314e-07         138.936574
                   3.57360239e-05         86.3674136       0.0490001335         -87.503735     3.75230162e-05         86.3441012       0.0174797942         52.5514674
                   0.000574962446         86.0819654     3.75230162e-05         86.3441011      0.00078407617         44.0295956     7.07782493e-07         130.923225
                   6.59892194e-07         138.936564       0.0174797908         52.5514586     7.07782399e-07         130.923215       0.0491256253        -87.5308638

          60000000    0.000925154923         51.7444006      4.2430488e-05         85.8845227      0.00068534498         86.6469902     9.23981062e-07         133.222767
                    4.2430488e-05         85.8845227       0.0542333016        -99.0812491     4.45957231e-05         85.9644235       0.0203697908         46.1044949
                   0.000685344993         86.6469764     4.45957231e-05         85.9644235      0.00085984248         47.7225837     9.84607378e-07         126.961179
                   9.23980936e-07         133.222764       0.0203697878         46.1044919     9.84607265e-07         126.961175       0.0543801563        -99.0957423

          70000000       0.001021409         54.6218504     4.89373601e-05         85.5443315     0.000798770771         86.8247024     1.21856304e-06         127.398569
                   4.89373601e-05         85.5443315       0.0591167537        -109.628147     5.14918499e-05          85.696465       0.0230007454         39.7305237
                   0.000798770796         86.8247002     5.14918499e-05          85.696465     0.000941023888         50.6610845     1.29290659e-06         122.454884
                   1.21856289e-06         127.398571       0.0230007425         39.7305267     1.29290645e-06         122.454886       0.0592809295        -109.629811

          80000000     0.00111955361         56.9667838     5.52720837e-05         85.3529824      0.00091235516         86.9032292     1.53677579e-06         121.573559
                   5.52720837e-05         85.3529824       0.0634340809        -119.438546      5.8226274e-05         85.5517395        0.025356375         33.4718358
                   0.000912355181         86.9032311      5.8226274e-05         85.5517395      0.00102408999         53.0873277     1.62537109e-06         117.673637
                   1.53677563e-06         121.573563       0.0253563723         33.4718407     1.62537093e-06          117.67364       0.0636116226        -119.427422

          90000000     0.00121814293         58.9068805     6.14579888e-05         85.3249966      0.00102517974         86.9784184     1.87238831e-06         115.812625
                   6.14579888e-05         85.3249966       0.0669152536        -128.908484     6.48212556e-05         85.5462657       0.0274372902         27.3549291
                    0.00102517974         86.9784207     6.48212556e-05         85.5462657      0.00110755193         55.1190097     1.97524048e-06         112.771815
                   1.87238872e-06         115.812637       0.0274372968         27.3549412     1.97524085e-06         112.771826       0.0671016547        -128.883984

         100000000     0.00131682673         60.5380006     6.75563076e-05         85.4462181      0.00113723996         87.0697666     2.21849567e-06         110.169947
                   6.75563076e-05         85.4462181       0.0695129081        -137.975305     7.13347154e-05         85.6689099       0.0292342815         21.4106853
                    0.00113723993         87.0697676     7.13347154e-05         85.6689099      0.00119110028         56.8458789     2.33512943e-06          107.85714
                   2.21849743e-06          110.16997        0.029234306         21.4107077     2.33513104e-06         107.857162       0.0697038928        -137.937425

         110000000      0.0014152435         61.9632078     7.36419703e-05          85.698544      0.00125257303         87.3930584      2.5688366e-06         104.685377
                   7.36419703e-05          85.698544       0.0710831107        -146.731431     7.78365048e-05         85.9036076        0.030742129         15.6707528
                    0.00125257302         87.3930592     7.78365048e-05         85.9036076      0.00127432714         58.3392852     2.69848475e-06         103.000068
                    2.5688379e-06          104.68539       0.0307421455         15.6707648     2.69848595e-06          103.00008       0.0712737653        -146.681085

         120000000     0.00151446276         63.1569282     7.97821077e-05         86.0767623      0.00136904824         87.5813102     2.91989069e-06          99.379001
                   7.97821077e-05         86.0767623       0.0715094397        -155.429313     8.43901338e-05         86.2468285       0.0320007128         10.1325966
                    0.00136904823         87.5813107     8.43901337e-05         86.2468285      0.00135831148         59.6082512     3.06108308e-06         98.2464375
                   2.91989221e-06         99.3790093       0.0320007303         10.1326043      3.0610845e-06         98.2464455       0.0716942564         -155.36514

         130000000     0.00161408168         64.1617295     8.60650072e-05         86.5508229      0.00148674387         87.6613746     3.26881177e-06         94.2710961
                   8.60650072e-05         86.5508229       0.0707288939        -164.198143     9.10781884e-05         86.6722904       0.0330389263         4.80992026
                    0.00148674387          87.661375     9.10781884e-05         86.6722904      0.00144270533          60.689356     3.41963973e-06         93.6314251
                   3.26881263e-06         94.2710972       0.0330389353         4.80992096     3.41964054e-06         93.6314262       0.0709017566        -164.118396

         140000000     0.00171379415          65.011626     9.25882414e-05         87.0543977      0.00160573941         87.6341061     3.61009553e-06         89.4119285
                   9.25882414e-05         87.0543977       0.0687227968        -172.809674     9.79918505e-05         87.1217076       0.0338512334       -0.249817005
                     0.0016057394         87.6341064     9.79918505e-05         87.1217076      0.00152723071         61.6131572     3.76847051e-06         89.2140908
                   3.61009737e-06         89.4119357       0.0338512515       -0.249810187     3.76847223e-06         89.2140975       0.0688785184        -172.713118

         150000000     0.00181198886         65.8308271     9.94128413e-05         87.5523107      0.00172557121         87.4738435     3.94550706e-06         84.7931434
                   9.94128413e-05         87.5523107         0.06550266         178.463064     0.000105188097          87.564575       0.0344989116        -5.05973012
                    0.00172557121         87.4738436     0.000105188097          87.564575      0.00161166638         62.4051094     4.10892631e-06         84.9953626
                   3.94550721e-06         84.7931374       0.0344989129        -5.05973643     4.10892645e-06         84.9953572       0.0656356846         178.578693

         160000000     0.00191262849         66.3501262     0.000106594132         87.9996239      0.00184375991         87.1492216     4.27640219e-06          80.415644
                   0.000106594132         87.9996239       0.0610777697         169.460997     0.000112718753         87.9616579       0.0350236293        -9.62065545
                    0.00184375991         87.1492217     0.000112718753         87.9616579      0.00169583729         63.0863818     4.44204297e-06          80.981991
                   4.27640342e-06         80.4156423       0.0350236398        -9.62065762     4.44204412e-06         80.9819894       0.0611822418         169.598751

         170000000     0.00201143184         66.8789882     0.000114167628           88.33948      0.00195489222          86.725753     4.60196839e-06         76.3058219
                   0.000114167628           88.33948       0.0554081938         160.183576     0.000120617362         88.2628864         0.03543842        -13.9022764
                    0.00195489222         86.7257531     0.000120617362         88.2628864      0.00177960577         63.6745747     4.76692978e-06         77.2036806
                   4.60196958e-06         76.3058239       0.0354384296        -13.9022746      4.7669309e-06         77.2036822       0.0554790336         160.347991

         180000000     0.00210968087         67.3346267      0.00012212169         88.5434148      0.00205690902         86.4348728     4.92863922e-06         72.4366881
                    0.00012212169         88.5434148        0.048658511         150.238085     0.000128873316         88.4430375       0.0358055296        -17.9132908
                    0.00205690902         86.4348728     0.000128873316         88.4430375      0.00186286415         64.1843465     5.08962761e-06         73.6380873
                   4.92863936e-06         72.4366848       0.0358055306        -17.9132942     5.08962773e-06         73.6380843       0.0486896826          150.43481

         190000000     0.00220729977         67.7290437     0.000130426762         88.5854434      0.00215679749         86.3911309     5.26229243e-06         68.7879636
                   0.000130426762         88.5854434       0.0409511652         139.067082     0.000137459205         88.4787402       0.0362373796        -21.5412051
                    0.00215679749         86.3911309     0.000137459205         88.4787402       0.0019455299         64.6279596     5.41570581e-06          70.268362
                   5.26229253e-06         68.7879614       0.0362373803        -21.5412075      5.4157059e-06         70.2683599       0.0409357899         139.304456

         200000000     0.00230423571         68.0721048     0.000139021866          88.443142      0.00226032687         86.4728608     5.60722663e-06         65.3300156
                   0.000139021866          88.443142       0.0324506482         125.616695     0.000146317908         88.3494956       0.0368058994        -25.4872945
                    0.00226032687         86.4728607     0.000146317908         88.3494956      0.00202754238         65.0156743     5.74925158e-06         67.0669152
                   5.60722667e-06          65.330016       0.0368058996        -25.4872941     5.74925162e-06         67.0669156       0.0323806218         125.902596

         210000000     0.00240045377         68.3719449     0.000147814469         88.1180073      0.00236760276         86.5644476     5.97161426e-06         62.0258584
                   0.000147814469         88.1180073        0.023774156         106.851217     0.000155362173         88.0560182       0.0372388397        -29.0348999
                    0.00236760276         86.5644475     0.000155362173         88.0560182      0.00210885857         65.3560706     6.09789686e-06         64.0007355
                   5.97161428e-06         62.0258588       0.0372388398        -29.0348995     6.09789688e-06         64.0007359        0.023638241         107.164972

         220000000     0.00249593295         68.6353007     0.000156696655         87.6171368      0.00247713432         86.6276291     6.36477126e-06         58.8108913
                   0.000156696655         87.6171368       0.0165807403         74.8839417     0.000164489789         87.6041054       0.0378447061        -32.4538363
                    0.00247713432          86.627629     0.000164489789         87.6041054      0.00218944957         65.6563431     6.47045354e-06         61.0073476
                   6.36477128e-06         58.8108917       0.0378447063        -32.4538359     6.47045356e-06          61.007348        0.016378422         74.9917821

         230000000     0.00259066341         68.8677731     0.000165539914         86.9488905      0.00258780981         86.6597903     6.79235907e-06          55.633159
                   0.000165539914         86.9488905       0.0153079564          24.150104     0.000173578673         87.0008889       0.0386039369        -35.8397424
                    0.00258780981         86.6597903     0.000173578673         87.0008889      0.00226929804         65.9225404     6.87214485e-06         58.0370647
                   6.79235909e-06         55.6331593       0.0386039371         -35.839742     6.87214488e-06          58.037065       0.0151455482          23.565802

         240000000     0.00268464427         69.0740318     0.000174213031         86.1384581      0.00269901297         86.6670735     7.26304306e-06         52.4103485
                   0.000174213031         86.1384581       0.0222025666        -15.7127609     0.000182503793         86.2688744       0.0395389461        -39.2774324
                    0.00269901297         86.6670734     0.000182503793         86.2688744      0.00234839618          66.159758     7.31079137e-06          55.009257
                   7.26304309e-06         52.4103486       0.0395389462        -39.2774322      7.3107914e-06         55.0092572       0.0221741233        -16.3473613

         250000000     0.00277788174         69.2579792     0.000182584326          85.216338      0.00281042611         86.6559595     7.78333676e-06         49.0683163
                   0.000182584326          85.216338       0.0329088389        -37.8518037     0.000191139593         85.4356755       0.0406617811        -42.8406664
                    0.00281042611         86.6559595     0.000191139593         85.4356755      0.00242674389         66.3722942     7.79204223e-06          51.850177
                   7.78333676e-06         49.0683166       0.0406617811        -42.8406661     7.79204223e-06         51.8501773       0.0329744961        -38.3069319

         260000000     0.00287038751         69.4228832     0.000190519828          84.205632      0.00292188796         86.6315259     8.35546079e-06         45.5595035
                   0.000190519828          84.205632        0.044971847        -52.5755735     0.000199358394         84.5225929       0.0419618605        -46.5755503
                    0.00292188796         86.6315259     0.000199358394         84.5225929      0.00250434736         66.5637798     8.31744294e-06         48.5122493
                   8.35546081e-06         45.5595038       0.0419618607          -46.57555     8.31744297e-06         48.5122496       0.0451007869        -52.9080348

         270000000     0.00296217743         69.5714849     0.000197902589         83.1384077       0.0030333174         86.5974551     8.98165416e-06         41.8303266
                   0.000197902589         83.1384077       0.0575933032        -64.1155785     0.000207048961         83.5592174       0.0434315667         -50.534863
                     0.0030333174          86.597455     0.000207048961         83.5592174      0.00258121763         66.7372844     8.88831886e-06         44.9409288
                   8.98165419e-06         41.8303269       0.0434315669        -50.5348627     8.88831889e-06         44.9409291       0.0577688656        -64.3697549

         280000000     0.00305327036         69.7060879      0.00020465038         82.0618802      0.00314467486          86.556364     9.66451657e-06         37.8246669
                    0.00020465038         82.0618802       0.0702241583        -73.9077935      0.00021413387         82.5888552       0.0450676899        -54.7743836
                    0.00314467486          86.556364      0.00021413387         82.5888552      0.00265736957         66.8954063     9.50610075e-06         41.0772913
                   9.66451658e-06         37.8246671       0.0450676899        -54.7743833     9.50610076e-06         41.0772915       0.0704347697        -74.1105562

         290000000     0.00314368731         69.8286311     0.000210677725         80.9980848      0.00325594281         86.5101112     1.03995579e-05         33.5392072
                   0.000210677725         80.9980848       0.0827439404        -82.8346266     0.000220532946         81.6322833       0.0468345346        -59.2958517
                    0.00325594281         86.5101111     0.000220532946         81.6322833       0.0027328209         67.0403462     1.01657478e-05         36.9164687
                   1.03995579e-05         33.5392076       0.0468345346        -59.2958512     1.01657478e-05         36.9164691       0.0829806522        -83.0008042

         300000000     0.00323345062         69.9407495     0.000215935669          79.984577      0.00336711549         86.4600249     1.11835057e-05         28.9675374
                   0.000215935669          79.984577       0.0949130204        -91.2059791     0.000226201833          80.724109        0.048707831        -64.1045653
                    0.00336711549         86.4600248     0.000226201833          80.724109      0.00280759142         67.1739702     1.08633376e-05          32.449181
                    1.1183506e-05         28.9675273       0.0487078322        -64.1045759     1.08633377e-05         32.4491712       0.0951675922        -91.3449401

         310000000     0.00332258335         70.0438245     0.000220445475         79.0633476      0.00347819348         86.4070628     1.20135775e-05         24.0923984
                   0.000220445475         79.0633476        0.106449827        -99.1065624     0.000231163681         79.9025365        0.050669808        -69.2173978
                    0.00347819348         86.4070627     0.000231163681         79.9025365       0.0028817023         67.2978617      1.1595194e-05         27.6548083
                   1.20135775e-05         24.0923985       0.0506698078        -69.2173976     1.15951939e-05         27.6548085        0.106714599        -99.2245558

         320000000      0.0034111088         70.1390256     0.000224219173         78.2598338      0.00358918075         86.3519207     1.28824829e-05         18.9361024
                   0.000224219173         78.2598338        0.117292651         -106.70543     0.000235433243         79.1906813        0.052685605        -74.6105366
                    0.00358918075         86.3519207     0.000235433243         79.1906813       0.0029551756         67.4133656     1.23539228e-05         22.5536721
                   1.28824829e-05         18.9361027       0.0526856051        -74.6105362     1.23539228e-05         22.5536724        0.117559697         -106.80701

         330000000     0.00349905009         70.2273454     0.000227344485         77.6173913      0.00370008291         86.2951086      1.3787254e-05         13.5111232
                   0.000227344485         77.6173913        0.127069566        -114.030886     0.000239098385         78.6270509       0.0547434429        -80.2699316
                    0.00370008291         86.2951086     0.000239098385         78.6270509      0.00302803373         67.5216257     1.31363471e-05         17.1542735
