! Created Fri Jun 28 09:26:28 2019
# hz S ma R 50
! 4 Port Network Data from SP1.SP block
! freq  magS11  angS11  magS12  angS12  magS13  angS13  magS14  angS14  
!       magS21  angS21  magS22  angS22  magS23  angS23  magS24  angS24  
!       magS31  angS31  magS32  angS32  magS33  angS33  magS34  angS34  
!       magS41  angS41  magS42  angS42  magS43  angS43  magS44  angS44  
!     
          50000000      0.0501042344        -86.0134109     0.000174951738        -132.531273       0.0171319037         47.6398593     2.67219346e-05         -145.83621
                   0.000174951739        -132.531273       0.0490001335         -87.503735     0.000303089531        -130.954675       0.0174797942         52.5514674
                     0.0171319105          47.639876     0.000303089529        -130.954675       0.0502062527        -86.1414386     0.000176269643        -131.952784
                   2.67219331e-05        -145.836209       0.0174797908         52.5514586      0.00017626964        -131.952783       0.0491256253        -87.5308638

          60000000      0.0557851546        -96.8343384     0.000208084556        -139.039407       0.0199913782         39.9206683     3.10047884e-05         -150.96088
                   0.000208084557        -139.039407       0.0542333016        -99.0812491     0.000361111368        -137.463696       0.0203697908         46.1044949
                     0.0199913877         39.9206759     0.000361111369        -137.463696       0.0558692846        -96.9683994     0.000210023887        -138.175277
                   3.10047883e-05         -150.96088       0.0203697878         46.1044919     0.000210023887        -138.175277       0.0543801563        -99.0957423

          70000000      0.0611143358        -106.576234      0.00024139745        -145.681926       0.0226127677         32.1296835     3.55205628e-05        -156.224208
                   0.000241397451        -145.681927       0.0591167537        -109.628147     0.000419573904        -144.080738       0.0230007454         39.7305237
                      0.022612769         32.1296799     0.000419573906         -144.08074       0.0611932726        -106.709625     0.000244346915        -144.569457
                   3.55205635e-05        -156.224207       0.0230007425         39.7305267     0.000244346914        -144.569457       0.0592809295        -109.629811

          80000000      0.0658981033         -115.48811     0.000274977194        -152.428506       0.0249766479         24.2679031     4.03659261e-05        -161.707567
                   0.000274977194        -152.428506       0.0634340809        -119.438546     0.000478636686        -150.785912        0.025356375         33.4718358
                     0.0249766491         24.2678889     0.000478636687        -150.785912       0.0659657458        -115.620031     0.000279347151         -151.11251
                   4.03659265e-05        -161.707566       0.0253563723         33.4718407     0.000279347152         -151.11251       0.0636116226        -119.427422

          90000000      0.0698896055        -123.929384     0.000308970593        -159.280369       0.0270799808         16.3271465     4.56633116e-05        -167.530619
                   0.000308970594        -159.280369       0.0669152536        -128.908484     0.000538584539        -157.585213       0.0274372902         27.3549291
                     0.0270799811         16.3271202     0.000538584539        -157.585213        0.069932483         -124.05844     0.000315209488        -157.813157
                   4.56633112e-05        -167.530618       0.0274372968         27.3549412     0.000315209489        -157.813157       0.0671016547        -128.883984

         100000000      0.0730599948        -131.814265     0.000343334338        -166.213376       0.0289094319         8.29897002     5.13935994e-05        -173.685282
                   0.000343334339        -166.213375       0.0695129081        -137.975305     0.000599358323        -164.458623       0.0292342815         21.4106853
                     0.0289094401         8.29892411     0.000599358322        -164.458623       0.0730631224        -131.936618     0.000351831692        -164.640609
                   5.13935936e-05        -173.685269        0.029234306         21.4107077     0.000351831693         -164.64061       0.0697038928        -137.937425

         110000000      0.0752669469        -139.182727     0.000378099467        -173.230538       0.0304652723        0.152269685     5.76020346e-05         179.749055
                   0.000378099469        -173.230538       0.0710831107        -146.731431      0.00066100543         -171.40804        0.030742129         15.6707528
                      0.030465262        0.152240071     0.000661005429         -171.40804       0.0752247182        -139.297981     0.000389188118        -171.593738
                    5.7602034e-05         179.749057       0.0307421455         15.6707648     0.000389188118        -171.593738       0.0712737653        -146.681085

         120000000      0.0764198219        -146.241301     0.000413294552         179.670517       0.0317662311        -8.12229205     6.42690957e-05          172.82902
                   0.000413294554         179.670518       0.0715094397        -155.429313     0.000723666246        -178.438549       0.0320007128         10.1325966
                     0.0317662396        -8.12231243     0.000723666246        -178.438549       0.0763237092        -146.344527     0.000427317557        -178.668976
                   6.42690936e-05         172.829021       0.0320007303         10.1326043     0.000427317558        -178.668976       0.0716942564         -155.36514

         130000000      0.0764719774         -153.03575     0.000448967426         172.480414       0.0328321287        -16.5569641     7.14157188e-05         165.544599
                   0.000448967428         172.480414       0.0707288939        -164.198143     0.000787463597         174.438729       0.0330389263         4.80992026
                     0.0328321097        -16.5569762     0.000787463597         174.438729       0.0763151207        -153.121259     0.000466242678         174.128122
                   7.14157216e-05           165.5446       0.0330389353         4.80992096     0.000466242678         174.128122       0.0709017566        -164.118396

         140000000      0.0754428563        -159.246186     0.000484877763         165.250566       0.0336500388        -25.1668064     7.88863493e-05         158.046449
                   0.000484877765         165.250566       0.0687227968        -172.809674     0.000851957704         167.271564       0.0338512334       -0.249817005
                     0.0336500202         -25.166809     0.000851957703         167.271564       0.0752206724         -159.30608     0.000505587621         166.864735
                   7.88863511e-05         158.046449       0.0338512515       -0.249810187      0.00050558762         166.864735       0.0688785184        -172.713118

         150000000      0.0733759817        -164.991375     0.000521111398          157.95216        0.034271278        -33.9945025     8.67449124e-05         150.301914
                   0.000521111399          157.95216         0.06550266         178.463064     0.000917352304         160.030992       0.0344989116        -5.05973012
                     0.0342712688        -33.9945018     0.000917352304         160.030992       0.0730864239        -165.015645     0.000545478526         159.514313
                   8.67449138e-05         150.301914       0.0344989129        -5.05973643     0.000545478526         159.514313       0.0656356846         178.578693

         160000000       0.070325418        -170.207954     0.000557658208         150.577558       0.0347293596        -43.0763184     9.49982988e-05          142.32149
                    0.00055765821         150.577558       0.0610777697         169.460997     0.000983661752         152.707856       0.0350236293        -9.62065545
                     0.0347293506        -43.0763168     0.000983661752         152.707856       0.0699696946        -170.182095     0.000585911378         152.073171
                   9.49982994e-05          142.32149       0.0350236398        -9.62065762     0.000585911378         152.073171       0.0611822418         169.598751

         170000000      0.0663294077        -174.573239     0.000594248704         143.163016       0.0350388267        -52.4370128     0.000103489838         134.197431
                   0.000594248705         143.163016       0.0554081938         160.183576      0.00105036881         145.334523         0.03543842        -13.9022764
                     0.0350388174        -52.4370073      0.00105036881         145.334523       0.0659141323        -174.476408     0.000626515592         144.584708
                   0.000103489838          134.19743       0.0354384296        -13.9022746     0.000626515592         144.584708       0.0554790336         160.347991

         180000000      0.0616400858        -177.956921     0.000630934052         135.690793       0.0352589343        -62.1046635     0.000112305629         125.927203
                   0.000630934053         135.690793        0.048658511         150.238085      0.00111759946         137.893559       0.0358055296        -17.9132908
                     0.0352589341        -62.1046561      0.00111759946         137.893559         0.06117897        -177.758904     0.000667442656         137.033534
                   0.000112305629         125.927203       0.0358055306        -17.9132942     0.000667442657         137.033534       0.0486896826          150.43481

         190000000      0.0565071422         179.979711     0.000667661354         128.158054       0.0354355143        -72.0988927     0.000121468086         117.523749
                   0.000667661354         128.158054       0.0409511652         139.067082      0.00118527236         130.381001       0.0362373796        -21.5412051
                     0.0354355134        -72.0988782      0.00118527236         130.381001       0.0560244907        -179.679167     0.000708702616         129.418003
                   0.000121468085         117.523748       0.0362373803        -21.5412075     0.000708702617         129.418003       0.0409357899         139.304456

         200000000      0.0512515091         179.819988     0.000704139991         120.589134       0.0356094071        -82.4254819     0.000130840745         109.030996
                   0.000704139991         120.589134       0.0324506482         125.616695      0.00125277783         122.817773       0.0368058994        -25.4872945
                     0.0356094072         -82.425482      0.00125277783         122.817773       0.0507889355        -179.639843     0.000749936492         121.761677
                   0.000130840745         109.030996       0.0368058996        -25.4872941     0.000749936492         121.761677       0.0323806218         125.902596

         210000000      0.0465177668        -177.956096     0.000740356912         112.978657       0.0358425976        -93.0656686     0.000140503306         100.455716
                   0.000740356913         112.978657        0.023774156         106.851217      0.00132007685         115.199396       0.0372388397        -29.0348999
                     0.0358425959        -93.0656545      0.00132007685         115.199396       0.0461390573        -177.162629      0.00079124375         114.058891
                   0.000140503305         100.455716       0.0372388398        -29.0348995     0.000791243751         114.058891        0.023638241         107.164972

         220000000      0.0430982443        -173.044638     0.000776194901         105.331673       0.0361898164        -103.979586     0.000150472764         91.8048308
                   0.000776194901         105.331672       0.0165807403         74.8839417      0.00138689746          107.53044       0.0378447061        -32.4538363
                     0.0361898142        -103.979572      0.00138689746          107.53044       0.0428896868        -171.989953     0.000832562187         106.310709
                   0.000150472762         91.8048306       0.0378447063        -32.4538359     0.000832562189         106.310709        0.016378422         74.9917821

         230000000      0.0418533702        -165.795935     0.000811419245          97.659449        0.036696004        -115.116771     0.000160671519          83.090605
                   0.000811419246          97.659449       0.0153079564          24.150104      0.00145270979         99.8211284       0.0386039369        -35.8397424
                     0.0366960012        -115.116758      0.00145270979         99.8211284       0.0419019647        -164.586077     0.000873629555         98.5249377
                   0.000160671516         83.0906051       0.0386039371         -35.839742     0.000873629563         98.5249374       0.0151455482          23.565802

         240000000      0.0434819284        -158.005769     0.000846029515         89.9604421       0.0374085221        -126.388565     0.000171199084         74.3075483
                   0.000846029515         89.9604421       0.0222025666        -15.7127609      0.00151746126          92.071683       0.0395389461        -39.2774324
                     0.0374085106        -126.388558      0.00151746126         92.0716831       0.0438271415        -156.851601     0.000914542035         90.6951621
                   0.000171199081         74.3075476       0.0395389462        -39.2774322     0.000914542037         90.6951621       0.0221741233        -16.3473613

         250000000      0.0479390706        -151.854788     0.000879858427         82.2450446       0.0383637318        -137.686993     0.000182032846         65.4572071
                   0.000879858427         82.2450446       0.0329088389        -37.8518037      0.00158072607         84.2936178       0.0406617811        -42.8406664
                     0.0383637318        -137.686993      0.00158072607         84.2936178       0.0485511555        -150.924659      0.00095510371         82.8253179
                   0.000182032846         65.4572071       0.0406617811        -42.8406661      0.00095510371         82.8253179       0.0329744961        -38.3069319

         260000000      0.0546733628        -148.271412     0.000912740329         74.5196472       0.0395748611        -148.924952     0.000193120683         56.5382175
                   0.000912740329         74.5196473        0.044971847        -52.5755735      0.00164208819         76.4940978       0.0419618605        -46.5755503
                     0.0395748492        -148.924946      0.00164208819         76.4940978        0.055487822        -147.611635     0.000995080928         74.9175385
                    0.00019312068         56.5382171       0.0419618607          -46.57555      0.00099508093         74.9175385       0.0451007869        -52.9080348

         270000000      0.0629924886        -147.262985      0.00094463608         66.7873205       0.0410457049        -160.007517     0.000204495035         47.5453877
                   0.000944636081         66.7873205       0.0575933032        -64.1155785      0.00170140052         68.6786261       0.0434315667         -50.534863
                     0.0410457049        -160.007517      0.00170140052         68.6786261       0.0639422644        -146.840966      0.00103441541         66.9702424
                   0.000204495036         47.5453877       0.0434315669        -50.5348627      0.00103441541         66.9702424       0.0577688656        -64.3697549

         280000000      0.0720771393         -148.46788     0.000975405223         59.0624412       0.0427742315        -170.823109     0.000216095677         38.4784364
                   0.000975405234         59.0624402       0.0702241583        -73.9077935      0.00175826194         60.8648274       0.0450676899        -54.7743836
                      0.042774231         -170.82311      0.00175826194         60.8648274       0.0731053553        -148.228265       0.0010727987          58.990993
                   0.000216095685         38.4784349       0.0450676899        -54.7743833       0.0010727987          58.990993       0.0704347697        -74.1105562

         290000000      0.0815865513        -151.187241       0.0010050136         51.3432093       0.0447292163         178.655071     0.000227897216         29.3297974
                     0.0010050136         51.3432093       0.0827439404        -82.8346266      0.00181256908         53.0526976       0.0468345346        -59.2958517
                     0.0447292163         178.655071      0.00181256908         53.0526976       0.0826498386        -151.084873      0.00111010264         50.9768062
                   0.000227897216         29.3297974       0.0468345346        -59.2958512      0.00111010264         50.9768062       0.0829806522        -83.0008042

         300000000      0.0911290875        -155.018171      0.00103334431         43.6400462       0.0468815508         168.466888     0.000239795022         20.1026623
                    0.00103334439         43.6400487       0.0949130204        -91.2059791       0.0018639986         45.2555229        0.048707831        -64.1045653
                     0.0468815508         168.466887       0.0018639986          45.255523       0.0921920905        -155.019584       0.0011459842         42.9359996
                   0.000239795022         20.1026624       0.0487078322        -64.1045759       0.0011459842         42.9359996       0.0951675922        -91.3449401

         310000000       0.100276834        -159.727687      0.00106043636         35.9645849       0.0491951194         158.655853     0.000251763386         10.8015289
                    0.00106043636         35.9645849        0.106449827        -99.1065624      0.00191258832         37.4889652        0.050669808        -69.2173978
                     0.0491951194         158.655853      0.00191258832         37.4889652        0.101309392        -159.808289       0.0011802862         34.8780464
                   0.000251763386         10.8015288       0.0506698078        -69.2173976       0.0011802862         34.8780464        0.106714599        -99.2245558

         320000000       0.108910444        -165.058162      0.00108630166         28.3158259       0.0516263142         149.197366     0.000263726117         1.42347342
                    0.00108630166         28.3158259        0.117292651         -106.70543      0.00195835984         29.7543122        0.052685605        -74.6105366
                     0.0516263143         149.197366      0.00195835984         29.7543122        0.109886998        -165.201126      0.00121282336          26.803766
                   0.000263726117         1.42347341       0.0526856051        -74.6105362      0.00121282336          26.803766        0.117559697         -106.80701

         330000000       0.116629325        -170.890427      0.00111079304         20.7119715       0.0541414111          140.10011     0.000275417015        -8.02025203
                    0.00111079304         20.7119715        0.127069566        -114.030886      0.00200091753         22.0732008       0.0547434429        -80.2699316
                     0.0541414056         140.100117      0.00200091753         22.0732008        0.117527289        -171.084481       0.0012429965         18.7333011
